
SetupTitle, Output
PrimitiveTest, I/V Sweep
TestParameter, Context.MainFrame, 4155C
TestParameter, Channel.UnitType, SMU, SMU, SMU
TestParameter, Channel.Unit, SMU1:MP, SMU4:MP, SMU3:MP
TestParameter, Channel.IName, ID, IS, IG
TestParameter, Channel.VName, VD, VS, VG
TestParameter, Channel.Mode, V, COMMON, V
TestParameter, Channel.Func, VAR1, CONST, VAR2
TestParameter, Channel.Index, 
TestParameter, Channel.Time, 
TestParameter, Measurement.Port.Unit, SMU1:MP, SMU4:MP, SMU3:MP
TestParameter, Measurement.Port.SeriesResistor, NONE, NONE, NONE
TestParameter, Measurement.Port.Filter, ON, ON, ON
TestParameter, Measurement.Primary.Locus, Single
TestParameter, Measurement.Primary.Scale, LINEAR
TestParameter, Measurement.Primary.Start, 0
TestParameter, Measurement.Primary.Stop, 5
TestParameter, Measurement.Primary.Step, 0.5
TestParameter, Measurement.Primary.Compliance, 0.1
TestParameter, Measurement.Primary.PowerCompliance, 0
TestParameter, Measurement.Aborting.Condition, CONTINUE AT ANY
TestParameter, Measurement.PostOutput.Value, START
TestParameter, Measurement.PostOutput.Retention, OFF
TestParameter, Measurement.Secondary.Start, -1
TestParameter, Measurement.Secondary.Count, 7
TestParameter, Measurement.Secondary.Step, 1
TestParameter, Measurement.Secondary.Compliance, 0.1
TestParameter, Measurement.Secondary.PowerCompliance, 0
TestParameter, Measurement.Bias.Source, 0, 0, -1
TestParameter, Measurement.Bias.Compliance, 0.1, 0.1, 0.1
TestParameter, Measurement.Monitor.Unit, SMU1:MP, SMU4:MP, SMU3:MP
TestParameter, Measurement.Monitor.Adc, HR ADC, HR ADC, HR ADC
TestParameter, Measurement.Monitor.RangingMode, AUTO, AUTO, AUTO
TestParameter, Measurement.Monitor.RangeBoundary, , , 
TestParameter, Measurement.Monitor.RangeRating, BY FULL RANGE, BY FULL RANGE, BY FULL RANGE
TestParameter, Measurement.Monitor.RangeRatingCoeff, 50, 50, 50
TestParameter, Measurement.Timing.Hold, 0.5
TestParameter, Measurement.Timing.Delay, 0.05
TestParameter, Measurement.Adc.HighResolution.AutoZero, OFF
TestParameter, Measurement.Adc.HighResolution.Mode, AUTO
TestParameter, Measurement.Adc.HighResolution.Coeff, 1
TestParameter, Measurement.Ag16440ASelector.SemiconductorRelay.Channel1, DEFAULT
TestParameter, Measurement.Ag16440ASelector.SemiconductorRelay.Channel3, DEFAULT
TestParameter, Function.User.Name, absID, absIG
TestParameter, Function.User.Unit, A, A
TestParameter, Function.User.Definition, abs(ID), abs(IG)
TestParameter, Output.Graph.Enabled, true
TestParameter, Output.Graph.XAxis.Data, VD
TestParameter, Output.Graph.XAxis.Scale, Linear
TestParameter, Output.Graph.XAxis.Left, 0
TestParameter, Output.Graph.XAxis.Right, 7
TestParameter, Output.Graph.YAxis.Data, ID
TestParameter, Output.Graph.YAxis.Scale, Linear
TestParameter, Output.Graph.YAxis.Bottom, 1E-14
TestParameter, Output.Graph.YAxis.Top, 0.01
TestParameter, Output.Graph.YAxis.Group, 
TestParameter, Output.List.Data, VG, IG, VD, ID, VS, IS, absIG
TestParameter, AutoAnalysis.Interpolation, false
TestParameter, AutoAnalysis.Line1.Enabled, false
TestParameter, AutoAnalysis.Line1.Type, 1
TestParameter, AutoAnalysis.Line1.Fix, True
TestParameter, AutoAnalysis.Line1.YAxis, 0
TestParameter, AutoAnalysis.Line1.Point1.Type, 0
TestParameter, AutoAnalysis.Line1.Point1.XY.X, 
TestParameter, AutoAnalysis.Line1.Point1.XY.Y, 
TestParameter, AutoAnalysis.Line1.Point1.Data.Var, 
TestParameter, AutoAnalysis.Line1.Point1.Data.Condition, 
TestParameter, AutoAnalysis.Line1.Point1.Data.Start, false
TestParameter, AutoAnalysis.Line1.Point1.Data.StartVar, 
TestParameter, AutoAnalysis.Line1.Point1.Data.StartCondition, 
TestParameter, AutoAnalysis.Line1.Point2.Type, 0
TestParameter, AutoAnalysis.Line1.Point2.XY.X, 
TestParameter, AutoAnalysis.Line1.Point2.XY.Y, 
TestParameter, AutoAnalysis.Line1.Point2.Data.Var, 
TestParameter, AutoAnalysis.Line1.Point2.Data.Condition, 
TestParameter, AutoAnalysis.Line1.Point2.Data.Start, false
TestParameter, AutoAnalysis.Line1.Point2.Data.StartVar, 
TestParameter, AutoAnalysis.Line1.Point2.Data.StartCondition, 
TestParameter, AutoAnalysis.Line1.GradientExpr, 0
TestParameter, AutoAnalysis.Line2.Enabled, false
TestParameter, AutoAnalysis.Line2.Type, 1
TestParameter, AutoAnalysis.Line2.Fix, True
TestParameter, AutoAnalysis.Line2.YAxis, 0
TestParameter, AutoAnalysis.Line2.Point1.Type, 0
TestParameter, AutoAnalysis.Line2.Point1.XY.X, 
TestParameter, AutoAnalysis.Line2.Point1.XY.Y, 
TestParameter, AutoAnalysis.Line2.Point1.Data.Var, 
TestParameter, AutoAnalysis.Line2.Point1.Data.Condition, 
TestParameter, AutoAnalysis.Line2.Point1.Data.Start, false
TestParameter, AutoAnalysis.Line2.Point1.Data.StartVar, 
TestParameter, AutoAnalysis.Line2.Point1.Data.StartCondition, 
TestParameter, AutoAnalysis.Line2.Point2.Type, 0
TestParameter, AutoAnalysis.Line2.Point2.XY.X, 
TestParameter, AutoAnalysis.Line2.Point2.XY.Y, 
TestParameter, AutoAnalysis.Line2.Point2.Data.Var, 
TestParameter, AutoAnalysis.Line2.Point2.Data.Condition, 
TestParameter, AutoAnalysis.Line2.Point2.Data.Start, false
TestParameter, AutoAnalysis.Line2.Point2.Data.StartVar, 
TestParameter, AutoAnalysis.Line2.Point2.Data.StartCondition, 
TestParameter, AutoAnalysis.Line2.GradientExpr, 0
TestParameter, AutoAnalysis.Marker.Enabled, false
TestParameter, AutoAnalysis.Marker.Data.Var, 
TestParameter, AutoAnalysis.Marker.Data.Condition, 
TestParameter, AutoAnalysis.Marker.Data.Start, false
TestParameter, AutoAnalysis.Marker.Data.StartVar, 
TestParameter, AutoAnalysis.Marker.Data.StartCondition, 
MetaData, TestRecord.EntryPoint, true
MetaData, TestRecord.RecordTime, 04/23/2019 17:27:52
MetaData, TestRecord.TestTarget, 24
MetaData, TestRecord.IterationIndex, 1
MetaData, TestRecord.Preservation, true
MetaData, TestRecord.Flag, 
MetaData, TestRecord.Remarks, 150-300-G24
MetaData, TestRecord.LinkKey, 238ccc88-171c-4ad5-a461-3893489e02a1
Dimension1, 11, 11, 11, 11, 11, 11, 11, 11
Dimension2, 7, 7, 7, 7, 7, 7, 7, 7
DataName, VD, VG, VS, ID, IS, IG, absID, absIG
DataValue, 0, -1, 0, 1.2570000000000002E-12, 2.917E-12, -3.276E-12, 1.2570000000000002E-12, 3.276E-12
DataValue, 0.5, -1, 0, 2.5170000000000003E-12, 5.2130000000000005E-12, -6.46E-12, 2.5170000000000003E-12, 6.46E-12
DataValue, 1, -1, 0, 8.184E-12, 5.303E-12, -9.4640000000000009E-12, 8.184E-12, 9.4640000000000009E-12
DataValue, 1.5, -1, 0, 1.282E-11, 2.9180000000000003E-12, -1.6026E-11, 1.282E-11, 1.6026E-11
DataValue, 2, -1, 0, 2.8013000000000002E-11, 8.604E-12, -3.4051000000000003E-11, 2.8013000000000002E-11, 3.4051000000000003E-11
DataValue, 2.5, -1, 0, 5.037E-11, 6.9800000000000006E-13, -5.2945000000000004E-11, 5.037E-11, 5.2945000000000004E-11
DataValue, 3, -1, 0, 7.7124000000000009E-11, 1.4490000000000002E-12, -8.1893E-11, 7.7124000000000009E-11, 8.1893E-11
DataValue, 3.5, -1, 0, 1.233E-10, 1.5070000000000001E-12, -1.4933900000000002E-10, 1.233E-10, 1.4933900000000002E-10
DataValue, 4, -1, 0, 2.64103E-10, 1.08E-12, -1.50185E-10, 2.64103E-10, 1.50185E-10
DataValue, 4.5, -1, 0, 1.9349300000000002E-10, -7.7000000000000005E-13, -1.9272200000000003E-10, 1.9349300000000002E-10, 1.9272200000000003E-10
DataValue, 5, -1, 0, 2.77348E-10, 7.340000000000001E-13, -2.8063600000000004E-10, 2.77348E-10, 2.8063600000000004E-10
DataValue, 0, 0, 0, 1.0836900000000001E-10, -1.1308400000000001E-10, 7.285E-12, 1.0836900000000001E-10, 7.285E-12
DataValue, 0.5, 0, 0, 6.40194E-09, -6.46862E-09, 4.417E-12, 6.40194E-09, 4.417E-12
DataValue, 1, 0, 0, 6.54502E-09, -6.54083E-09, -2E-13, 6.54502E-09, 2E-13
DataValue, 1.5, 0, 0, 6.578E-09, -6.5753199999999996E-09, -4.6530000000000005E-12, 6.578E-09, 4.6530000000000005E-12
DataValue, 2, 0, 0, 6.60488E-09, -6.59646E-09, -8.113E-12, 6.60488E-09, 8.113E-12
DataValue, 2.5, 0, 0, 6.61863E-09, -6.59919E-09, -1.8113000000000002E-11, 6.61863E-09, 1.8113000000000002E-11
DataValue, 3, 0, 0, 6.62772E-09, -6.6025E-09, -2.7152000000000002E-11, 6.62772E-09, 2.7152000000000002E-11
DataValue, 3.5, 0, 0, 6.65036E-09, -6.60518E-09, -4.5226000000000006E-11, 6.65036E-09, 4.5226000000000006E-11
DataValue, 4, 0, 0, 6.67623E-09, -6.60841E-09, -6.9561E-11, 6.67623E-09, 6.9561E-11
DataValue, 4.5, 0, 0, 6.70821E-09, -6.60445E-09, -9.3540000000000007E-11, 6.70821E-09, 9.3540000000000007E-11
DataValue, 5, 0, 0, 6.74964E-09, -6.61705E-09, -1.30836E-10, 6.74964E-09, 1.30836E-10
DataValue, 0, 1, 0, 1.1416499999999998E-08, -1.13196E-08, 1.4270000000000001E-11, 1.1416499999999998E-08, 1.4270000000000001E-11
DataValue, 0.5, 1, 0, 6.1643800000000009E-06, -6.1512900000000009E-06, 6.516E-12, 6.1643800000000009E-06, 6.516E-12
DataValue, 1, 1, 0, 8.17398E-06, -8.1741900000000014E-06, 8.540000000000001E-13, 8.17398E-06, 8.540000000000001E-13
DataValue, 1.5, 1, 0, 8.3112500000000011E-06, -8.30318E-06, -2.364E-12, 8.3112500000000011E-06, 2.364E-12
DataValue, 2, 1, 0, 8.22178E-06, -8.2099500000000009E-06, -3.3100000000000002E-12, 8.22178E-06, 3.3100000000000002E-12
DataValue, 2.5, 1, 0, 8.12468E-06, -8.1138900000000014E-06, -8.3130000000000014E-12, 8.12468E-06, 8.3130000000000014E-12
DataValue, 3, 1, 0, 8.02764E-06, -8.01825E-06, -1.0116000000000001E-11, 8.02764E-06, 1.0116000000000001E-11
DataValue, 3.5, 1, 0, 7.93884E-06, -7.92857E-06, -1.7309E-11, 7.93884E-06, 1.7309E-11
DataValue, 4, 1, 0, 7.8525500000000016E-06, -7.8410200000000014E-06, -2.8966000000000002E-11, 7.8525500000000016E-06, 2.8966000000000002E-11
DataValue, 4.5, 1, 0, 7.77318E-06, -7.76179E-06, -4.5468E-11, 7.77318E-06, 4.5468E-11
DataValue, 5, 1, 0, 7.69883E-06, -7.6880700000000014E-06, -7.0692000000000008E-11, 7.69883E-06, 7.0692000000000008E-11
DataValue, 0, 2, 0, 3.7752299999999996E-08, -3.7919099999999996E-08, 2.0693E-11, 3.7752299999999996E-08, 2.0693E-11
DataValue, 0.5, 2, 0, 2.21699E-05, -2.2194E-05, 1.0772000000000001E-11, 2.21699E-05, 1.0772000000000001E-11
DataValue, 1, 2, 0, 3.70765E-05, -3.71596E-05, 4.451E-12, 3.70765E-05, 4.451E-12
DataValue, 1.5, 2, 0, 4.6517700000000004E-05, -4.6597E-05, 3.117E-12, 4.6517700000000004E-05, 3.117E-12
DataValue, 2, 2, 0, 5.1252700000000005E-05, -5.1295500000000004E-05, 4.3200000000000003E-13, 5.1252700000000005E-05, 4.3200000000000003E-13
DataValue, 2.5, 2, 0, 5.29084E-05, -5.29257E-05, -5.074E-12, 5.29084E-05, 5.074E-12
DataValue, 3, 2, 0, 5.33205E-05, -5.33213E-05, -5.9230000000000005E-12, 5.33205E-05, 5.9230000000000005E-12
DataValue, 3.5, 2, 0, 5.34025E-05, -5.33977E-05, -7.7E-12, 5.34025E-05, 7.7E-12
DataValue, 4, 2, 0, 5.34085E-05, -5.3400700000000005E-05, -1.0076E-11, 5.34085E-05, 1.0076E-11
DataValue, 4.5, 2, 0, 5.33967E-05, -5.33888E-05, -1.9027E-11, 5.33967E-05, 1.9027E-11
DataValue, 5, 2, 0, 5.3388000000000005E-05, -5.338E-05, -2.9601E-11, 5.3388000000000005E-05, 2.9601E-11
DataValue, 0, 3, 0, 6.5145399999999987E-08, -6.5061999999999991E-08, 2.3655E-11, 6.5145399999999987E-08, 2.3655E-11
DataValue, 0.5, 3, 0, 4.20659E-05, -4.2067E-05, 1.2535E-11, 4.20659E-05, 1.2535E-11
DataValue, 1, 3, 0, 7.48043E-05, -7.48213E-05, 9.7200000000000014E-12, 7.48043E-05, 9.7200000000000014E-12
DataValue, 1.5, 3, 0, 9.9527E-05, -9.96251E-05, 6.255E-12, 9.9527E-05, 6.255E-12
DataValue, 2, 3, 0, 0.000118102, -0.000118221, 5.5130000000000004E-12, 0.000118102, 5.5130000000000004E-12
DataValue, 2.5, 3, 0, 0.000130636, -0.000130781, 3.1640000000000003E-12, 0.000130636, 3.1640000000000003E-12
DataValue, 3, 3, 0, 0.000138478, -0.000138598, -4.01E-13, 0.000138478, 4.01E-13
DataValue, 3.5, 3, 0, 0.000142599, -0.000142687, -5.5400000000000006E-13, 0.000142599, 5.5400000000000006E-13
DataValue, 4, 3, 0, 0.000144528, -0.000144584, -5.243E-12, 0.000144528, 5.243E-12
DataValue, 4.5, 3, 0, 0.00014541400000000001, -0.000145451, -6.3770000000000008E-12, 0.00014541400000000001, 6.3770000000000008E-12
DataValue, 5, 3, 0, 0.00014589600000000001, -0.00014592700000000001, -9.206000000000001E-12, 0.00014589600000000001, 9.206000000000001E-12
DataValue, 0, 4, 0, 9.0952699999999991E-08, -9.08923E-08, 3.3806E-11, 9.0952699999999991E-08, 3.3806E-11
DataValue, 0.5, 4, 0, 6.08402E-05, -6.08555E-05, 2.2788000000000002E-11, 6.08402E-05, 2.2788000000000002E-11
DataValue, 1, 4, 0, 0.00011315110000000001, -0.00011318890000000001, 1.8091E-11, 0.00011315110000000001, 1.8091E-11
DataValue, 1.5, 4, 0, 0.00015673800000000002, -0.000156841, 1.3259E-11, 0.00015673800000000002, 1.3259E-11
DataValue, 2, 4, 0, 0.00019206300000000002, -0.00019215400000000002, 9.5840000000000012E-12, 0.00019206300000000002, 9.5840000000000012E-12
DataValue, 2.5, 4, 0, 0.000219575, -0.000219731, 8.766E-12, 0.000219575, 8.766E-12
DataValue, 3, 4, 0, 0.00024101100000000001, -0.000241295, 4.8970000000000006E-12, 0.00024101100000000001, 4.8970000000000006E-12
DataValue, 3.5, 4, 0, 0.000256961, -0.00025724200000000003, 4.556E-12, 0.000256961, 4.556E-12
DataValue, 4, 4, 0, 0.00026791, -0.00026815300000000003, 4.0060000000000005E-12, 0.00026791, 4.0060000000000005E-12
DataValue, 4.5, 4, 0, 0.000274806, -0.00027502500000000003, 3.4310000000000002E-12, 0.000274806, 3.4310000000000002E-12
DataValue, 5, 4, 0, 0.000278973, -0.00027914300000000003, -1.7280000000000001E-12, 0.000278973, 1.7280000000000001E-12
DataValue, 0, 5, 0, 1.12989E-07, -1.1296399999999999E-07, 4.4272000000000004E-11, 1.12989E-07, 4.4272000000000004E-11
DataValue, 0.5, 5, 0, 7.73659E-05, -7.7321E-05, 3.1877000000000004E-11, 7.73659E-05, 3.1877000000000004E-11
DataValue, 1, 5, 0, 0.000146839, -0.00014678800000000002, 2.3552000000000003E-11, 0.000146839, 2.3552000000000003E-11
DataValue, 1.5, 5, 0, 0.00020871000000000003, -0.00020885400000000002, 1.8928000000000002E-11, 0.00020871000000000003, 1.8928000000000002E-11
DataValue, 2, 5, 0, 0.000262109, -0.000262112, 1.5734000000000002E-11, 0.000262109, 1.5734000000000002E-11
DataValue, 2.5, 5, 0, 0.00030709600000000003, -0.00030725800000000003, 1.454E-11, 0.00030709600000000003, 1.454E-11
DataValue, 3, 5, 0, 0.00034541000000000004, -0.00034532000000000003, 1.0739000000000001E-11, 0.00034541000000000004, 1.0739000000000001E-11
DataValue, 3.5, 5, 0, 0.00037522300000000005, -0.00037558400000000004, 1.0492E-11, 0.00037522300000000005, 1.0492E-11
DataValue, 4, 5, 0, 0.000399125, -0.000399348, 7.679E-12, 0.000399125, 7.679E-12
DataValue, 4.5, 5, 0, 0.000417958, -0.00041829400000000004, 8.9190000000000011E-12, 0.000417958, 8.9190000000000011E-12
DataValue, 5, 5, 0, 0.00043175, -0.00043211400000000004, 6.8800000000000006E-12, 0.00043175, 6.8800000000000006E-12