
SetupTitle, Output
PrimitiveTest, I/V Sweep
TestParameter, Context.MainFrame, 4155C
TestParameter, Channel.UnitType, SMU, SMU, SMU
TestParameter, Channel.Unit, SMU1:MP, SMU4:MP, SMU3:MP
TestParameter, Channel.IName, ID, IS, IG
TestParameter, Channel.VName, VD, VS, VG
TestParameter, Channel.Mode, V, COMMON, V
TestParameter, Channel.Func, VAR1, CONST, VAR2
TestParameter, Channel.Index, 
TestParameter, Channel.Time, 
TestParameter, Measurement.Port.Unit, SMU1:MP, SMU4:MP, SMU3:MP
TestParameter, Measurement.Port.SeriesResistor, NONE, NONE, NONE
TestParameter, Measurement.Port.Filter, ON, ON, ON
TestParameter, Measurement.Primary.Locus, Single
TestParameter, Measurement.Primary.Scale, LINEAR
TestParameter, Measurement.Primary.Start, 0
TestParameter, Measurement.Primary.Stop, 5
TestParameter, Measurement.Primary.Step, 0.5
TestParameter, Measurement.Primary.Compliance, 0.1
TestParameter, Measurement.Primary.PowerCompliance, 0
TestParameter, Measurement.Aborting.Condition, CONTINUE AT ANY
TestParameter, Measurement.PostOutput.Value, START
TestParameter, Measurement.PostOutput.Retention, OFF
TestParameter, Measurement.Secondary.Start, -1
TestParameter, Measurement.Secondary.Count, 7
TestParameter, Measurement.Secondary.Step, 1
TestParameter, Measurement.Secondary.Compliance, 0.1
TestParameter, Measurement.Secondary.PowerCompliance, 0
TestParameter, Measurement.Bias.Source, 0, 0, -1
TestParameter, Measurement.Bias.Compliance, 0.1, 0.1, 0.1
TestParameter, Measurement.Monitor.Unit, SMU1:MP, SMU4:MP, SMU3:MP
TestParameter, Measurement.Monitor.Adc, HR ADC, HR ADC, HR ADC
TestParameter, Measurement.Monitor.RangingMode, AUTO, AUTO, AUTO
TestParameter, Measurement.Monitor.RangeBoundary, , , 
TestParameter, Measurement.Monitor.RangeRating, BY FULL RANGE, BY FULL RANGE, BY FULL RANGE
TestParameter, Measurement.Monitor.RangeRatingCoeff, 50, 50, 50
TestParameter, Measurement.Timing.Hold, 0.5
TestParameter, Measurement.Timing.Delay, 0.05
TestParameter, Measurement.Adc.HighResolution.AutoZero, OFF
TestParameter, Measurement.Adc.HighResolution.Mode, AUTO
TestParameter, Measurement.Adc.HighResolution.Coeff, 1
TestParameter, Measurement.Ag16440ASelector.SemiconductorRelay.Channel1, DEFAULT
TestParameter, Measurement.Ag16440ASelector.SemiconductorRelay.Channel3, DEFAULT
TestParameter, Function.User.Name, absID, absIG
TestParameter, Function.User.Unit, A, A
TestParameter, Function.User.Definition, abs(ID), abs(IG)
TestParameter, Output.Graph.Enabled, true
TestParameter, Output.Graph.XAxis.Data, VD
TestParameter, Output.Graph.XAxis.Scale, Linear
TestParameter, Output.Graph.XAxis.Left, 0
TestParameter, Output.Graph.XAxis.Right, 7
TestParameter, Output.Graph.YAxis.Data, ID
TestParameter, Output.Graph.YAxis.Scale, Linear
TestParameter, Output.Graph.YAxis.Bottom, 1E-14
TestParameter, Output.Graph.YAxis.Top, 0.01
TestParameter, Output.Graph.YAxis.Group, 
TestParameter, Output.List.Data, VG, IG, VD, ID, VS, IS, absIG
TestParameter, AutoAnalysis.Interpolation, false
TestParameter, AutoAnalysis.Line1.Enabled, false
TestParameter, AutoAnalysis.Line1.Type, 1
TestParameter, AutoAnalysis.Line1.Fix, True
TestParameter, AutoAnalysis.Line1.YAxis, 0
TestParameter, AutoAnalysis.Line1.Point1.Type, 0
TestParameter, AutoAnalysis.Line1.Point1.XY.X, 
TestParameter, AutoAnalysis.Line1.Point1.XY.Y, 
TestParameter, AutoAnalysis.Line1.Point1.Data.Var, 
TestParameter, AutoAnalysis.Line1.Point1.Data.Condition, 
TestParameter, AutoAnalysis.Line1.Point1.Data.Start, false
TestParameter, AutoAnalysis.Line1.Point1.Data.StartVar, 
TestParameter, AutoAnalysis.Line1.Point1.Data.StartCondition, 
TestParameter, AutoAnalysis.Line1.Point2.Type, 0
TestParameter, AutoAnalysis.Line1.Point2.XY.X, 
TestParameter, AutoAnalysis.Line1.Point2.XY.Y, 
TestParameter, AutoAnalysis.Line1.Point2.Data.Var, 
TestParameter, AutoAnalysis.Line1.Point2.Data.Condition, 
TestParameter, AutoAnalysis.Line1.Point2.Data.Start, false
TestParameter, AutoAnalysis.Line1.Point2.Data.StartVar, 
TestParameter, AutoAnalysis.Line1.Point2.Data.StartCondition, 
TestParameter, AutoAnalysis.Line1.GradientExpr, 0
TestParameter, AutoAnalysis.Line2.Enabled, false
TestParameter, AutoAnalysis.Line2.Type, 1
TestParameter, AutoAnalysis.Line2.Fix, True
TestParameter, AutoAnalysis.Line2.YAxis, 0
TestParameter, AutoAnalysis.Line2.Point1.Type, 0
TestParameter, AutoAnalysis.Line2.Point1.XY.X, 
TestParameter, AutoAnalysis.Line2.Point1.XY.Y, 
TestParameter, AutoAnalysis.Line2.Point1.Data.Var, 
TestParameter, AutoAnalysis.Line2.Point1.Data.Condition, 
TestParameter, AutoAnalysis.Line2.Point1.Data.Start, false
TestParameter, AutoAnalysis.Line2.Point1.Data.StartVar, 
TestParameter, AutoAnalysis.Line2.Point1.Data.StartCondition, 
TestParameter, AutoAnalysis.Line2.Point2.Type, 0
TestParameter, AutoAnalysis.Line2.Point2.XY.X, 
TestParameter, AutoAnalysis.Line2.Point2.XY.Y, 
TestParameter, AutoAnalysis.Line2.Point2.Data.Var, 
TestParameter, AutoAnalysis.Line2.Point2.Data.Condition, 
TestParameter, AutoAnalysis.Line2.Point2.Data.Start, false
TestParameter, AutoAnalysis.Line2.Point2.Data.StartVar, 
TestParameter, AutoAnalysis.Line2.Point2.Data.StartCondition, 
TestParameter, AutoAnalysis.Line2.GradientExpr, 0
TestParameter, AutoAnalysis.Marker.Enabled, false
TestParameter, AutoAnalysis.Marker.Data.Var, 
TestParameter, AutoAnalysis.Marker.Data.Condition, 
TestParameter, AutoAnalysis.Marker.Data.Start, false
TestParameter, AutoAnalysis.Marker.Data.StartVar, 
TestParameter, AutoAnalysis.Marker.Data.StartCondition, 
MetaData, TestRecord.EntryPoint, true
MetaData, TestRecord.RecordTime, 04/24/2019 15:23:00
MetaData, TestRecord.TestTarget, 37
MetaData, TestRecord.IterationIndex, 1
MetaData, TestRecord.Preservation, true
MetaData, TestRecord.Flag, 
MetaData, TestRecord.Remarks, 350-300-G37
MetaData, TestRecord.LinkKey, 8715c7c9-4973-4b17-aeec-d62a5ae4d4e4
Dimension1, 11, 11, 11, 11, 11, 11, 11, 11
Dimension2, 7, 7, 7, 7, 7, 7, 7, 7
DataName, VD, VG, VS, ID, IS, IG, absID, absIG
DataValue, 0, -1, 0, 4.22E-13, 2.3050000000000004E-12, -3.87E-13, 4.22E-13, 3.87E-13
DataValue, 0.5, -1, 0, 8.065E-12, -4.9630000000000006E-12, -1.122E-12, 8.065E-12, 1.122E-12
DataValue, 1, -1, 0, 1.048E-11, -8.941E-12, 1.2670000000000002E-12, 1.048E-11, 1.2670000000000002E-12
DataValue, 1.5, -1, 0, 1.2518000000000001E-11, -1.1735E-11, -6.12E-13, 1.2518000000000001E-11, 6.12E-13
DataValue, 2, -1, 0, 1.3945000000000002E-11, -1.2425000000000002E-11, -1.843E-12, 1.3945000000000002E-11, 1.843E-12
DataValue, 2.5, -1, 0, 1.5965E-11, -1.4761E-11, -1.5150000000000001E-12, 1.5965E-11, 1.5150000000000001E-12
DataValue, 3, -1, 0, 1.679E-11, -1.4245000000000002E-11, -1.02E-12, 1.679E-11, 1.02E-12
DataValue, 3.5, -1, 0, 1.89E-11, -1.6566000000000002E-11, -1.2360000000000002E-12, 1.89E-11, 1.2360000000000002E-12
DataValue, 4, -1, 0, 2.0668E-11, -1.7996E-11, -1.6340000000000001E-12, 2.0668E-11, 1.6340000000000001E-12
DataValue, 4.5, -1, 0, 2.0943E-11, -1.9234000000000003E-11, -1.981E-12, 2.0943E-11, 1.981E-12
DataValue, 5, -1, 0, 2.3564000000000003E-11, -2.1901000000000002E-11, -5.7600000000000007E-13, 2.3564000000000003E-11, 5.7600000000000007E-13
DataValue, 0, 0, 0, 1.42079E-10, -1.3562000000000002E-10, 8.01E-13, 1.42079E-10, 8.01E-13
DataValue, 0.5, 0, 0, 1.52933E-08, -1.53089E-08, 3.0000000000000003E-13, 1.52933E-08, 3.0000000000000003E-13
DataValue, 1, 0, 0, 1.5432599999999998E-08, -1.53907E-08, 2.2200000000000001E-13, 1.5432599999999998E-08, 2.2200000000000001E-13
DataValue, 1.5, 0, 0, 1.54E-08, -1.5372499999999998E-08, -6.4700000000000007E-13, 1.54E-08, 6.4700000000000007E-13
DataValue, 2, 0, 0, 1.5320499999999998E-08, -1.5289E-08, -8.9800000000000011E-13, 1.5320499999999998E-08, 8.9800000000000011E-13
DataValue, 2.5, 0, 0, 1.52143E-08, -1.52044E-08, -3.5330000000000004E-12, 1.52143E-08, 3.5330000000000004E-12
DataValue, 3, 0, 0, 1.51752E-08, -1.5163899999999997E-08, -1.533E-12, 1.51752E-08, 1.533E-12
DataValue, 3.5, 0, 0, 1.51071E-08, -1.50815E-08, 1.4260000000000002E-12, 1.51071E-08, 1.4260000000000002E-12
DataValue, 4, 0, 0, 1.5036999999999998E-08, -1.5041699999999997E-08, -8.8500000000000007E-13, 1.5036999999999998E-08, 8.8500000000000007E-13
DataValue, 4.5, 0, 0, 1.49945E-08, -1.49759E-08, -1.473E-12, 1.49945E-08, 1.473E-12
DataValue, 5, 0, 0, 1.4925999999999997E-08, -1.49182E-08, -1.162E-12, 1.4925999999999997E-08, 1.162E-12
DataValue, 0, 1, 0, 4.74713E-09, -4.52636E-09, 1.452E-12, 4.74713E-09, 1.452E-12
DataValue, 0.5, 1, 0, 1.57808E-06, -1.53786E-06, 1.028E-12, 1.57808E-06, 1.028E-12
DataValue, 1, 1, 0, 1.6617000000000001E-06, -1.6508300000000001E-06, -3.98E-13, 1.6617000000000001E-06, 3.98E-13
DataValue, 1.5, 1, 0, 1.5592800000000001E-06, -1.5505200000000002E-06, -7.4200000000000007E-13, 1.5592800000000001E-06, 7.4200000000000007E-13
DataValue, 2, 1, 0, 1.4994700000000002E-06, -1.49233E-06, -1.117E-12, 1.4994700000000002E-06, 1.117E-12
DataValue, 2.5, 1, 0, 1.4455100000000002E-06, -1.4402600000000002E-06, -1.2290000000000001E-12, 1.4455100000000002E-06, 1.2290000000000001E-12
DataValue, 3, 1, 0, 1.4007900000000001E-06, -1.39613E-06, -1.337E-12, 1.4007900000000001E-06, 1.337E-12
DataValue, 3.5, 1, 0, 1.3626800000000002E-06, -1.3565100000000001E-06, -1.1540000000000001E-12, 1.3626800000000002E-06, 1.1540000000000001E-12
DataValue, 4, 1, 0, 1.3249900000000002E-06, -1.3208100000000002E-06, -3.38E-13, 1.3249900000000002E-06, 3.38E-13
DataValue, 4.5, 1, 0, 1.29338E-06, -1.2887600000000002E-06, -9.28E-13, 1.29338E-06, 9.28E-13
DataValue, 5, 1, 0, 1.26265E-06, -1.2580500000000002E-06, -1.2460000000000001E-12, 1.26265E-06, 1.2460000000000001E-12
DataValue, 0, 2, 0, 1.2498999999999998E-08, -1.26136E-08, 1.1210000000000002E-12, 1.2498999999999998E-08, 1.1210000000000002E-12
DataValue, 0.5, 2, 0, 6.2976500000000006E-06, -6.2649500000000009E-06, 7.33E-13, 6.2976500000000006E-06, 7.33E-13
DataValue, 1, 2, 0, 9.5339200000000017E-06, -9.501630000000001E-06, -1.431E-12, 9.5339200000000017E-06, 1.431E-12
DataValue, 1.5, 2, 0, 1.04233E-05, -1.036789E-05, -3.9000000000000005E-13, 1.04233E-05, 3.9000000000000005E-13
DataValue, 2, 2, 0, 1.0482E-05, -1.0434470000000001E-05, -5.22E-13, 1.0482E-05, 5.22E-13
DataValue, 2.5, 2, 0, 1.01327E-05, -1.008853E-05, 5.4E-13, 1.01327E-05, 5.4E-13
DataValue, 3, 2, 0, 9.7799500000000011E-06, -9.7525200000000016E-06, -1.387E-12, 9.7799500000000011E-06, 1.387E-12
DataValue, 3.5, 2, 0, 9.5274700000000011E-06, -9.5016400000000017E-06, -1.049E-12, 9.5274700000000011E-06, 1.049E-12
DataValue, 4, 2, 0, 9.2800000000000009E-06, -9.2439900000000009E-06, -8.0300000000000011E-13, 9.2800000000000009E-06, 8.0300000000000011E-13
DataValue, 4.5, 2, 0, 9.1044100000000011E-06, -9.0795900000000013E-06, -1.5430000000000002E-12, 9.1044100000000011E-06, 1.5430000000000002E-12
DataValue, 5, 2, 0, 8.94184E-06, -8.9499900000000017E-06, -4.0500000000000004E-13, 8.94184E-06, 4.0500000000000004E-13
DataValue, 0, 3, 0, 1.8441E-08, -1.8502399999999998E-08, 1.437E-12, 1.8441E-08, 1.437E-12
DataValue, 0.5, 3, 0, 1.0093500000000001E-05, -1.005664E-05, 1.318E-12, 1.0093500000000001E-05, 1.318E-12
DataValue, 1, 3, 0, 1.80863E-05, -1.80999E-05, 6.37E-13, 1.80863E-05, 6.37E-13
DataValue, 1.5, 3, 0, 2.3490900000000002E-05, -2.34329E-05, -5.5440000000000006E-12, 2.3490900000000002E-05, 5.5440000000000006E-12
DataValue, 2, 3, 0, 2.6095800000000002E-05, -2.6045200000000003E-05, 2.403E-12, 2.6095800000000002E-05, 2.403E-12
DataValue, 2.5, 3, 0, 2.71936E-05, -2.7050900000000002E-05, -3.6900000000000004E-13, 2.71936E-05, 3.6900000000000004E-13
DataValue, 3, 3, 0, 2.72715E-05, -2.72124E-05, -1.266E-12, 2.72715E-05, 1.266E-12
DataValue, 3.5, 3, 0, 2.70383E-05, -2.6974E-05, -5.4940000000000006E-12, 2.70383E-05, 5.4940000000000006E-12
DataValue, 4, 3, 0, 2.66162E-05, -2.6602800000000002E-05, -4.4900000000000006E-13, 2.66162E-05, 4.4900000000000006E-13
DataValue, 4.5, 3, 0, 2.62224E-05, -2.62636E-05, -1.5850000000000002E-12, 2.62224E-05, 1.5850000000000002E-12
DataValue, 5, 3, 0, 2.60262E-05, -2.60091E-05, -1.79E-12, 2.60262E-05, 1.79E-12
DataValue, 0, 4, 0, 2.3742999999999996E-08, -2.3691199999999998E-08, 4.086E-12, 2.3742999999999996E-08, 4.086E-12
DataValue, 0.5, 4, 0, 1.3766600000000001E-05, -1.36461E-05, 1.6620000000000002E-12, 1.3766600000000001E-05, 1.6620000000000002E-12
DataValue, 1, 4, 0, 2.4867500000000002E-05, -2.4986400000000002E-05, 2.1200000000000003E-12, 2.4867500000000002E-05, 2.1200000000000003E-12
DataValue, 1.5, 4, 0, 3.5018E-05, -3.4879700000000004E-05, 1.2860000000000002E-12, 3.5018E-05, 1.2860000000000002E-12
DataValue, 2, 4, 0, 4.1761E-05, -4.11243E-05, -5.976E-12, 4.1761E-05, 5.976E-12
DataValue, 2.5, 4, 0, 4.6005200000000005E-05, -4.6968E-05, 1.4374000000000002E-11, 4.6005200000000005E-05, 1.4374000000000002E-11
DataValue, 3, 4, 0, 4.97177E-05, -4.86435E-05, -1.8545000000000002E-11, 4.97177E-05, 1.8545000000000002E-11
DataValue, 3.5, 4, 0, 4.89265E-05, -4.9092600000000005E-05, -7.93E-12, 4.89265E-05, 7.93E-12
DataValue, 4, 4, 0, 5.1218500000000004E-05, -5.1302000000000004E-05, -1.3073000000000001E-11, 5.1218500000000004E-05, 1.3073000000000001E-11
DataValue, 4.5, 4, 0, 5.1377E-05, -5.13178E-05, -6.426E-12, 5.1377E-05, 6.426E-12
DataValue, 5, 4, 0, 5.14824E-05, -5.14988E-05, 5.67E-13, 5.14824E-05, 5.67E-13
DataValue, 0, 5, 0, 2.9824599999999996E-08, -2.8036299999999997E-08, 6.0390000000000004E-12, 2.9824599999999996E-08, 6.0390000000000004E-12
DataValue, 0.5, 5, 0, 1.74916E-05, -1.6848100000000002E-05, 1.0365000000000001E-11, 1.74916E-05, 1.0365000000000001E-11
DataValue, 1, 5, 0, 3.30389E-05, -3.29663E-05, 7.324E-12, 3.30389E-05, 7.324E-12
DataValue, 1.5, 5, 0, 4.6474900000000005E-05, -4.5643E-05, 2.326E-12, 4.6474900000000005E-05, 2.326E-12
DataValue, 2, 5, 0, 5.901E-05, -5.96038E-05, 8.15E-12, 5.901E-05, 8.15E-12
DataValue, 2.5, 5, 0, 6.93013E-05, -6.67148E-05, 2.6750000000000002E-12, 6.93013E-05, 2.6750000000000002E-12
DataValue, 3, 5, 0, 7.76286E-05, -7.75388E-05, 5.345E-11, 7.76286E-05, 5.345E-11
DataValue, 3.5, 5, 0, 8.23824E-05, -8.2772E-05, 1.9316000000000002E-11, 8.23824E-05, 1.9316000000000002E-11
DataValue, 4, 5, 0, 8.07142E-05, -8.41828E-05, 7.31E-13, 8.07142E-05, 7.31E-13
DataValue, 4.5, 5, 0, 8.24067E-05, -8.21905E-05, -5.67E-13, 8.24067E-05, 5.67E-13
DataValue, 5, 5, 0, 8.27775E-05, -8.16348E-05, -1.7540000000000002E-12, 8.27775E-05, 1.7540000000000002E-12