
SetupTitle, Output
PrimitiveTest, I/V Sweep
TestParameter, Context.MainFrame, 4155C
TestParameter, Channel.UnitType, SMU, SMU, SMU
TestParameter, Channel.Unit, SMU3:MP, SMU1:MP, SMU4:MP
TestParameter, Channel.IName, ID, IS, IG
TestParameter, Channel.VName, VD, VS, VG
TestParameter, Channel.Mode, V, COMMON, V
TestParameter, Channel.Func, VAR1, CONST, VAR2
TestParameter, Channel.Index, 
TestParameter, Channel.Time, 
TestParameter, Measurement.Port.Unit, SMU3:MP, SMU1:MP, SMU4:MP
TestParameter, Measurement.Port.SeriesResistor, NONE, NONE, NONE
TestParameter, Measurement.Port.Filter, ON, ON, ON
TestParameter, Measurement.Primary.Locus, Single
TestParameter, Measurement.Primary.Scale, LINEAR
TestParameter, Measurement.Primary.Start, 0
TestParameter, Measurement.Primary.Stop, 5
TestParameter, Measurement.Primary.Step, 0.5
TestParameter, Measurement.Primary.Compliance, 0.1
TestParameter, Measurement.Primary.PowerCompliance, 0
TestParameter, Measurement.Aborting.Condition, CONTINUE AT ANY
TestParameter, Measurement.PostOutput.Value, START
TestParameter, Measurement.PostOutput.Retention, OFF
TestParameter, Measurement.Secondary.Start, -1
TestParameter, Measurement.Secondary.Count, 7
TestParameter, Measurement.Secondary.Step, 1
TestParameter, Measurement.Secondary.Compliance, 0.1
TestParameter, Measurement.Secondary.PowerCompliance, 0
TestParameter, Measurement.Bias.Source, 0, 0, -1
TestParameter, Measurement.Bias.Compliance, 0.1, 0.1, 0.1
TestParameter, Measurement.Monitor.Unit, SMU3:MP, SMU1:MP, SMU4:MP
TestParameter, Measurement.Monitor.Adc, HR ADC, HR ADC, HR ADC
TestParameter, Measurement.Monitor.RangingMode, AUTO, AUTO, AUTO
TestParameter, Measurement.Monitor.RangeBoundary, , , 
TestParameter, Measurement.Monitor.RangeRating, BY FULL RANGE, BY FULL RANGE, BY FULL RANGE
TestParameter, Measurement.Monitor.RangeRatingCoeff, 50, 50, 50
TestParameter, Measurement.Timing.Hold, 0.5
TestParameter, Measurement.Timing.Delay, 0.05
TestParameter, Measurement.Adc.HighResolution.AutoZero, OFF
TestParameter, Measurement.Adc.HighResolution.Mode, AUTO
TestParameter, Measurement.Adc.HighResolution.Coeff, 1
TestParameter, Measurement.Ag16440ASelector.SemiconductorRelay.Channel1, DEFAULT
TestParameter, Measurement.Ag16440ASelector.SemiconductorRelay.Channel3, DEFAULT
TestParameter, Function.User.Name, absID, absIG
TestParameter, Function.User.Unit, A, A
TestParameter, Function.User.Definition, abs(ID), abs(IG)
TestParameter, Output.Graph.Enabled, true
TestParameter, Output.Graph.XAxis.Data, VD
TestParameter, Output.Graph.XAxis.Scale, Linear
TestParameter, Output.Graph.XAxis.Left, 0
TestParameter, Output.Graph.XAxis.Right, 7
TestParameter, Output.Graph.YAxis.Data, ID
TestParameter, Output.Graph.YAxis.Scale, Linear
TestParameter, Output.Graph.YAxis.Bottom, 1E-14
TestParameter, Output.Graph.YAxis.Top, 0.01
TestParameter, Output.Graph.YAxis.Group, 
TestParameter, Output.List.Data, VG, IG, VD, ID, VS, IS, absIG
TestParameter, AutoAnalysis.Interpolation, false
TestParameter, AutoAnalysis.Line1.Enabled, false
TestParameter, AutoAnalysis.Line1.Type, 1
TestParameter, AutoAnalysis.Line1.Fix, True
TestParameter, AutoAnalysis.Line1.YAxis, 0
TestParameter, AutoAnalysis.Line1.Point1.Type, 0
TestParameter, AutoAnalysis.Line1.Point1.XY.X, 
TestParameter, AutoAnalysis.Line1.Point1.XY.Y, 
TestParameter, AutoAnalysis.Line1.Point1.Data.Var, 
TestParameter, AutoAnalysis.Line1.Point1.Data.Condition, 
TestParameter, AutoAnalysis.Line1.Point1.Data.Start, false
TestParameter, AutoAnalysis.Line1.Point1.Data.StartVar, 
TestParameter, AutoAnalysis.Line1.Point1.Data.StartCondition, 
TestParameter, AutoAnalysis.Line1.Point2.Type, 0
TestParameter, AutoAnalysis.Line1.Point2.XY.X, 
TestParameter, AutoAnalysis.Line1.Point2.XY.Y, 
TestParameter, AutoAnalysis.Line1.Point2.Data.Var, 
TestParameter, AutoAnalysis.Line1.Point2.Data.Condition, 
TestParameter, AutoAnalysis.Line1.Point2.Data.Start, false
TestParameter, AutoAnalysis.Line1.Point2.Data.StartVar, 
TestParameter, AutoAnalysis.Line1.Point2.Data.StartCondition, 
TestParameter, AutoAnalysis.Line1.GradientExpr, 0
TestParameter, AutoAnalysis.Line2.Enabled, false
TestParameter, AutoAnalysis.Line2.Type, 1
TestParameter, AutoAnalysis.Line2.Fix, True
TestParameter, AutoAnalysis.Line2.YAxis, 0
TestParameter, AutoAnalysis.Line2.Point1.Type, 0
TestParameter, AutoAnalysis.Line2.Point1.XY.X, 
TestParameter, AutoAnalysis.Line2.Point1.XY.Y, 
TestParameter, AutoAnalysis.Line2.Point1.Data.Var, 
TestParameter, AutoAnalysis.Line2.Point1.Data.Condition, 
TestParameter, AutoAnalysis.Line2.Point1.Data.Start, false
TestParameter, AutoAnalysis.Line2.Point1.Data.StartVar, 
TestParameter, AutoAnalysis.Line2.Point1.Data.StartCondition, 
TestParameter, AutoAnalysis.Line2.Point2.Type, 0
TestParameter, AutoAnalysis.Line2.Point2.XY.X, 
TestParameter, AutoAnalysis.Line2.Point2.XY.Y, 
TestParameter, AutoAnalysis.Line2.Point2.Data.Var, 
TestParameter, AutoAnalysis.Line2.Point2.Data.Condition, 
TestParameter, AutoAnalysis.Line2.Point2.Data.Start, false
TestParameter, AutoAnalysis.Line2.Point2.Data.StartVar, 
TestParameter, AutoAnalysis.Line2.Point2.Data.StartCondition, 
TestParameter, AutoAnalysis.Line2.GradientExpr, 0
TestParameter, AutoAnalysis.Marker.Enabled, false
TestParameter, AutoAnalysis.Marker.Data.Var, 
TestParameter, AutoAnalysis.Marker.Data.Condition, 
TestParameter, AutoAnalysis.Marker.Data.Start, false
TestParameter, AutoAnalysis.Marker.Data.StartVar, 
TestParameter, AutoAnalysis.Marker.Data.StartCondition, 
MetaData, TestRecord.EntryPoint, true
MetaData, TestRecord.RecordTime, 05/02/2019 18:22:22
MetaData, TestRecord.TestTarget, 350-300-20-10
MetaData, TestRecord.IterationIndex, 1
MetaData, TestRecord.Preservation, true
MetaData, TestRecord.Flag, 
MetaData, TestRecord.Remarks, good
MetaData, TestRecord.LinkKey, 58d586df-bc1a-4790-b0d6-1e269d5fedca
Dimension1, 11, 11, 11, 11, 11, 11, 11, 11
Dimension2, 7, 7, 7, 7, 7, 7, 7, 7
DataName, VD, VG, VS, ID, IS, IG, absID, absIG
DataValue, 0, -1, 0, -2.1300000000000003E-13, 7.820000000000001E-13, -1.519E-12, 2.1300000000000003E-13, 1.519E-12
DataValue, 0.5, -1, 0, 1.12E-12, 4.47E-13, -1.2060000000000001E-12, 1.12E-12, 1.2060000000000001E-12
DataValue, 1, -1, 0, 2.69E-13, 1.29E-13, 3.2850000000000002E-12, 2.69E-13, 3.2850000000000002E-12
DataValue, 1.5, -1, 0, 1.3880000000000001E-12, -8.44E-13, -7.9300000000000005E-13, 1.3880000000000001E-12, 7.9300000000000005E-13
DataValue, 2, -1, 0, -7.3E-14, 3.7200000000000003E-13, -1.2960000000000001E-12, 7.3E-14, 1.2960000000000001E-12
DataValue, 2.5, -1, 0, 1.629E-12, 3.7100000000000003E-13, 5.82E-13, 1.629E-12, 5.82E-13
DataValue, 3, -1, 0, 2.5430000000000004E-12, -1.316E-12, -2.9100000000000003E-12, 2.5430000000000004E-12, 2.9100000000000003E-12
DataValue, 3.5, -1, 0, 3.1530000000000004E-12, 1.2360000000000002E-12, -9.3900000000000014E-13, 3.1530000000000004E-12, 9.3900000000000014E-13
DataValue, 4, -1, 0, 2.8380000000000002E-12, -2.31E-12, -9.8900000000000013E-13, 2.8380000000000002E-12, 9.8900000000000013E-13
DataValue, 4.5, -1, 0, 3.3030000000000004E-12, -1.8040000000000002E-12, -3.7510000000000005E-12, 3.3030000000000004E-12, 3.7510000000000005E-12
DataValue, 5, -1, 0, 4.456E-12, -2.269E-12, -1.4550000000000002E-12, 4.456E-12, 1.4550000000000002E-12
DataValue, 0, 0, 0, 3.2100000000000005E-13, -2.1540000000000003E-12, -1.625E-12, 3.2100000000000005E-13, 1.625E-12
DataValue, 0.5, 0, 0, 3.439E-12, -2.5080000000000002E-12, 2.236E-12, 3.439E-12, 2.236E-12
DataValue, 1, 0, 0, 5.1760000000000006E-12, -2.7810000000000004E-12, -5.4490000000000007E-12, 5.1760000000000006E-12, 5.4490000000000007E-12
DataValue, 1.5, 0, 0, 3.739E-12, -2.1040000000000003E-12, -1.04E-12, 3.739E-12, 1.04E-12
DataValue, 2, 0, 0, 4.304E-12, -3.6120000000000004E-12, 3.368E-12, 4.304E-12, 3.368E-12
DataValue, 2.5, 0, 0, 5.3080000000000004E-12, -4.767E-12, 6.14E-13, 5.3080000000000004E-12, 6.14E-13
DataValue, 3, 0, 0, 6.9640000000000006E-12, -3.796E-12, -6.037E-12, 6.9640000000000006E-12, 6.037E-12
DataValue, 3.5, 0, 0, 6.1810000000000004E-12, -5.001E-12, -4.139E-12, 6.1810000000000004E-12, 4.139E-12
DataValue, 4, 0, 0, 6.1270000000000009E-12, -2.6470000000000003E-12, 7.1500000000000008E-12, 6.1270000000000009E-12, 7.1500000000000008E-12
DataValue, 4.5, 0, 0, 7.178E-12, -6.492E-12, -5.5000000000000005E-14, 7.178E-12, 5.5000000000000005E-14
DataValue, 5, 0, 0, 7.1820000000000007E-12, -4.0400000000000006E-12, -3.0270000000000003E-12, 7.1820000000000007E-12, 3.0270000000000003E-12
DataValue, 0, 1, 0, -4.6366E-11, 4.8151000000000005E-11, 9.58E-12, 4.6366E-11, 9.58E-12
DataValue, 0.5, 1, 0, 5.8931499999999994E-08, -5.7985499999999993E-08, 8.9000000000000012E-14, 5.8931499999999994E-08, 8.9000000000000012E-14
DataValue, 1, 1, 0, 5.80705E-08, -5.7876199999999993E-08, -2.6300000000000004E-13, 5.80705E-08, 2.6300000000000004E-13
DataValue, 1.5, 1, 0, 5.6933399999999993E-08, -5.66552E-08, 1.7900000000000002E-13, 5.6933399999999993E-08, 1.7900000000000002E-13
DataValue, 2, 1, 0, 5.5551799999999996E-08, -5.5761499999999993E-08, -3.27E-13, 5.5551799999999996E-08, 3.27E-13
DataValue, 2.5, 1, 0, 5.4140899999999996E-08, -5.4054699999999994E-08, -2.96E-13, 5.4140899999999996E-08, 2.96E-13
DataValue, 3, 1, 0, 5.2995899999999995E-08, -5.2883E-08, 2.9850000000000003E-12, 5.2995899999999995E-08, 2.9850000000000003E-12
DataValue, 3.5, 1, 0, 5.21863E-08, -5.2274199999999993E-08, 5.36E-13, 5.21863E-08, 5.36E-13
DataValue, 4, 1, 0, 5.1436699999999996E-08, -5.12058E-08, -1.7900000000000002E-13, 5.1436699999999996E-08, 1.7900000000000002E-13
DataValue, 4.5, 1, 0, 5.0033099999999994E-08, -4.9912199999999995E-08, 1.9700000000000003E-12, 5.0033099999999994E-08, 1.9700000000000003E-12
DataValue, 5, 1, 0, 4.9188299999999993E-08, -4.9520499999999997E-08, 1.711E-12, 4.9188299999999993E-08, 1.711E-12
DataValue, 0, 2, 0, -3.1151600000000004E-10, 3.0078200000000004E-10, 2.3081E-11, 3.1151600000000004E-10, 2.3081E-11
DataValue, 0.5, 2, 0, 6.31834E-07, -6.3005899999999994E-07, 2.507E-12, 6.31834E-07, 2.507E-12
DataValue, 1, 2, 0, 9.2655399999999995E-07, -9.2685299999999994E-07, 4.125E-12, 9.2655399999999995E-07, 4.125E-12
DataValue, 1.5, 2, 0, 1.01488E-06, -1.013603E-06, 2.1120000000000003E-12, 1.01488E-06, 2.1120000000000003E-12
DataValue, 2, 2, 0, 1.0227700000000002E-06, -1.021399E-06, 1.6800000000000001E-12, 1.0227700000000002E-06, 1.6800000000000001E-12
DataValue, 2.5, 2, 0, 1.0138700000000002E-06, -1.012684E-06, -1.846E-12, 1.0138700000000002E-06, 1.846E-12
DataValue, 3, 2, 0, 1.00542E-06, -1.005026E-06, 4.36E-13, 1.00542E-06, 4.36E-13
DataValue, 3.5, 2, 0, 9.94432E-07, -9.94163E-07, 9.240000000000001E-13, 9.94432E-07, 9.240000000000001E-13
DataValue, 4, 2, 0, 9.81017E-07, -9.79297E-07, 5.41E-13, 9.81017E-07, 5.41E-13
DataValue, 4.5, 2, 0, 9.73572E-07, -9.73041E-07, -5.9E-13, 9.73572E-07, 5.9E-13
DataValue, 5, 2, 0, 9.6077E-07, -9.61448E-07, 3.8000000000000005E-13, 9.6077E-07, 3.8000000000000005E-13
DataValue, 0, 3, 0, -8.5051900000000007E-10, 6.7114700000000008E-10, 1.72453E-10, 8.5051900000000007E-10, 1.72453E-10
DataValue, 0.5, 3, 0, 1.69823E-06, -1.6976600000000002E-06, 5.6408000000000004E-11, 1.69823E-06, 5.6408000000000004E-11
DataValue, 1, 3, 0, 2.85351E-06, -2.85667E-06, 2.0953000000000003E-11, 2.85351E-06, 2.0953000000000003E-11
DataValue, 1.5, 3, 0, 3.6053700000000003E-06, -3.6075600000000006E-06, 1.2095000000000001E-11, 3.6053700000000003E-06, 1.2095000000000001E-11
DataValue, 2, 3, 0, 4.03293E-06, -4.0342400000000005E-06, 1.0745E-11, 4.03293E-06, 1.0745E-11
DataValue, 2.5, 3, 0, 4.2321500000000006E-06, -4.23288E-06, 9.531E-12, 4.2321500000000006E-06, 9.531E-12
DataValue, 3, 3, 0, 4.30743E-06, -4.30908E-06, 8.669E-12, 4.30743E-06, 8.669E-12
DataValue, 3.5, 3, 0, 4.33045E-06, -4.3314500000000007E-06, 7.637E-12, 4.33045E-06, 7.637E-12
DataValue, 4, 3, 0, 4.3382900000000006E-06, -4.33515E-06, 8.091E-12, 4.3382900000000006E-06, 8.091E-12
DataValue, 4.5, 3, 0, 4.33693E-06, -4.3388700000000005E-06, 6.831E-12, 4.33693E-06, 6.831E-12
DataValue, 5, 3, 0, 4.3349100000000005E-06, -4.33325E-06, 6.4650000000000004E-12, 4.3349100000000005E-06, 6.4650000000000004E-12
DataValue, 0, 4, 0, -1.91039E-09, 1.032959E-09, 8.20793E-10, 1.91039E-09, 8.20793E-10
DataValue, 0.5, 4, 0, 3.0405500000000005E-06, -3.0392700000000003E-06, 3.49889E-10, 3.0405500000000005E-06, 3.49889E-10
DataValue, 1, 4, 0, 5.3851500000000004E-06, -5.3876000000000007E-06, 1.54708E-10, 5.3851500000000004E-06, 1.54708E-10
DataValue, 1.5, 4, 0, 7.1462200000000008E-06, -7.1518600000000007E-06, 8.2655000000000011E-11, 7.1462200000000008E-06, 8.2655000000000011E-11
DataValue, 2, 4, 0, 8.4340300000000013E-06, -8.44031E-06, 4.8519E-11, 8.4340300000000013E-06, 4.8519E-11
DataValue, 2.5, 4, 0, 9.32072E-06, -9.32765E-06, 3.8183000000000004E-11, 9.32072E-06, 3.8183000000000004E-11
DataValue, 3, 4, 0, 9.8959800000000018E-06, -9.89637E-06, 3.1819000000000004E-11, 9.8959800000000018E-06, 3.1819000000000004E-11
DataValue, 3.5, 4, 0, 1.02184E-05, -1.021831E-05, 2.9749000000000005E-11, 1.02184E-05, 2.9749000000000005E-11
DataValue, 4, 4, 0, 1.03745E-05, -1.037499E-05, 2.9249E-11, 1.03745E-05, 2.9249E-11
DataValue, 4.5, 4, 0, 1.04545E-05, -1.0452930000000002E-05, 2.7082000000000003E-11, 1.04545E-05, 2.7082000000000003E-11
DataValue, 5, 4, 0, 1.0491500000000001E-05, -1.048965E-05, 2.7917000000000002E-11, 1.0491500000000001E-05, 2.7917000000000002E-11
DataValue, 0, 5, 0, -3.77824E-09, 8.8836600000000007E-10, 2.77898E-09, 3.77824E-09, 2.77898E-09
DataValue, 0.5, 5, 0, 4.5285800000000004E-06, -4.52728E-06, 1.3982E-09, 4.5285800000000004E-06, 1.3982E-09
DataValue, 1, 5, 0, 8.2772500000000011E-06, -8.27676E-06, 7.24887E-10, 8.2772500000000011E-06, 7.24887E-10
DataValue, 1.5, 5, 0, 1.1304300000000001E-05, -1.1303120000000002E-05, 3.9333700000000003E-10, 1.1304300000000001E-05, 3.9333700000000003E-10
DataValue, 2, 5, 0, 1.37027E-05, -1.3702400000000001E-05, 2.4280100000000004E-10, 1.37027E-05, 2.4280100000000004E-10
DataValue, 2.5, 5, 0, 1.55636E-05, -1.5566E-05, 1.6818800000000002E-10, 1.55636E-05, 1.6818800000000002E-10
DataValue, 3, 5, 0, 1.69657E-05, -1.69694E-05, 1.31839E-10, 1.69657E-05, 1.31839E-10
DataValue, 3.5, 5, 0, 1.79833E-05, -1.7983800000000002E-05, 1.04826E-10, 1.79833E-05, 1.04826E-10
DataValue, 4, 5, 0, 1.86736E-05, -1.86778E-05, 9.2586E-11, 1.86736E-05, 9.2586E-11
DataValue, 4.5, 5, 0, 1.91089E-05, -1.91138E-05, 8.8064000000000012E-11, 1.91089E-05, 8.8064000000000012E-11
DataValue, 5, 5, 0, 1.93824E-05, -1.9383600000000002E-05, 8.5130000000000007E-11, 1.93824E-05, 8.5130000000000007E-11