
SetupTitle, Output
PrimitiveTest, I/V Sweep
TestParameter, Context.MainFrame, 4155C
TestParameter, Channel.UnitType, SMU, SMU, SMU
TestParameter, Channel.Unit, SMU3:MP, SMU1:MP, SMU4:MP
TestParameter, Channel.IName, ID, IS, IG
TestParameter, Channel.VName, VD, VS, VG
TestParameter, Channel.Mode, V, COMMON, V
TestParameter, Channel.Func, VAR1, CONST, VAR2
TestParameter, Channel.Index, 
TestParameter, Channel.Time, 
TestParameter, Measurement.Port.Unit, SMU3:MP, SMU1:MP, SMU4:MP
TestParameter, Measurement.Port.SeriesResistor, NONE, NONE, NONE
TestParameter, Measurement.Port.Filter, ON, ON, ON
TestParameter, Measurement.Primary.Locus, Single
TestParameter, Measurement.Primary.Scale, LINEAR
TestParameter, Measurement.Primary.Start, 0
TestParameter, Measurement.Primary.Stop, 5
TestParameter, Measurement.Primary.Step, 0.5
TestParameter, Measurement.Primary.Compliance, 0.1
TestParameter, Measurement.Primary.PowerCompliance, 0
TestParameter, Measurement.Aborting.Condition, CONTINUE AT ANY
TestParameter, Measurement.PostOutput.Value, START
TestParameter, Measurement.PostOutput.Retention, OFF
TestParameter, Measurement.Secondary.Start, -1
TestParameter, Measurement.Secondary.Count, 7
TestParameter, Measurement.Secondary.Step, 1
TestParameter, Measurement.Secondary.Compliance, 0.1
TestParameter, Measurement.Secondary.PowerCompliance, 0
TestParameter, Measurement.Bias.Source, 0, 0, -1
TestParameter, Measurement.Bias.Compliance, 0.1, 0.1, 0.1
TestParameter, Measurement.Monitor.Unit, SMU3:MP, SMU1:MP, SMU4:MP
TestParameter, Measurement.Monitor.Adc, HR ADC, HR ADC, HR ADC
TestParameter, Measurement.Monitor.RangingMode, AUTO, AUTO, AUTO
TestParameter, Measurement.Monitor.RangeBoundary, , , 
TestParameter, Measurement.Monitor.RangeRating, BY FULL RANGE, BY FULL RANGE, BY FULL RANGE
TestParameter, Measurement.Monitor.RangeRatingCoeff, 50, 50, 50
TestParameter, Measurement.Timing.Hold, 0.5
TestParameter, Measurement.Timing.Delay, 0.05
TestParameter, Measurement.Adc.HighResolution.AutoZero, OFF
TestParameter, Measurement.Adc.HighResolution.Mode, AUTO
TestParameter, Measurement.Adc.HighResolution.Coeff, 1
TestParameter, Measurement.Ag16440ASelector.SemiconductorRelay.Channel1, DEFAULT
TestParameter, Measurement.Ag16440ASelector.SemiconductorRelay.Channel3, DEFAULT
TestParameter, Function.User.Name, absID, absIG
TestParameter, Function.User.Unit, A, A
TestParameter, Function.User.Definition, abs(ID), abs(IG)
TestParameter, Output.Graph.Enabled, true
TestParameter, Output.Graph.XAxis.Data, VD
TestParameter, Output.Graph.XAxis.Scale, Linear
TestParameter, Output.Graph.XAxis.Left, 0
TestParameter, Output.Graph.XAxis.Right, 7
TestParameter, Output.Graph.YAxis.Data, ID
TestParameter, Output.Graph.YAxis.Scale, Linear
TestParameter, Output.Graph.YAxis.Bottom, 1E-14
TestParameter, Output.Graph.YAxis.Top, 0.01
TestParameter, Output.Graph.YAxis.Group, 
TestParameter, Output.List.Data, VG, IG, VD, ID, VS, IS, absIG
TestParameter, AutoAnalysis.Interpolation, false
TestParameter, AutoAnalysis.Line1.Enabled, false
TestParameter, AutoAnalysis.Line1.Type, 1
TestParameter, AutoAnalysis.Line1.Fix, True
TestParameter, AutoAnalysis.Line1.YAxis, 0
TestParameter, AutoAnalysis.Line1.Point1.Type, 0
TestParameter, AutoAnalysis.Line1.Point1.XY.X, 
TestParameter, AutoAnalysis.Line1.Point1.XY.Y, 
TestParameter, AutoAnalysis.Line1.Point1.Data.Var, 
TestParameter, AutoAnalysis.Line1.Point1.Data.Condition, 
TestParameter, AutoAnalysis.Line1.Point1.Data.Start, false
TestParameter, AutoAnalysis.Line1.Point1.Data.StartVar, 
TestParameter, AutoAnalysis.Line1.Point1.Data.StartCondition, 
TestParameter, AutoAnalysis.Line1.Point2.Type, 0
TestParameter, AutoAnalysis.Line1.Point2.XY.X, 
TestParameter, AutoAnalysis.Line1.Point2.XY.Y, 
TestParameter, AutoAnalysis.Line1.Point2.Data.Var, 
TestParameter, AutoAnalysis.Line1.Point2.Data.Condition, 
TestParameter, AutoAnalysis.Line1.Point2.Data.Start, false
TestParameter, AutoAnalysis.Line1.Point2.Data.StartVar, 
TestParameter, AutoAnalysis.Line1.Point2.Data.StartCondition, 
TestParameter, AutoAnalysis.Line1.GradientExpr, 0
TestParameter, AutoAnalysis.Line2.Enabled, false
TestParameter, AutoAnalysis.Line2.Type, 1
TestParameter, AutoAnalysis.Line2.Fix, True
TestParameter, AutoAnalysis.Line2.YAxis, 0
TestParameter, AutoAnalysis.Line2.Point1.Type, 0
TestParameter, AutoAnalysis.Line2.Point1.XY.X, 
TestParameter, AutoAnalysis.Line2.Point1.XY.Y, 
TestParameter, AutoAnalysis.Line2.Point1.Data.Var, 
TestParameter, AutoAnalysis.Line2.Point1.Data.Condition, 
TestParameter, AutoAnalysis.Line2.Point1.Data.Start, false
TestParameter, AutoAnalysis.Line2.Point1.Data.StartVar, 
TestParameter, AutoAnalysis.Line2.Point1.Data.StartCondition, 
TestParameter, AutoAnalysis.Line2.Point2.Type, 0
TestParameter, AutoAnalysis.Line2.Point2.XY.X, 
TestParameter, AutoAnalysis.Line2.Point2.XY.Y, 
TestParameter, AutoAnalysis.Line2.Point2.Data.Var, 
TestParameter, AutoAnalysis.Line2.Point2.Data.Condition, 
TestParameter, AutoAnalysis.Line2.Point2.Data.Start, false
TestParameter, AutoAnalysis.Line2.Point2.Data.StartVar, 
TestParameter, AutoAnalysis.Line2.Point2.Data.StartCondition, 
TestParameter, AutoAnalysis.Line2.GradientExpr, 0
TestParameter, AutoAnalysis.Marker.Enabled, false
TestParameter, AutoAnalysis.Marker.Data.Var, 
TestParameter, AutoAnalysis.Marker.Data.Condition, 
TestParameter, AutoAnalysis.Marker.Data.Start, false
TestParameter, AutoAnalysis.Marker.Data.StartVar, 
TestParameter, AutoAnalysis.Marker.Data.StartCondition, 
MetaData, TestRecord.EntryPoint, true
MetaData, TestRecord.RecordTime, 05/02/2019 18:27:18
MetaData, TestRecord.TestTarget, 350-300-50-10
MetaData, TestRecord.IterationIndex, 1
MetaData, TestRecord.Preservation, true
MetaData, TestRecord.Flag, 
MetaData, TestRecord.Remarks, good
MetaData, TestRecord.LinkKey, 4dc05409-5b86-451b-bfbd-61b50ee6cf55
Dimension1, 11, 11, 11, 11, 11, 11, 11, 11
Dimension2, 7, 7, 7, 7, 7, 7, 7, 7
DataName, VD, VG, VS, ID, IS, IG, absID, absIG
DataValue, 0, -1, 0, 6.7E-14, 3.2E-14, -6.9000000000000009E-14, 6.7E-14, 6.9000000000000009E-14
DataValue, 0.5, -1, 0, 6.4E-14, 9.38E-13, -1.52E-13, 6.4E-14, 1.52E-13
DataValue, 1, -1, 0, 1.14E-12, 1.063E-12, 2.33E-13, 1.14E-12, 2.33E-13
DataValue, 1.5, -1, 0, 6.2100000000000008E-13, 1.0500000000000002E-12, -4.8500000000000005E-13, 6.2100000000000008E-13, 4.8500000000000005E-13
DataValue, 2, -1, 0, 1.166E-12, 5.9700000000000008E-13, 3.9000000000000004E-14, 1.166E-12, 3.9000000000000004E-14
DataValue, 2.5, -1, 0, 1.579E-12, 4.24E-13, 4.0400000000000005E-13, 1.579E-12, 4.0400000000000005E-13
DataValue, 3, -1, 0, 2.1250000000000003E-12, 6.1E-13, -9.2000000000000012E-13, 2.1250000000000003E-12, 9.2000000000000012E-13
DataValue, 3.5, -1, 0, 2.765E-12, -2.465E-12, -1.825E-12, 2.765E-12, 1.825E-12
DataValue, 4, -1, 0, 4.7610000000000004E-12, 4.75E-13, -2.9100000000000003E-12, 4.7610000000000004E-12, 2.9100000000000003E-12
DataValue, 4.5, -1, 0, 3.9220000000000005E-12, 2.35E-13, 1.2270000000000001E-12, 3.9220000000000005E-12, 1.2270000000000001E-12
DataValue, 5, -1, 0, 2.536E-12, -9.92E-13, 2.186E-12, 2.536E-12, 2.186E-12
DataValue, 0, 0, 0, 3.8000000000000005E-13, -7.3E-14, 1.57E-13, 3.8000000000000005E-13, 1.57E-13
DataValue, 0.5, 0, 0, 2.6718E-11, -2.5875E-11, -2.022E-12, 2.6718E-11, 2.022E-12
DataValue, 1, 0, 0, 2.7025000000000002E-11, -2.7321E-11, -5.65E-13, 2.7025000000000002E-11, 5.65E-13
DataValue, 1.5, 0, 0, 2.8486E-11, -2.7165E-11, -1.416E-12, 2.8486E-11, 1.416E-12
DataValue, 2, 0, 0, 2.7967E-11, -2.7143000000000003E-11, 4.1600000000000004E-13, 2.7967E-11, 4.1600000000000004E-13
DataValue, 2.5, 0, 0, 2.8645000000000002E-11, -2.7107E-11, -5.89E-13, 2.8645000000000002E-11, 5.89E-13
DataValue, 3, 0, 0, 2.8430000000000002E-11, -2.7217E-11, -9.44E-13, 2.8430000000000002E-11, 9.44E-13
DataValue, 3.5, 0, 0, 2.9542E-11, -2.8286E-11, -9.63E-13, 2.9542E-11, 9.63E-13
DataValue, 4, 0, 0, 2.9418E-11, -2.7991E-11, -2.5090000000000003E-12, 2.9418E-11, 2.5090000000000003E-12
DataValue, 4.5, 0, 0, 3.0353000000000004E-11, -2.8733000000000004E-11, -2.8E-14, 3.0353000000000004E-11, 2.8E-14
DataValue, 5, 0, 0, 3.0847E-11, -2.839E-11, 1.7980000000000002E-12, 3.0847E-11, 1.7980000000000002E-12
DataValue, 0, 1, 0, -1.62159E-10, 1.6185300000000002E-10, -1.103E-12, 1.62159E-10, 1.103E-12
DataValue, 0.5, 1, 0, 1.87291E-07, -1.87386E-07, -1.5630000000000001E-12, 1.87291E-07, 1.5630000000000001E-12
DataValue, 1, 1, 0, 1.94598E-07, -1.9453099999999998E-07, 2.1240000000000002E-12, 1.94598E-07, 2.1240000000000002E-12
DataValue, 1.5, 1, 0, 1.9306299999999999E-07, -1.9278199999999999E-07, -3.0640000000000003E-12, 1.9306299999999999E-07, 3.0640000000000003E-12
DataValue, 2, 1, 0, 1.90605E-07, -1.90356E-07, -2.5500000000000002E-12, 1.90605E-07, 2.5500000000000002E-12
DataValue, 2.5, 1, 0, 1.87923E-07, -1.87322E-07, -9.353E-12, 1.87923E-07, 9.353E-12
DataValue, 3, 1, 0, 1.86126E-07, -1.8524099999999998E-07, 7.02E-12, 1.86126E-07, 7.02E-12
DataValue, 3.5, 1, 0, 1.8351499999999999E-07, -1.83379E-07, -4.528E-12, 1.8351499999999999E-07, 4.528E-12
DataValue, 4, 1, 0, 1.80968E-07, -1.8068999999999999E-07, -5.1660000000000004E-12, 1.80968E-07, 5.1660000000000004E-12
DataValue, 4.5, 1, 0, 1.78537E-07, -1.78411E-07, 5.469E-12, 1.78537E-07, 5.469E-12
DataValue, 5, 1, 0, 1.7748E-07, -1.77237E-07, -6.7410000000000005E-12, 1.7748E-07, 6.7410000000000005E-12
DataValue, 0, 2, 0, -9.8852E-10, 9.80706E-10, 3.3637E-11, 9.8852E-10, 3.3637E-11
DataValue, 0.5, 2, 0, 1.9201100000000003E-06, -1.91829E-06, 1.3530000000000002E-12, 1.9201100000000003E-06, 1.3530000000000002E-12
DataValue, 1, 2, 0, 2.8596E-06, -2.8619700000000003E-06, 8.8160000000000012E-12, 2.8596E-06, 8.8160000000000012E-12
DataValue, 1.5, 2, 0, 3.19036E-06, -3.1897600000000005E-06, 1.0965000000000001E-11, 3.19036E-06, 1.0965000000000001E-11
DataValue, 2, 2, 0, 3.2505000000000005E-06, -3.2493600000000003E-06, -5.9880000000000007E-12, 3.2505000000000005E-06, 5.9880000000000007E-12
DataValue, 2.5, 2, 0, 3.2512500000000004E-06, -3.24719E-06, 6.757E-12, 3.2512500000000004E-06, 6.757E-12
DataValue, 3, 2, 0, 3.23013E-06, -3.2304800000000005E-06, -2.9800000000000004E-13, 3.23013E-06, 2.9800000000000004E-13
DataValue, 3.5, 2, 0, 3.21712E-06, -3.2148600000000005E-06, 5.9280000000000006E-12, 3.21712E-06, 5.9280000000000006E-12
DataValue, 4, 2, 0, 3.1963500000000003E-06, -3.1940400000000005E-06, 1.3671000000000002E-11, 3.1963500000000003E-06, 1.3671000000000002E-11
DataValue, 4.5, 2, 0, 3.1744100000000003E-06, -3.1739500000000003E-06, 1.1595000000000001E-11, 3.1744100000000003E-06, 1.1595000000000001E-11
DataValue, 5, 2, 0, 3.16035E-06, -3.1585300000000003E-06, -1.9227E-11, 3.16035E-06, 1.9227E-11
DataValue, 0, 3, 0, -2.37085E-09, 2.01803E-09, 2.80392E-10, 2.37085E-09, 2.80392E-10
DataValue, 0.5, 3, 0, 4.95836E-06, -4.95625E-06, 1.0683600000000001E-10, 4.95836E-06, 1.0683600000000001E-10
DataValue, 1, 3, 0, 8.3739500000000014E-06, -8.3805600000000013E-06, 5.6428E-11, 8.3739500000000014E-06, 5.6428E-11
DataValue, 1.5, 3, 0, 1.0623500000000001E-05, -1.0625780000000001E-05, 2.8752000000000002E-11, 1.0623500000000001E-05, 2.8752000000000002E-11
DataValue, 2, 3, 0, 1.19444E-05, -1.19476E-05, 4.2579E-11, 1.19444E-05, 4.2579E-11
DataValue, 2.5, 3, 0, 1.26078E-05, -1.26058E-05, 3.6576E-11, 1.26078E-05, 3.6576E-11
DataValue, 3, 3, 0, 1.2882700000000001E-05, -1.2880400000000001E-05, 2.9634E-11, 1.2882700000000001E-05, 2.9634E-11
DataValue, 3.5, 3, 0, 1.29872E-05, -1.29778E-05, 3.0038E-11, 1.29872E-05, 3.0038E-11
DataValue, 4, 3, 0, 1.30211E-05, -1.30184E-05, 3.3416000000000004E-11, 1.30211E-05, 3.3416000000000004E-11
DataValue, 4.5, 3, 0, 1.30324E-05, -1.30267E-05, 3.9737000000000003E-11, 1.30324E-05, 3.9737000000000003E-11
DataValue, 5, 3, 0, 1.30391E-05, -1.3030200000000001E-05, 3.518E-11, 1.30391E-05, 3.518E-11
DataValue, 0, 4, 0, -3.80868E-09, 2.63382E-09, 1.35568E-09, 3.80868E-09, 1.35568E-09
DataValue, 0.5, 4, 0, 8.6478900000000017E-06, -8.6452200000000012E-06, 6.5129400000000007E-10, 8.6478900000000017E-06, 6.5129400000000007E-10
DataValue, 1, 4, 0, 1.5385E-05, -1.5377100000000002E-05, 3.46804E-10, 1.5385E-05, 3.46804E-10
DataValue, 1.5, 4, 0, 2.04516E-05, -2.04566E-05, 2.4190900000000004E-10, 2.04516E-05, 2.4190900000000004E-10
DataValue, 2, 4, 0, 2.4181300000000002E-05, -2.41927E-05, 1.90987E-10, 2.4181300000000002E-05, 1.90987E-10
DataValue, 2.5, 4, 0, 2.68167E-05, -2.68321E-05, 1.7992400000000002E-10, 2.68167E-05, 1.7992400000000002E-10
DataValue, 3, 4, 0, 2.85599E-05, -2.85691E-05, 1.6022300000000002E-10, 2.85599E-05, 1.6022300000000002E-10
DataValue, 3.5, 4, 0, 2.9594100000000002E-05, -2.96041E-05, 1.44321E-10, 2.9594100000000002E-05, 1.44321E-10
DataValue, 4, 4, 0, 3.0167700000000003E-05, -3.01711E-05, 1.4462700000000002E-10, 3.0167700000000003E-05, 1.4462700000000002E-10
DataValue, 4.5, 4, 0, 3.04709E-05, -3.04727E-05, 1.41468E-10, 3.04709E-05, 1.41468E-10
DataValue, 5, 4, 0, 3.06511E-05, -3.0652200000000004E-05, 1.3574700000000002E-10, 3.06511E-05, 1.3574700000000002E-10
DataValue, 0, 5, 0, -5.77453E-09, 2.3522E-09, 4.64398E-09, 5.77453E-09, 4.64398E-09
DataValue, 0.5, 5, 0, 1.2643200000000001E-05, -1.2633200000000001E-05, 2.60904E-09, 1.2643200000000001E-05, 2.60904E-09
DataValue, 1, 5, 0, 2.31686E-05, -2.31625E-05, 1.63417E-09, 2.31686E-05, 1.63417E-09
DataValue, 1.5, 5, 0, 3.1731E-05, -3.17326E-05, 1.08469E-09, 3.1731E-05, 1.08469E-09
DataValue, 2, 5, 0, 3.85687E-05, -3.85732E-05, 8.27675E-10, 3.85687E-05, 8.27675E-10
DataValue, 2.5, 5, 0, 4.3912900000000004E-05, -4.39258E-05, 6.99082E-10, 4.3912900000000004E-05, 6.99082E-10
DataValue, 3, 5, 0, 4.79686E-05, -4.79884E-05, 6.28025E-10, 4.79686E-05, 6.28025E-10
DataValue, 3.5, 5, 0, 5.0970900000000004E-05, -5.0996200000000005E-05, 5.9697000000000006E-10, 5.0970900000000004E-05, 5.9697000000000006E-10
DataValue, 4, 5, 0, 5.30741E-05, -5.30998E-05, 5.8228900000000006E-10, 5.30741E-05, 5.8228900000000006E-10
DataValue, 4.5, 5, 0, 5.44824E-05, -5.4497200000000004E-05, 5.2361E-10, 5.44824E-05, 5.2361E-10
DataValue, 5, 5, 0, 5.53885E-05, -5.5405800000000004E-05, 5.22523E-10, 5.53885E-05, 5.22523E-10