
SetupTitle, Output
PrimitiveTest, I/V Sweep
TestParameter, Context.MainFrame, 4155C
TestParameter, Channel.UnitType, SMU, SMU, SMU
TestParameter, Channel.Unit, SMU3:MP, SMU4:MP, SMU1:MP
TestParameter, Channel.IName, ID, IS, IG
TestParameter, Channel.VName, VD, VS, VG
TestParameter, Channel.Mode, V, COMMON, V
TestParameter, Channel.Func, VAR1, CONST, VAR2
TestParameter, Channel.Index, 
TestParameter, Channel.Time, 
TestParameter, Measurement.Port.Unit, SMU3:MP, SMU4:MP, SMU1:MP
TestParameter, Measurement.Port.SeriesResistor, NONE, NONE, NONE
TestParameter, Measurement.Port.Filter, ON, ON, ON
TestParameter, Measurement.Primary.Locus, Single
TestParameter, Measurement.Primary.Scale, LINEAR
TestParameter, Measurement.Primary.Start, 0
TestParameter, Measurement.Primary.Stop, 5
TestParameter, Measurement.Primary.Step, 0.5
TestParameter, Measurement.Primary.Compliance, 0.1
TestParameter, Measurement.Primary.PowerCompliance, 0
TestParameter, Measurement.Aborting.Condition, CONTINUE AT ANY
TestParameter, Measurement.PostOutput.Value, START
TestParameter, Measurement.PostOutput.Retention, OFF
TestParameter, Measurement.Secondary.Start, -1
TestParameter, Measurement.Secondary.Count, 7
TestParameter, Measurement.Secondary.Step, 1
TestParameter, Measurement.Secondary.Compliance, 0.1
TestParameter, Measurement.Secondary.PowerCompliance, 0
TestParameter, Measurement.Bias.Source, 0, 0, -1
TestParameter, Measurement.Bias.Compliance, 0.1, 0.1, 0.1
TestParameter, Measurement.Monitor.Unit, SMU3:MP, SMU4:MP, SMU1:MP
TestParameter, Measurement.Monitor.Adc, HR ADC, HR ADC, HR ADC
TestParameter, Measurement.Monitor.RangingMode, AUTO, AUTO, AUTO
TestParameter, Measurement.Monitor.RangeBoundary, , , 
TestParameter, Measurement.Monitor.RangeRating, BY FULL RANGE, BY FULL RANGE, BY FULL RANGE
TestParameter, Measurement.Monitor.RangeRatingCoeff, 50, 50, 50
TestParameter, Measurement.Timing.Hold, 0.5
TestParameter, Measurement.Timing.Delay, 0.05
TestParameter, Measurement.Adc.HighResolution.AutoZero, OFF
TestParameter, Measurement.Adc.HighResolution.Mode, AUTO
TestParameter, Measurement.Adc.HighResolution.Coeff, 1
TestParameter, Measurement.Ag16440ASelector.SemiconductorRelay.Channel1, DEFAULT
TestParameter, Measurement.Ag16440ASelector.SemiconductorRelay.Channel3, DEFAULT
TestParameter, Function.User.Name, absID, absIG
TestParameter, Function.User.Unit, A, A
TestParameter, Function.User.Definition, abs(ID), abs(IG)
TestParameter, Output.Graph.Enabled, true
TestParameter, Output.Graph.XAxis.Data, VD
TestParameter, Output.Graph.XAxis.Scale, Linear
TestParameter, Output.Graph.XAxis.Left, 0
TestParameter, Output.Graph.XAxis.Right, 7
TestParameter, Output.Graph.YAxis.Data, ID
TestParameter, Output.Graph.YAxis.Scale, Linear
TestParameter, Output.Graph.YAxis.Bottom, 1E-14
TestParameter, Output.Graph.YAxis.Top, 0.01
TestParameter, Output.Graph.YAxis.Group, 
TestParameter, Output.List.Data, VG, IG, VD, ID, VS, IS, absIG
TestParameter, AutoAnalysis.Interpolation, false
TestParameter, AutoAnalysis.Line1.Enabled, false
TestParameter, AutoAnalysis.Line1.Type, 1
TestParameter, AutoAnalysis.Line1.Fix, True
TestParameter, AutoAnalysis.Line1.YAxis, 0
TestParameter, AutoAnalysis.Line1.Point1.Type, 0
TestParameter, AutoAnalysis.Line1.Point1.XY.X, 
TestParameter, AutoAnalysis.Line1.Point1.XY.Y, 
TestParameter, AutoAnalysis.Line1.Point1.Data.Var, 
TestParameter, AutoAnalysis.Line1.Point1.Data.Condition, 
TestParameter, AutoAnalysis.Line1.Point1.Data.Start, false
TestParameter, AutoAnalysis.Line1.Point1.Data.StartVar, 
TestParameter, AutoAnalysis.Line1.Point1.Data.StartCondition, 
TestParameter, AutoAnalysis.Line1.Point2.Type, 0
TestParameter, AutoAnalysis.Line1.Point2.XY.X, 
TestParameter, AutoAnalysis.Line1.Point2.XY.Y, 
TestParameter, AutoAnalysis.Line1.Point2.Data.Var, 
TestParameter, AutoAnalysis.Line1.Point2.Data.Condition, 
TestParameter, AutoAnalysis.Line1.Point2.Data.Start, false
TestParameter, AutoAnalysis.Line1.Point2.Data.StartVar, 
TestParameter, AutoAnalysis.Line1.Point2.Data.StartCondition, 
TestParameter, AutoAnalysis.Line1.GradientExpr, 0
TestParameter, AutoAnalysis.Line2.Enabled, false
TestParameter, AutoAnalysis.Line2.Type, 1
TestParameter, AutoAnalysis.Line2.Fix, True
TestParameter, AutoAnalysis.Line2.YAxis, 0
TestParameter, AutoAnalysis.Line2.Point1.Type, 0
TestParameter, AutoAnalysis.Line2.Point1.XY.X, 
TestParameter, AutoAnalysis.Line2.Point1.XY.Y, 
TestParameter, AutoAnalysis.Line2.Point1.Data.Var, 
TestParameter, AutoAnalysis.Line2.Point1.Data.Condition, 
TestParameter, AutoAnalysis.Line2.Point1.Data.Start, false
TestParameter, AutoAnalysis.Line2.Point1.Data.StartVar, 
TestParameter, AutoAnalysis.Line2.Point1.Data.StartCondition, 
TestParameter, AutoAnalysis.Line2.Point2.Type, 0
TestParameter, AutoAnalysis.Line2.Point2.XY.X, 
TestParameter, AutoAnalysis.Line2.Point2.XY.Y, 
TestParameter, AutoAnalysis.Line2.Point2.Data.Var, 
TestParameter, AutoAnalysis.Line2.Point2.Data.Condition, 
TestParameter, AutoAnalysis.Line2.Point2.Data.Start, false
TestParameter, AutoAnalysis.Line2.Point2.Data.StartVar, 
TestParameter, AutoAnalysis.Line2.Point2.Data.StartCondition, 
TestParameter, AutoAnalysis.Line2.GradientExpr, 0
TestParameter, AutoAnalysis.Marker.Enabled, false
TestParameter, AutoAnalysis.Marker.Data.Var, 
TestParameter, AutoAnalysis.Marker.Data.Condition, 
TestParameter, AutoAnalysis.Marker.Data.Start, false
TestParameter, AutoAnalysis.Marker.Data.StartVar, 
TestParameter, AutoAnalysis.Marker.Data.StartCondition, 
MetaData, TestRecord.EntryPoint, true
MetaData, TestRecord.RecordTime, 06/18/2019 15:51:26
MetaData, TestRecord.TestTarget, 11-15
MetaData, TestRecord.IterationIndex, 1
MetaData, TestRecord.Preservation, true
MetaData, TestRecord.Flag, 
MetaData, TestRecord.Remarks, good
MetaData, TestRecord.LinkKey, 58bb96a8-e8b6-4672-bc35-a9290c84478a
Dimension1, 11, 11, 11, 11, 11, 11, 11, 11
Dimension2, 7, 7, 7, 7, 7, 7, 7, 7
DataName, VD, VG, VS, ID, IS, IG, absID, absIG
DataValue, 0, -1, 0, -1.8400000000000002E-12, 9.5600000000000017E-13, -2.0200000000000003E-12, 1.8400000000000002E-12, 2.0200000000000003E-12
DataValue, 0.5, -1, 0, 2.502E-12, -1.278E-12, -3.3190000000000003E-12, 2.502E-12, 3.3190000000000003E-12
DataValue, 1, -1, 0, 6.0600000000000004E-12, -1.044E-12, -4.136E-12, 6.0600000000000004E-12, 4.136E-12
DataValue, 1.5, -1, 0, 8.024E-12, -5.3730000000000006E-12, -3.897E-12, 8.024E-12, 3.897E-12
DataValue, 2, -1, 0, 1.2955E-11, -3.1910000000000004E-12, -5.387E-12, 1.2955E-11, 5.387E-12
DataValue, 2.5, -1, 0, 1.393E-11, -7.1090000000000005E-12, -5.6090000000000008E-12, 1.393E-11, 5.6090000000000008E-12
DataValue, 3, -1, 0, 1.9489000000000003E-11, -9.0090000000000009E-12, -6.8790000000000009E-12, 1.9489000000000003E-11, 6.8790000000000009E-12
DataValue, 3.5, -1, 0, 2.2835E-11, -1.1262000000000001E-11, -7.884E-12, 2.2835E-11, 7.884E-12
DataValue, 4, -1, 0, 2.4297000000000003E-11, -1.4962E-11, -7.6510000000000012E-12, 2.4297000000000003E-11, 7.6510000000000012E-12
DataValue, 4.5, -1, 0, 3.0130000000000003E-11, -1.4091E-11, -9.144E-12, 3.0130000000000003E-11, 9.144E-12
DataValue, 5, -1, 0, 3.4084E-11, -1.7713000000000003E-11, -1.0365000000000001E-11, 3.4084E-11, 1.0365000000000001E-11
DataValue, 0, 0, 0, -4.838E-12, -1.688E-12, 2.0990000000000002E-12, 4.838E-12, 2.0990000000000002E-12
DataValue, 0.5, 0, 0, 1.3364000000000002E-10, -1.43317E-10, 1.17E-12, 1.3364000000000002E-10, 1.17E-12
DataValue, 1, 0, 0, 1.7045400000000003E-10, -1.76696E-10, 3.0200000000000003E-13, 1.7045400000000003E-10, 3.0200000000000003E-13
DataValue, 1.5, 0, 0, 1.9439400000000002E-10, -1.94796E-10, -7.120000000000001E-13, 1.9439400000000002E-10, 7.120000000000001E-13
DataValue, 2, 0, 0, 2.10679E-10, -2.0895400000000002E-10, -8.5600000000000009E-13, 2.10679E-10, 8.5600000000000009E-13
DataValue, 2.5, 0, 0, 2.18496E-10, -2.21298E-10, -1.494E-12, 2.18496E-10, 1.494E-12
DataValue, 3, 0, 0, 2.3155900000000002E-10, -2.3236100000000002E-10, -2.31E-12, 2.3155900000000002E-10, 2.31E-12
DataValue, 3.5, 0, 0, 2.34338E-10, -2.2781700000000002E-10, -2.857E-12, 2.34338E-10, 2.857E-12
DataValue, 4, 0, 0, 2.34319E-10, -2.2655800000000003E-10, -3.681E-12, 2.34319E-10, 3.681E-12
DataValue, 4.5, 0, 0, 2.42919E-10, -2.32459E-10, -4.585E-12, 2.42919E-10, 4.585E-12
DataValue, 5, 0, 0, 2.48415E-10, -2.41823E-10, -4.5870000000000005E-12, 2.48415E-10, 4.5870000000000005E-12
DataValue, 0, 1, 0, -1.8413400000000002E-10, 1.5778500000000001E-10, 2.728E-12, 1.8413400000000002E-10, 2.728E-12
DataValue, 0.5, 1, 0, 9.9445E-08, -9.5937699999999992E-08, -4.7E-14, 9.9445E-08, 4.7E-14
DataValue, 1, 1, 0, 9.4321799999999992E-08, -9.38786E-08, -6.63E-13, 9.4321799999999992E-08, 6.63E-13
DataValue, 1.5, 1, 0, 9.04904E-08, -9.032169999999999E-08, -2.4000000000000004E-13, 9.04904E-08, 2.4000000000000004E-13
DataValue, 2, 1, 0, 8.74285E-08, -8.7029499999999992E-08, -5.42E-13, 8.74285E-08, 5.42E-13
DataValue, 2.5, 1, 0, 8.4641E-08, -8.43338E-08, -1.283E-12, 8.4641E-08, 1.283E-12
DataValue, 3, 1, 0, 8.2322299999999991E-08, -8.21758E-08, -1.3900000000000001E-13, 8.2322299999999991E-08, 1.3900000000000001E-13
DataValue, 3.5, 1, 0, 8.0476E-08, -8.0214899999999989E-08, -2.3460000000000003E-12, 8.0476E-08, 2.3460000000000003E-12
DataValue, 4, 1, 0, 7.86469E-08, -7.83674E-08, -2.059E-12, 7.86469E-08, 2.059E-12
DataValue, 4.5, 1, 0, 7.65483E-08, -7.64238E-08, -3.5490000000000003E-12, 7.65483E-08, 3.5490000000000003E-12
DataValue, 5, 1, 0, 7.5394899999999989E-08, -7.5248499999999987E-08, -5.172E-12, 7.5394899999999989E-08, 5.172E-12
DataValue, 0, 2, 0, -1.48797E-09, 1.46881E-09, 9.06E-12, 1.48797E-09, 9.06E-12
DataValue, 0.5, 2, 0, 1.7761600000000002E-06, -1.6927500000000002E-06, 4.751E-12, 1.7761600000000002E-06, 4.751E-12
DataValue, 1, 2, 0, 1.8626100000000002E-06, -1.84529E-06, 2.6630000000000003E-12, 1.8626100000000002E-06, 2.6630000000000003E-12
DataValue, 1.5, 2, 0, 1.7898400000000003E-06, -1.7779700000000002E-06, 1.3170000000000001E-12, 1.7898400000000003E-06, 1.3170000000000001E-12
DataValue, 2, 2, 0, 1.7069000000000001E-06, -1.69698E-06, -5.5000000000000005E-14, 1.7069000000000001E-06, 5.5000000000000005E-14
DataValue, 2.5, 2, 0, 1.63929E-06, -1.6273200000000002E-06, -4.96E-13, 1.63929E-06, 4.96E-13
DataValue, 3, 2, 0, 1.5758200000000001E-06, -1.5697200000000001E-06, -1.744E-12, 1.5758200000000001E-06, 1.744E-12
DataValue, 3.5, 2, 0, 1.5312800000000001E-06, -1.5264400000000002E-06, -2.2870000000000003E-12, 1.5312800000000001E-06, 2.2870000000000003E-12
DataValue, 4, 2, 0, 1.4824200000000001E-06, -1.47299E-06, -2.4670000000000003E-12, 1.4824200000000001E-06, 2.4670000000000003E-12
DataValue, 4.5, 2, 0, 1.4457400000000002E-06, -1.4356400000000001E-06, -3.384E-12, 1.4457400000000002E-06, 3.384E-12
DataValue, 5, 2, 0, 1.40407E-06, -1.4004300000000002E-06, -4.2130000000000007E-12, 1.40407E-06, 4.2130000000000007E-12
DataValue, 0, 3, 0, -3.56732E-09, 3.48564E-09, 1.6239E-11, 3.56732E-09, 1.6239E-11
DataValue, 0.5, 3, 0, 5.7913500000000009E-06, -5.7049200000000008E-06, 1.0823000000000001E-11, 5.7913500000000009E-06, 1.0823000000000001E-11
DataValue, 1, 3, 0, 8.3108600000000009E-06, -8.24668E-06, 6.9090000000000005E-12, 8.3108600000000009E-06, 6.9090000000000005E-12
DataValue, 1.5, 3, 0, 9.0950200000000016E-06, -9.04381E-06, 4.2420000000000007E-12, 9.0950200000000016E-06, 4.2420000000000007E-12
DataValue, 2, 3, 0, 8.9983500000000017E-06, -8.932230000000001E-06, 2.987E-12, 8.9983500000000017E-06, 2.987E-12
DataValue, 2.5, 3, 0, 8.66226E-06, -8.6225000000000009E-06, 1.74E-12, 8.66226E-06, 1.74E-12
DataValue, 3, 3, 0, 8.37655E-06, -8.3440400000000012E-06, 1.473E-12, 8.37655E-06, 1.473E-12
DataValue, 3.5, 3, 0, 8.13853E-06, -8.1041300000000013E-06, 4.5500000000000008E-13, 8.13853E-06, 4.5500000000000008E-13
DataValue, 4, 3, 0, 7.93668E-06, -7.9137900000000014E-06, -7.99E-13, 7.93668E-06, 7.99E-13
DataValue, 4.5, 3, 0, 7.7526800000000015E-06, -7.7252400000000013E-06, -1.3780000000000002E-12, 7.7526800000000015E-06, 1.3780000000000002E-12
DataValue, 5, 3, 0, 7.5968300000000011E-06, -7.581160000000001E-06, -2.0110000000000002E-12, 7.5968300000000011E-06, 2.0110000000000002E-12
DataValue, 0, 4, 0, -5.40382E-09, 5.66296E-09, 2.3300000000000003E-11, 5.40382E-09, 2.3300000000000003E-11
DataValue, 0.5, 4, 0, 1.1838E-05, -1.18068E-05, 1.7727E-11, 1.1838E-05, 1.7727E-11
DataValue, 1, 4, 0, 1.99401E-05, -1.99018E-05, 1.3547000000000001E-11, 1.99401E-05, 1.3547000000000001E-11
DataValue, 1.5, 4, 0, 2.49519E-05, -2.4879800000000002E-05, 1.0188000000000001E-11, 2.49519E-05, 1.0188000000000001E-11
DataValue, 2, 4, 0, 2.74276E-05, -2.7347600000000002E-05, 9.669E-12, 2.74276E-05, 9.669E-12
DataValue, 2.5, 4, 0, 2.8313100000000002E-05, -2.82058E-05, 6.784E-12, 2.8313100000000002E-05, 6.784E-12
DataValue, 3, 4, 0, 2.8250000000000002E-05, -2.8158600000000002E-05, 4.907E-12, 2.8250000000000002E-05, 4.907E-12
DataValue, 3.5, 4, 0, 2.7806700000000003E-05, -2.77465E-05, 4.067E-12, 2.7806700000000003E-05, 4.067E-12
DataValue, 4, 4, 0, 2.7333700000000002E-05, -2.72645E-05, 3.5210000000000004E-12, 2.7333700000000002E-05, 3.5210000000000004E-12
DataValue, 4.5, 4, 0, 2.68605E-05, -2.68013E-05, 2.435E-12, 2.68605E-05, 2.435E-12
DataValue, 5, 4, 0, 2.6439200000000003E-05, -2.6384800000000002E-05, 1.6240000000000002E-12, 2.6439200000000003E-05, 1.6240000000000002E-12
DataValue, 0, 5, 0, -1.1110199999999999E-08, 1.1080299999999999E-08, 2.9413000000000005E-11, 1.1110199999999999E-08, 2.9413000000000005E-11
DataValue, 0.5, 5, 0, 1.90352E-05, -1.90152E-05, 2.3067E-11, 1.90352E-05, 2.3067E-11
DataValue, 1, 5, 0, 3.40151E-05, -3.40128E-05, 1.7965000000000003E-11, 3.40151E-05, 1.7965000000000003E-11
DataValue, 1.5, 5, 0, 4.5497E-05, -4.54883E-05, 1.5955E-11, 4.5497E-05, 1.5955E-11
DataValue, 2, 5, 0, 5.37413E-05, -5.3700100000000004E-05, 1.3455E-11, 5.37413E-05, 1.3455E-11
DataValue, 2.5, 5, 0, 5.9136400000000005E-05, -5.9064500000000003E-05, 1.2379000000000001E-11, 5.9136400000000005E-05, 1.2379000000000001E-11
DataValue, 3, 5, 0, 6.2234500000000009E-05, -6.21516E-05, 1.0300000000000001E-11, 6.2234500000000009E-05, 1.0300000000000001E-11
DataValue, 3.5, 5, 0, 6.3658800000000008E-05, -6.3567E-05, 8.8420000000000013E-12, 6.3658800000000008E-05, 8.8420000000000013E-12
DataValue, 4, 5, 0, 6.40124E-05, -6.39105E-05, 7.908E-12, 6.40124E-05, 7.908E-12
DataValue, 4.5, 5, 0, 6.3828700000000008E-05, -6.37497E-05, 7.2510000000000005E-12, 6.3828700000000008E-05, 7.2510000000000005E-12
DataValue, 5, 5, 0, 6.34097E-05, -6.33198E-05, 5.89E-12, 6.34097E-05, 5.89E-12