
SetupTitle, Output
PrimitiveTest, I/V Sweep
TestParameter, Context.MainFrame, 4155C
TestParameter, Channel.UnitType, SMU, SMU, SMU
TestParameter, Channel.Unit, SMU3:MP, SMU4:MP, SMU1:MP
TestParameter, Channel.IName, ID, IS, IG
TestParameter, Channel.VName, VD, VS, VG
TestParameter, Channel.Mode, V, COMMON, V
TestParameter, Channel.Func, VAR1, CONST, VAR2
TestParameter, Channel.Index, 
TestParameter, Channel.Time, 
TestParameter, Measurement.Port.Unit, SMU3:MP, SMU4:MP, SMU1:MP
TestParameter, Measurement.Port.SeriesResistor, NONE, NONE, NONE
TestParameter, Measurement.Port.Filter, ON, ON, ON
TestParameter, Measurement.Primary.Locus, Single
TestParameter, Measurement.Primary.Scale, LINEAR
TestParameter, Measurement.Primary.Start, 0
TestParameter, Measurement.Primary.Stop, 5
TestParameter, Measurement.Primary.Step, 0.5
TestParameter, Measurement.Primary.Compliance, 0.1
TestParameter, Measurement.Primary.PowerCompliance, 0
TestParameter, Measurement.Aborting.Condition, CONTINUE AT ANY
TestParameter, Measurement.PostOutput.Value, START
TestParameter, Measurement.PostOutput.Retention, OFF
TestParameter, Measurement.Secondary.Start, -1
TestParameter, Measurement.Secondary.Count, 7
TestParameter, Measurement.Secondary.Step, 1
TestParameter, Measurement.Secondary.Compliance, 0.1
TestParameter, Measurement.Secondary.PowerCompliance, 0
TestParameter, Measurement.Bias.Source, 0, 0, -1
TestParameter, Measurement.Bias.Compliance, 0.1, 0.1, 0.1
TestParameter, Measurement.Monitor.Unit, SMU3:MP, SMU4:MP, SMU1:MP
TestParameter, Measurement.Monitor.Adc, HR ADC, HR ADC, HR ADC
TestParameter, Measurement.Monitor.RangingMode, AUTO, AUTO, AUTO
TestParameter, Measurement.Monitor.RangeBoundary, , , 
TestParameter, Measurement.Monitor.RangeRating, BY FULL RANGE, BY FULL RANGE, BY FULL RANGE
TestParameter, Measurement.Monitor.RangeRatingCoeff, 50, 50, 50
TestParameter, Measurement.Timing.Hold, 0.5
TestParameter, Measurement.Timing.Delay, 0.05
TestParameter, Measurement.Adc.HighResolution.AutoZero, OFF
TestParameter, Measurement.Adc.HighResolution.Mode, AUTO
TestParameter, Measurement.Adc.HighResolution.Coeff, 1
TestParameter, Measurement.Ag16440ASelector.SemiconductorRelay.Channel1, DEFAULT
TestParameter, Measurement.Ag16440ASelector.SemiconductorRelay.Channel3, DEFAULT
TestParameter, Function.User.Name, absID, absIG
TestParameter, Function.User.Unit, A, A
TestParameter, Function.User.Definition, abs(ID), abs(IG)
TestParameter, Output.Graph.Enabled, true
TestParameter, Output.Graph.XAxis.Data, VD
TestParameter, Output.Graph.XAxis.Scale, Linear
TestParameter, Output.Graph.XAxis.Left, 0
TestParameter, Output.Graph.XAxis.Right, 7
TestParameter, Output.Graph.YAxis.Data, ID
TestParameter, Output.Graph.YAxis.Scale, Linear
TestParameter, Output.Graph.YAxis.Bottom, 1E-14
TestParameter, Output.Graph.YAxis.Top, 0.01
TestParameter, Output.Graph.YAxis.Group, 
TestParameter, Output.List.Data, VG, IG, VD, ID, VS, IS, absIG
TestParameter, AutoAnalysis.Interpolation, false
TestParameter, AutoAnalysis.Line1.Enabled, false
TestParameter, AutoAnalysis.Line1.Type, 1
TestParameter, AutoAnalysis.Line1.Fix, True
TestParameter, AutoAnalysis.Line1.YAxis, 0
TestParameter, AutoAnalysis.Line1.Point1.Type, 0
TestParameter, AutoAnalysis.Line1.Point1.XY.X, 
TestParameter, AutoAnalysis.Line1.Point1.XY.Y, 
TestParameter, AutoAnalysis.Line1.Point1.Data.Var, 
TestParameter, AutoAnalysis.Line1.Point1.Data.Condition, 
TestParameter, AutoAnalysis.Line1.Point1.Data.Start, false
TestParameter, AutoAnalysis.Line1.Point1.Data.StartVar, 
TestParameter, AutoAnalysis.Line1.Point1.Data.StartCondition, 
TestParameter, AutoAnalysis.Line1.Point2.Type, 0
TestParameter, AutoAnalysis.Line1.Point2.XY.X, 
TestParameter, AutoAnalysis.Line1.Point2.XY.Y, 
TestParameter, AutoAnalysis.Line1.Point2.Data.Var, 
TestParameter, AutoAnalysis.Line1.Point2.Data.Condition, 
TestParameter, AutoAnalysis.Line1.Point2.Data.Start, false
TestParameter, AutoAnalysis.Line1.Point2.Data.StartVar, 
TestParameter, AutoAnalysis.Line1.Point2.Data.StartCondition, 
TestParameter, AutoAnalysis.Line1.GradientExpr, 0
TestParameter, AutoAnalysis.Line2.Enabled, false
TestParameter, AutoAnalysis.Line2.Type, 1
TestParameter, AutoAnalysis.Line2.Fix, True
TestParameter, AutoAnalysis.Line2.YAxis, 0
TestParameter, AutoAnalysis.Line2.Point1.Type, 0
TestParameter, AutoAnalysis.Line2.Point1.XY.X, 
TestParameter, AutoAnalysis.Line2.Point1.XY.Y, 
TestParameter, AutoAnalysis.Line2.Point1.Data.Var, 
TestParameter, AutoAnalysis.Line2.Point1.Data.Condition, 
TestParameter, AutoAnalysis.Line2.Point1.Data.Start, false
TestParameter, AutoAnalysis.Line2.Point1.Data.StartVar, 
TestParameter, AutoAnalysis.Line2.Point1.Data.StartCondition, 
TestParameter, AutoAnalysis.Line2.Point2.Type, 0
TestParameter, AutoAnalysis.Line2.Point2.XY.X, 
TestParameter, AutoAnalysis.Line2.Point2.XY.Y, 
TestParameter, AutoAnalysis.Line2.Point2.Data.Var, 
TestParameter, AutoAnalysis.Line2.Point2.Data.Condition, 
TestParameter, AutoAnalysis.Line2.Point2.Data.Start, false
TestParameter, AutoAnalysis.Line2.Point2.Data.StartVar, 
TestParameter, AutoAnalysis.Line2.Point2.Data.StartCondition, 
TestParameter, AutoAnalysis.Line2.GradientExpr, 0
TestParameter, AutoAnalysis.Marker.Enabled, false
TestParameter, AutoAnalysis.Marker.Data.Var, 
TestParameter, AutoAnalysis.Marker.Data.Condition, 
TestParameter, AutoAnalysis.Marker.Data.Start, false
TestParameter, AutoAnalysis.Marker.Data.StartVar, 
TestParameter, AutoAnalysis.Marker.Data.StartCondition, 
MetaData, TestRecord.EntryPoint, true
MetaData, TestRecord.RecordTime, 05/27/2019 11:00:53
MetaData, TestRecord.TestTarget, 350-180-G27
MetaData, TestRecord.IterationIndex, 1
MetaData, TestRecord.Preservation, true
MetaData, TestRecord.Flag, 
MetaData, TestRecord.Remarks, GOOD
MetaData, TestRecord.LinkKey, 2e07f0ae-3caf-4149-8549-199a33ad10b9
Dimension1, 11, 11, 11, 11, 11, 11, 11, 11
Dimension2, 7, 7, 7, 7, 7, 7, 7, 7
DataName, VD, VG, VS, ID, IS, IG, absID, absIG
DataValue, 0, -1, 0, 3.4900000000000003E-12, 4.6240000000000005E-12, -1.0961E-11, 3.4900000000000003E-12, 1.0961E-11
DataValue, 0.5, -1, 0, 3.363E-12, 1.3820000000000002E-12, -4.717E-12, 3.363E-12, 4.717E-12
DataValue, 1, -1, 0, 7.086E-12, -3.413E-12, -4.857E-12, 7.086E-12, 4.857E-12
DataValue, 1.5, -1, 0, 5.169E-12, 2.4630000000000003E-12, -4.433E-12, 5.169E-12, 4.433E-12
DataValue, 2, -1, 0, 1.0182E-11, 1.1710000000000002E-12, -6.095E-12, 1.0182E-11, 6.095E-12
DataValue, 2.5, -1, 0, 9.763E-12, -2.3000000000000003E-13, -9.789E-12, 9.763E-12, 9.789E-12
DataValue, 3, -1, 0, 2.0386E-11, 1.1100000000000001E-12, -2.1903000000000003E-11, 2.0386E-11, 2.1903000000000003E-11
DataValue, 3.5, -1, 0, 4.9928000000000005E-11, -1.604E-12, -5.2640000000000005E-11, 4.9928000000000005E-11, 5.2640000000000005E-11
DataValue, 4, -1, 0, 1.0812900000000001E-10, 1.067E-12, -1.2001100000000002E-10, 1.0812900000000001E-10, 1.2001100000000002E-10
DataValue, 4.5, -1, 0, 2.5016400000000003E-10, 1.2920000000000002E-12, -2.6873900000000004E-10, 2.5016400000000003E-10, 2.6873900000000004E-10
DataValue, 5, -1, 0, 4.8960200000000006E-10, -3.66E-13, -5.5573E-10, 4.8960200000000006E-10, 5.5573E-10
DataValue, 0, 0, 0, -1.835E-12, -8.5500000000000009E-13, 2.556E-12, 1.835E-12, 2.556E-12
DataValue, 0.5, 0, 0, 4.1279E-11, -4.0626000000000004E-11, 8.8E-14, 4.1279E-11, 8.8E-14
DataValue, 1, 0, 0, 4.0796E-11, -3.8575E-11, -1.03E-12, 4.0796E-11, 1.03E-12
DataValue, 1.5, 0, 0, 3.6164E-11, -3.6823E-11, -1.5850000000000002E-12, 3.6164E-11, 1.5850000000000002E-12
DataValue, 2, 0, 0, 3.9774000000000004E-11, -3.4908E-11, -2.232E-12, 3.9774000000000004E-11, 2.232E-12
DataValue, 2.5, 0, 0, 3.8497E-11, -3.4078E-11, -3.4500000000000004E-12, 3.8497E-11, 3.4500000000000004E-12
DataValue, 3, 0, 0, 4.0960000000000006E-11, -3.3639000000000004E-11, -6.9900000000000007E-12, 4.0960000000000006E-11, 6.9900000000000007E-12
DataValue, 3.5, 0, 0, 4.9599000000000006E-11, -3.273E-11, -1.8561E-11, 4.9599000000000006E-11, 1.8561E-11
DataValue, 4, 0, 0, 6.9580000000000007E-11, -3.1325000000000006E-11, -4.4143E-11, 6.9580000000000007E-11, 4.4143E-11
DataValue, 4.5, 0, 0, 1.27239E-10, -3.142E-11, -1.0444500000000001E-10, 1.27239E-10, 1.0444500000000001E-10
DataValue, 5, 0, 0, 2.5547E-10, -3.0512000000000004E-11, -1.86217E-10, 2.5547E-10, 1.86217E-10
DataValue, 0, 1, 0, 1.2540800000000002E-10, -1.35916E-10, 1.4252000000000002E-11, 1.2540800000000002E-10, 1.4252000000000002E-11
DataValue, 0.5, 1, 0, 3.6653699999999996E-08, -3.65386E-08, 4.3630000000000007E-12, 3.6653699999999996E-08, 4.3630000000000007E-12
DataValue, 1, 1, 0, 3.7430199999999996E-08, -3.7401899999999994E-08, 5.9E-14, 3.7430199999999996E-08, 5.9E-14
DataValue, 1.5, 1, 0, 3.71572E-08, -3.71014E-08, -3.2370000000000004E-12, 3.71572E-08, 3.2370000000000004E-12
DataValue, 2, 1, 0, 3.6679899999999996E-08, -3.6620899999999995E-08, -5.3080000000000004E-12, 3.6679899999999996E-08, 5.3080000000000004E-12
DataValue, 2.5, 1, 0, 3.6147799999999996E-08, -3.6088399999999994E-08, -6.6510000000000006E-12, 3.6147799999999996E-08, 6.6510000000000006E-12
DataValue, 3, 1, 0, 3.56348E-08, -3.55559E-08, -7.717E-12, 3.56348E-08, 7.717E-12
DataValue, 3.5, 1, 0, 3.51399E-08, -3.50775E-08, -8.4740000000000013E-12, 3.51399E-08, 8.4740000000000013E-12
DataValue, 4, 1, 0, 3.46745E-08, -3.4615599999999995E-08, -9.379E-12, 3.46745E-08, 9.379E-12
DataValue, 4.5, 1, 0, 3.42275E-08, -3.4149799999999994E-08, -1.2234000000000001E-11, 3.42275E-08, 1.2234000000000001E-11
DataValue, 5, 1, 0, 3.38072E-08, -3.37268E-08, -2.3623E-11, 3.38072E-08, 2.3623E-11
DataValue, 0, 2, 0, 1.21906E-09, -1.21274E-09, 2.4472E-11, 1.21906E-09, 2.4472E-11
DataValue, 0.5, 2, 0, 5.60113E-07, -5.57035E-07, 9.999E-12, 5.60113E-07, 9.999E-12
DataValue, 1, 2, 0, 6.83651E-07, -6.8460999999999993E-07, -3.012E-12, 6.83651E-07, 3.012E-12
DataValue, 1.5, 2, 0, 7.04472E-07, -7.0494299999999994E-07, -1.2278E-11, 7.04472E-07, 1.2278E-11
DataValue, 2, 2, 0, 7.06994E-07, -7.06891E-07, -1.253E-12, 7.06994E-07, 1.253E-12
DataValue, 2.5, 2, 0, 7.05036E-07, -7.04523E-07, -1.5E-12, 7.05036E-07, 1.5E-12
DataValue, 3, 2, 0, 7.01415E-07, -7.0094E-07, -1.1351E-11, 7.01415E-07, 1.1351E-11
DataValue, 3.5, 2, 0, 6.97003E-07, -6.96248E-07, -1.4796E-11, 6.97003E-07, 1.4796E-11
DataValue, 4, 2, 0, 6.92216E-07, -6.91585E-07, -1.19E-11, 6.92216E-07, 1.19E-11
DataValue, 4.5, 2, 0, 6.873E-07, -6.86545E-07, -2.15E-11, 6.873E-07, 2.15E-11
DataValue, 5, 2, 0, 6.8281E-07, -6.82008E-07, -2.3846E-11, 6.8281E-07, 2.3846E-11
DataValue, 0, 3, 0, 3.70231E-09, -3.54284E-09, 2.0662E-11, 3.70231E-09, 2.0662E-11
DataValue, 0.5, 3, 0, 2.1084100000000003E-06, -2.10113E-06, 2.1046000000000002E-11, 2.1084100000000003E-06, 2.1046000000000002E-11
DataValue, 1, 3, 0, 3.0293800000000005E-06, -3.0301600000000004E-06, 9.835E-12, 3.0293800000000005E-06, 9.835E-12
DataValue, 1.5, 3, 0, 3.3588800000000004E-06, -3.3616200000000003E-06, 1.3030000000000001E-11, 3.3588800000000004E-06, 1.3030000000000001E-11
DataValue, 2, 3, 0, 3.4617200000000004E-06, -3.4631300000000003E-06, -6.6660000000000009E-12, 3.4617200000000004E-06, 6.6660000000000009E-12
DataValue, 2.5, 3, 0, 3.4886600000000003E-06, -3.4876700000000005E-06, 4.491E-12, 3.4886600000000003E-06, 4.491E-12
DataValue, 3, 3, 0, 3.4886900000000003E-06, -3.4876900000000002E-06, -1.3270000000000001E-12, 3.4886900000000003E-06, 1.3270000000000001E-12
DataValue, 3.5, 3, 0, 3.47922E-06, -3.4771700000000004E-06, -3.5920000000000004E-12, 3.47922E-06, 3.5920000000000004E-12
DataValue, 4, 3, 0, 3.4646700000000005E-06, -3.4616900000000004E-06, -1.2125E-11, 3.4646700000000005E-06, 1.2125E-11
DataValue, 4.5, 3, 0, 3.4476000000000002E-06, -3.4450300000000005E-06, -1.9272000000000003E-11, 3.4476000000000002E-06, 1.9272000000000003E-11
DataValue, 5, 3, 0, 3.4296700000000004E-06, -3.42618E-06, -1.7261000000000002E-11, 3.4296700000000004E-06, 1.7261000000000002E-11
DataValue, 0, 4, 0, 6.85111E-09, -6.32858E-09, 3.446E-11, 6.85111E-09, 3.446E-11
DataValue, 0.5, 4, 0, 4.4047500000000005E-06, -4.38788E-06, 2.3691000000000003E-11, 4.4047500000000005E-06, 2.3691000000000003E-11
DataValue, 1, 4, 0, 6.9067400000000006E-06, -6.9038000000000007E-06, 8.563E-12, 6.9067400000000006E-06, 8.563E-12
DataValue, 1.5, 4, 0, 8.1887600000000009E-06, -8.18805E-06, -8.8000000000000009E-13, 8.1887600000000009E-06, 8.8000000000000009E-13
DataValue, 2, 4, 0, 8.7337300000000012E-06, -8.73333E-06, 1.8060000000000002E-12, 8.7337300000000012E-06, 1.8060000000000002E-12
DataValue, 2.5, 4, 0, 8.91294E-06, -8.91285E-06, -2.331E-12, 8.91294E-06, 2.331E-12
DataValue, 3, 4, 0, 8.9700900000000017E-06, -8.9668600000000011E-06, 8.323E-12, 8.9700900000000017E-06, 8.323E-12
DataValue, 3.5, 4, 0, 8.97065E-06, -8.9657300000000017E-06, -8.2700000000000011E-13, 8.97065E-06, 8.2700000000000011E-13
DataValue, 4, 4, 0, 8.9475900000000015E-06, -8.9429E-06, 5.782E-12, 8.9475900000000015E-06, 5.782E-12
DataValue, 4.5, 4, 0, 8.9153100000000016E-06, -8.9090400000000017E-06, -5.41E-13, 8.9153100000000016E-06, 5.41E-13
DataValue, 5, 4, 0, 8.8767000000000009E-06, -8.8709400000000012E-06, -7.4930000000000013E-12, 8.8767000000000009E-06, 7.4930000000000013E-12
DataValue, 0, 5, 0, 1.0770099999999999E-08, -1.0762199999999998E-08, 4.6795000000000005E-11, 1.0770099999999999E-08, 4.6795000000000005E-11
DataValue, 0.5, 5, 0, 7.041970000000001E-06, -7.0103300000000009E-06, 2.5825000000000002E-11, 7.041970000000001E-06, 2.5825000000000002E-11
DataValue, 1, 5, 0, 1.15627E-05, -1.15421E-05, 1.9772E-11, 1.15627E-05, 1.9772E-11
DataValue, 1.5, 5, 0, 1.43094E-05, -1.42971E-05, 1.4621000000000002E-11, 1.43094E-05, 1.4621000000000002E-11
DataValue, 2, 5, 0, 1.58013E-05, -1.5792E-05, 1.0591000000000001E-11, 1.58013E-05, 1.0591000000000001E-11
DataValue, 2.5, 5, 0, 1.64974E-05, -1.6491100000000002E-05, 9.0740000000000011E-12, 1.64974E-05, 9.0740000000000011E-12
DataValue, 3, 5, 0, 1.6806E-05, -1.67996E-05, 6.5660000000000009E-12, 1.6806E-05, 6.5660000000000009E-12
DataValue, 3.5, 5, 0, 1.6908300000000002E-05, -1.68999E-05, 6.5460000000000006E-12, 1.6908300000000002E-05, 6.5460000000000006E-12
DataValue, 4, 5, 0, 1.69172E-05, -1.6905200000000002E-05, 6.345E-12, 1.69172E-05, 6.345E-12
DataValue, 4.5, 5, 0, 1.68838E-05, -1.6871E-05, 4.614E-12, 1.68838E-05, 4.614E-12
DataValue, 5, 5, 0, 1.68296E-05, -1.68145E-05, 3.949E-12, 1.68296E-05, 3.949E-12