
SetupTitle, Output
PrimitiveTest, I/V Sweep
TestParameter, Context.MainFrame, 4155C
TestParameter, Channel.UnitType, SMU, SMU, SMU
TestParameter, Channel.Unit, SMU3:MP, SMU4:MP, SMU1:MP
TestParameter, Channel.IName, ID, IS, IG
TestParameter, Channel.VName, VD, VS, VG
TestParameter, Channel.Mode, V, COMMON, V
TestParameter, Channel.Func, VAR1, CONST, VAR2
TestParameter, Channel.Index, 
TestParameter, Channel.Time, 
TestParameter, Measurement.Port.Unit, SMU3:MP, SMU4:MP, SMU1:MP
TestParameter, Measurement.Port.SeriesResistor, NONE, NONE, NONE
TestParameter, Measurement.Port.Filter, ON, ON, ON
TestParameter, Measurement.Primary.Locus, Single
TestParameter, Measurement.Primary.Scale, LINEAR
TestParameter, Measurement.Primary.Start, 0
TestParameter, Measurement.Primary.Stop, 5
TestParameter, Measurement.Primary.Step, 0.5
TestParameter, Measurement.Primary.Compliance, 0.1
TestParameter, Measurement.Primary.PowerCompliance, 0
TestParameter, Measurement.Aborting.Condition, CONTINUE AT ANY
TestParameter, Measurement.PostOutput.Value, START
TestParameter, Measurement.PostOutput.Retention, OFF
TestParameter, Measurement.Secondary.Start, -1
TestParameter, Measurement.Secondary.Count, 7
TestParameter, Measurement.Secondary.Step, 1
TestParameter, Measurement.Secondary.Compliance, 0.1
TestParameter, Measurement.Secondary.PowerCompliance, 0
TestParameter, Measurement.Bias.Source, 0, 0, -1
TestParameter, Measurement.Bias.Compliance, 0.1, 0.1, 0.1
TestParameter, Measurement.Monitor.Unit, SMU3:MP, SMU4:MP, SMU1:MP
TestParameter, Measurement.Monitor.Adc, HR ADC, HR ADC, HR ADC
TestParameter, Measurement.Monitor.RangingMode, AUTO, AUTO, AUTO
TestParameter, Measurement.Monitor.RangeBoundary, , , 
TestParameter, Measurement.Monitor.RangeRating, BY FULL RANGE, BY FULL RANGE, BY FULL RANGE
TestParameter, Measurement.Monitor.RangeRatingCoeff, 50, 50, 50
TestParameter, Measurement.Timing.Hold, 0.5
TestParameter, Measurement.Timing.Delay, 0.05
TestParameter, Measurement.Adc.HighResolution.AutoZero, OFF
TestParameter, Measurement.Adc.HighResolution.Mode, AUTO
TestParameter, Measurement.Adc.HighResolution.Coeff, 1
TestParameter, Measurement.Ag16440ASelector.SemiconductorRelay.Channel1, DEFAULT
TestParameter, Measurement.Ag16440ASelector.SemiconductorRelay.Channel3, DEFAULT
TestParameter, Function.User.Name, absID, absIG
TestParameter, Function.User.Unit, A, A
TestParameter, Function.User.Definition, abs(ID), abs(IG)
TestParameter, Output.Graph.Enabled, true
TestParameter, Output.Graph.XAxis.Data, VD
TestParameter, Output.Graph.XAxis.Scale, Linear
TestParameter, Output.Graph.XAxis.Left, 0
TestParameter, Output.Graph.XAxis.Right, 7
TestParameter, Output.Graph.YAxis.Data, ID
TestParameter, Output.Graph.YAxis.Scale, Linear
TestParameter, Output.Graph.YAxis.Bottom, 1E-14
TestParameter, Output.Graph.YAxis.Top, 0.01
TestParameter, Output.Graph.YAxis.Group, 
TestParameter, Output.List.Data, VG, IG, VD, ID, VS, IS, absIG
TestParameter, AutoAnalysis.Interpolation, false
TestParameter, AutoAnalysis.Line1.Enabled, false
TestParameter, AutoAnalysis.Line1.Type, 1
TestParameter, AutoAnalysis.Line1.Fix, True
TestParameter, AutoAnalysis.Line1.YAxis, 0
TestParameter, AutoAnalysis.Line1.Point1.Type, 0
TestParameter, AutoAnalysis.Line1.Point1.XY.X, 
TestParameter, AutoAnalysis.Line1.Point1.XY.Y, 
TestParameter, AutoAnalysis.Line1.Point1.Data.Var, 
TestParameter, AutoAnalysis.Line1.Point1.Data.Condition, 
TestParameter, AutoAnalysis.Line1.Point1.Data.Start, false
TestParameter, AutoAnalysis.Line1.Point1.Data.StartVar, 
TestParameter, AutoAnalysis.Line1.Point1.Data.StartCondition, 
TestParameter, AutoAnalysis.Line1.Point2.Type, 0
TestParameter, AutoAnalysis.Line1.Point2.XY.X, 
TestParameter, AutoAnalysis.Line1.Point2.XY.Y, 
TestParameter, AutoAnalysis.Line1.Point2.Data.Var, 
TestParameter, AutoAnalysis.Line1.Point2.Data.Condition, 
TestParameter, AutoAnalysis.Line1.Point2.Data.Start, false
TestParameter, AutoAnalysis.Line1.Point2.Data.StartVar, 
TestParameter, AutoAnalysis.Line1.Point2.Data.StartCondition, 
TestParameter, AutoAnalysis.Line1.GradientExpr, 0
TestParameter, AutoAnalysis.Line2.Enabled, false
TestParameter, AutoAnalysis.Line2.Type, 1
TestParameter, AutoAnalysis.Line2.Fix, True
TestParameter, AutoAnalysis.Line2.YAxis, 0
TestParameter, AutoAnalysis.Line2.Point1.Type, 0
TestParameter, AutoAnalysis.Line2.Point1.XY.X, 
TestParameter, AutoAnalysis.Line2.Point1.XY.Y, 
TestParameter, AutoAnalysis.Line2.Point1.Data.Var, 
TestParameter, AutoAnalysis.Line2.Point1.Data.Condition, 
TestParameter, AutoAnalysis.Line2.Point1.Data.Start, false
TestParameter, AutoAnalysis.Line2.Point1.Data.StartVar, 
TestParameter, AutoAnalysis.Line2.Point1.Data.StartCondition, 
TestParameter, AutoAnalysis.Line2.Point2.Type, 0
TestParameter, AutoAnalysis.Line2.Point2.XY.X, 
TestParameter, AutoAnalysis.Line2.Point2.XY.Y, 
TestParameter, AutoAnalysis.Line2.Point2.Data.Var, 
TestParameter, AutoAnalysis.Line2.Point2.Data.Condition, 
TestParameter, AutoAnalysis.Line2.Point2.Data.Start, false
TestParameter, AutoAnalysis.Line2.Point2.Data.StartVar, 
TestParameter, AutoAnalysis.Line2.Point2.Data.StartCondition, 
TestParameter, AutoAnalysis.Line2.GradientExpr, 0
TestParameter, AutoAnalysis.Marker.Enabled, false
TestParameter, AutoAnalysis.Marker.Data.Var, 
TestParameter, AutoAnalysis.Marker.Data.Condition, 
TestParameter, AutoAnalysis.Marker.Data.Start, false
TestParameter, AutoAnalysis.Marker.Data.StartVar, 
TestParameter, AutoAnalysis.Marker.Data.StartCondition, 
MetaData, TestRecord.EntryPoint, true
MetaData, TestRecord.RecordTime, 05/27/2019 12:16:27
MetaData, TestRecord.TestTarget, 350-180-G22-2
MetaData, TestRecord.IterationIndex, 1
MetaData, TestRecord.Preservation, true
MetaData, TestRecord.Flag, 
MetaData, TestRecord.Remarks, GOOD
MetaData, TestRecord.LinkKey, de0760de-c524-4689-8f08-ccab8ffbc3aa
Dimension1, 11, 11, 11, 11, 11, 11, 11, 11
Dimension2, 7, 7, 7, 7, 7, 7, 7, 7
DataName, VD, VG, VS, ID, IS, IG, absID, absIG
DataValue, 0, -1, 0, -3.4600000000000004E-13, -3.41E-13, 8.760000000000001E-13, 3.4600000000000004E-13, 8.760000000000001E-13
DataValue, 0.5, -1, 0, 1.1190000000000002E-12, 7.28E-13, -9.15E-13, 1.1190000000000002E-12, 9.15E-13
DataValue, 1, -1, 0, 7.6300000000000008E-13, 1.16E-13, 7.9E-14, 7.6300000000000008E-13, 7.9E-14
DataValue, 1.5, -1, 0, 1.245E-12, -7.2370000000000008E-12, 1.067E-12, 1.245E-12, 1.067E-12
DataValue, 2, -1, 0, -6.7500000000000005E-13, -3.3080000000000004E-12, 1.6310000000000002E-12, 6.7500000000000005E-13, 1.6310000000000002E-12
DataValue, 2.5, -1, 0, 2.532E-12, -1.18E-13, -1.0660000000000001E-12, 2.532E-12, 1.0660000000000001E-12
DataValue, 3, -1, 0, 1.343E-12, 1.471E-12, -1.4200000000000002E-12, 1.343E-12, 1.4200000000000002E-12
DataValue, 3.5, -1, 0, 3.5710000000000004E-12, -2.0300000000000002E-13, -2.2490000000000002E-12, 3.5710000000000004E-12, 2.2490000000000002E-12
DataValue, 4, -1, 0, 5.1310000000000007E-12, 2.1460000000000003E-12, -3.0720000000000002E-12, 5.1310000000000007E-12, 3.0720000000000002E-12
DataValue, 4.5, -1, 0, 3.4570000000000003E-12, -2.0450000000000003E-12, -7.8250000000000011E-12, 3.4570000000000003E-12, 7.8250000000000011E-12
DataValue, 5, -1, 0, 2.0513000000000002E-11, 2.474E-12, -1.8878000000000003E-11, 2.0513000000000002E-11, 1.8878000000000003E-11
DataValue, 0, 0, 0, -3.5620000000000004E-12, -2.4000000000000002E-14, 3.7200000000000003E-13, 3.5620000000000004E-12, 3.7200000000000003E-13
DataValue, 0.5, 0, 0, -2.974E-12, -1.4300000000000002E-13, -6.29E-13, 2.974E-12, 6.29E-13
DataValue, 1, 0, 0, 5.2E-13, 7.6000000000000009E-13, -7.4E-14, 5.2E-13, 7.4E-14
DataValue, 1.5, 0, 0, 7.78E-13, -1.043E-12, -1.1460000000000002E-12, 7.78E-13, 1.1460000000000002E-12
DataValue, 2, 0, 0, 1.1290000000000001E-12, -6.870000000000001E-13, 8.8400000000000007E-13, 1.1290000000000001E-12, 8.8400000000000007E-13
DataValue, 2.5, 0, 0, 1.205E-12, 3.27E-13, -7.100000000000001E-13, 1.205E-12, 7.100000000000001E-13
DataValue, 3, 0, 0, 5.46E-13, 7.6300000000000008E-13, -4.11E-13, 5.46E-13, 4.11E-13
DataValue, 3.5, 0, 0, 6.5850000000000007E-12, -1.477E-12, -3.6100000000000003E-13, 6.5850000000000007E-12, 3.6100000000000003E-13
DataValue, 4, 0, 0, 1.7660000000000002E-12, 3.38E-13, -6.2100000000000008E-13, 1.7660000000000002E-12, 6.2100000000000008E-13
DataValue, 4.5, 0, 0, 3.008E-12, -9.48E-13, -2.407E-12, 3.008E-12, 2.407E-12
DataValue, 5, 0, 0, 6.0060000000000009E-12, 1.71E-13, -6.4060000000000008E-12, 6.0060000000000009E-12, 6.4060000000000008E-12
DataValue, 0, 1, 0, 4.1722000000000003E-11, -4.2537E-11, 1.0870000000000001E-12, 4.1722000000000003E-11, 1.0870000000000001E-12
DataValue, 0.5, 1, 0, 7.58473E-09, -7.68749E-09, 6.28E-13, 7.58473E-09, 6.28E-13
DataValue, 1, 1, 0, 7.84805E-09, -7.8544E-09, 8.6100000000000007E-13, 7.84805E-09, 8.6100000000000007E-13
DataValue, 1.5, 1, 0, 7.88166E-09, -7.87945E-09, 1.0830000000000001E-12, 7.88166E-09, 1.0830000000000001E-12
DataValue, 2, 1, 0, 7.87508E-09, -7.87311E-09, -4.2000000000000004E-14, 7.87508E-09, 4.2000000000000004E-14
DataValue, 2.5, 1, 0, 7.8667E-09, -7.86197E-09, -4.8100000000000007E-13, 7.8667E-09, 4.8100000000000007E-13
DataValue, 3, 1, 0, 7.82961E-09, -7.83069E-09, -6.0200000000000006E-13, 7.82961E-09, 6.0200000000000006E-13
DataValue, 3.5, 1, 0, 7.80834E-09, -7.8025E-09, -2.67E-13, 7.80834E-09, 2.67E-13
DataValue, 4, 1, 0, 7.78092E-09, -7.77238E-09, 6.2600000000000006E-13, 7.78092E-09, 6.2600000000000006E-13
DataValue, 4.5, 1, 0, 7.75821E-09, -7.75302E-09, -4.4900000000000006E-13, 7.75821E-09, 4.4900000000000006E-13
DataValue, 5, 1, 0, 7.73877E-09, -7.73529E-09, -1.2250000000000001E-12, 7.73877E-09, 1.2250000000000001E-12
DataValue, 0, 2, 0, 9.226360000000001E-10, -9.0738600000000008E-10, 7.6400000000000008E-13, 9.226360000000001E-10, 7.6400000000000008E-13
DataValue, 0.5, 2, 0, 3.60208E-07, -3.60068E-07, 3.54E-13, 3.60208E-07, 3.54E-13
DataValue, 1, 2, 0, 4.17607E-07, -4.19064E-07, -1.1400000000000002E-13, 4.17607E-07, 1.1400000000000002E-13
DataValue, 1.5, 2, 0, 4.2678599999999997E-07, -4.27146E-07, 2.5200000000000004E-13, 4.2678599999999997E-07, 2.5200000000000004E-13
DataValue, 2, 2, 0, 4.2877099999999997E-07, -4.2872E-07, -3.5E-14, 4.2877099999999997E-07, 3.5E-14
DataValue, 2.5, 2, 0, 4.28475E-07, -4.2823399999999997E-07, -5.1E-13, 4.28475E-07, 5.1E-13
DataValue, 3, 2, 0, 4.27133E-07, -4.26796E-07, 1.4300000000000002E-13, 4.27133E-07, 1.4300000000000002E-13
DataValue, 3.5, 2, 0, 4.2529199999999997E-07, -4.24988E-07, 2.38E-13, 4.2529199999999997E-07, 2.38E-13
DataValue, 4, 2, 0, 4.23441E-07, -4.2312E-07, -4.7900000000000008E-13, 4.23441E-07, 4.7900000000000008E-13
DataValue, 4.5, 2, 0, 4.21358E-07, -4.20984E-07, -1.1000000000000001E-13, 4.21358E-07, 1.1000000000000001E-13
DataValue, 5, 2, 0, 4.19254E-07, -4.1901699999999997E-07, 1.0580000000000001E-12, 4.19254E-07, 1.0580000000000001E-12
DataValue, 0, 3, 0, 3.3438E-09, -3.22427E-09, 1.6910000000000002E-12, 3.3438E-09, 1.6910000000000002E-12
DataValue, 0.5, 3, 0, 1.7623900000000002E-06, -1.7556100000000003E-06, 8.6300000000000006E-13, 1.7623900000000002E-06, 8.6300000000000006E-13
DataValue, 1, 3, 0, 2.4720800000000003E-06, -2.4760100000000004E-06, 7.06E-13, 2.4720800000000003E-06, 7.06E-13
DataValue, 1.5, 3, 0, 2.7075000000000003E-06, -2.71219E-06, 3.292E-12, 2.7075000000000003E-06, 3.292E-12
DataValue, 2, 3, 0, 2.7683000000000002E-06, -2.7700800000000003E-06, -4.0430000000000004E-12, 2.7683000000000002E-06, 4.0430000000000004E-12
DataValue, 2.5, 3, 0, 2.7817400000000002E-06, -2.78186E-06, 1.822E-12, 2.7817400000000002E-06, 1.822E-12
DataValue, 3, 3, 0, 2.7816100000000005E-06, -2.7804400000000004E-06, -3.209E-12, 2.7816100000000005E-06, 3.209E-12
DataValue, 3.5, 3, 0, 2.7756E-06, -2.77359E-06, -4.6550000000000007E-12, 2.7756E-06, 4.6550000000000007E-12
DataValue, 4, 3, 0, 2.7658800000000004E-06, -2.7636900000000005E-06, 4.0600000000000004E-13, 2.7658800000000004E-06, 4.0600000000000004E-13
DataValue, 4.5, 3, 0, 2.75504E-06, -2.7531100000000002E-06, -4.8080000000000005E-12, 2.75504E-06, 4.8080000000000005E-12
DataValue, 5, 3, 0, 2.7433000000000005E-06, -2.74128E-06, 1.2650000000000002E-12, 2.7433000000000005E-06, 1.2650000000000002E-12
DataValue, 0, 4, 0, 6.78704E-09, -6.22817E-09, 1.629E-12, 6.78704E-09, 1.629E-12
DataValue, 0.5, 4, 0, 4.13068E-06, -4.1182000000000007E-06, 3.159E-12, 4.13068E-06, 3.159E-12
DataValue, 1, 4, 0, 6.4816500000000009E-06, -6.48059E-06, 1.6560000000000002E-12, 6.4816500000000009E-06, 1.6560000000000002E-12
DataValue, 1.5, 4, 0, 7.65541E-06, -7.660240000000001E-06, 1.1830000000000001E-12, 7.65541E-06, 1.1830000000000001E-12
DataValue, 2, 4, 0, 8.1527600000000015E-06, -8.1583300000000016E-06, 2.96E-13, 8.1527600000000015E-06, 2.96E-13
DataValue, 2.5, 4, 0, 8.32282E-06, -8.3258100000000015E-06, -1.87E-13, 8.32282E-06, 1.87E-13
DataValue, 3, 4, 0, 8.36859E-06, -8.36936E-06, 1.7990000000000001E-12, 8.36859E-06, 1.7990000000000001E-12
DataValue, 3.5, 4, 0, 8.37197E-06, -8.3697E-06, -3.3400000000000004E-13, 8.37197E-06, 3.3400000000000004E-13
DataValue, 4, 4, 0, 8.35698E-06, -8.3528300000000011E-06, 9.0700000000000007E-13, 8.35698E-06, 9.0700000000000007E-13
DataValue, 4.5, 4, 0, 8.33257E-06, -8.3277200000000013E-06, 7.72E-13, 8.33257E-06, 7.72E-13
DataValue, 5, 4, 0, 8.3026E-06, -8.29804E-06, 4.67E-13, 8.3026E-06, 4.67E-13
DataValue, 0, 5, 0, 1.1513699999999998E-08, -1.1471399999999999E-08, 6.0980000000000009E-12, 1.1513699999999998E-08, 6.0980000000000009E-12
DataValue, 0.5, 5, 0, 7.0798300000000008E-06, -7.0538700000000008E-06, 3.8300000000000004E-12, 7.0798300000000008E-06, 3.8300000000000004E-12
DataValue, 1, 5, 0, 1.17294E-05, -1.1715E-05, 2.708E-12, 1.17294E-05, 2.708E-12
DataValue, 1.5, 5, 0, 1.46436E-05, -1.4634800000000001E-05, 2.173E-12, 1.46436E-05, 2.173E-12
DataValue, 2, 5, 0, 1.6208300000000002E-05, -1.62057E-05, 2.194E-12, 1.6208300000000002E-05, 2.194E-12
DataValue, 2.5, 5, 0, 1.69775E-05, -1.69767E-05, 1.496E-12, 1.69775E-05, 1.496E-12
DataValue, 3, 5, 0, 1.72845E-05, -1.72808E-05, 1.222E-12, 1.72845E-05, 1.222E-12
DataValue, 3.5, 5, 0, 1.7377900000000002E-05, -1.73699E-05, 1.3550000000000002E-12, 1.7377900000000002E-05, 1.3550000000000002E-12
DataValue, 4, 5, 0, 1.7382500000000002E-05, -1.73731E-05, 1.7390000000000002E-12, 1.7382500000000002E-05, 1.7390000000000002E-12
DataValue, 4.5, 5, 0, 1.7350300000000002E-05, -1.73367E-05, 9.6800000000000012E-13, 1.7350300000000002E-05, 9.6800000000000012E-13
DataValue, 5, 5, 0, 1.72999E-05, -1.72857E-05, 1.41E-12, 1.72999E-05, 1.41E-12