
SetupTitle, Output
PrimitiveTest, I/V Sweep
TestParameter, Context.MainFrame, 4155C
TestParameter, Channel.UnitType, SMU, SMU, SMU
TestParameter, Channel.Unit, SMU1:MP, SMU4:MP, SMU3:MP
TestParameter, Channel.IName, ID, IS, IG
TestParameter, Channel.VName, VD, VS, VG
TestParameter, Channel.Mode, V, COMMON, V
TestParameter, Channel.Func, VAR1, CONST, VAR2
TestParameter, Channel.Index, 
TestParameter, Channel.Time, 
TestParameter, Measurement.Port.Unit, SMU1:MP, SMU4:MP, SMU3:MP
TestParameter, Measurement.Port.SeriesResistor, NONE, NONE, NONE
TestParameter, Measurement.Port.Filter, ON, ON, ON
TestParameter, Measurement.Primary.Locus, Single
TestParameter, Measurement.Primary.Scale, LINEAR
TestParameter, Measurement.Primary.Start, 0
TestParameter, Measurement.Primary.Stop, 5
TestParameter, Measurement.Primary.Step, 0.5
TestParameter, Measurement.Primary.Compliance, 0.1
TestParameter, Measurement.Primary.PowerCompliance, 0
TestParameter, Measurement.Aborting.Condition, CONTINUE AT ANY
TestParameter, Measurement.PostOutput.Value, START
TestParameter, Measurement.PostOutput.Retention, OFF
TestParameter, Measurement.Secondary.Start, -1
TestParameter, Measurement.Secondary.Count, 7
TestParameter, Measurement.Secondary.Step, 1
TestParameter, Measurement.Secondary.Compliance, 0.1
TestParameter, Measurement.Secondary.PowerCompliance, 0
TestParameter, Measurement.Bias.Source, 0, 0, -1
TestParameter, Measurement.Bias.Compliance, 0.1, 0.1, 0.1
TestParameter, Measurement.Monitor.Unit, SMU1:MP, SMU4:MP, SMU3:MP
TestParameter, Measurement.Monitor.Adc, HR ADC, HR ADC, HR ADC
TestParameter, Measurement.Monitor.RangingMode, AUTO, AUTO, AUTO
TestParameter, Measurement.Monitor.RangeBoundary, , , 
TestParameter, Measurement.Monitor.RangeRating, BY FULL RANGE, BY FULL RANGE, BY FULL RANGE
TestParameter, Measurement.Monitor.RangeRatingCoeff, 50, 50, 50
TestParameter, Measurement.Timing.Hold, 0.5
TestParameter, Measurement.Timing.Delay, 0.05
TestParameter, Measurement.Adc.HighResolution.AutoZero, OFF
TestParameter, Measurement.Adc.HighResolution.Mode, AUTO
TestParameter, Measurement.Adc.HighResolution.Coeff, 1
TestParameter, Measurement.Ag16440ASelector.SemiconductorRelay.Channel1, DEFAULT
TestParameter, Measurement.Ag16440ASelector.SemiconductorRelay.Channel3, DEFAULT
TestParameter, Function.User.Name, absID, absIG
TestParameter, Function.User.Unit, A, A
TestParameter, Function.User.Definition, abs(ID), abs(IG)
TestParameter, Output.Graph.Enabled, true
TestParameter, Output.Graph.XAxis.Data, VD
TestParameter, Output.Graph.XAxis.Scale, Linear
TestParameter, Output.Graph.XAxis.Left, 0
TestParameter, Output.Graph.XAxis.Right, 7
TestParameter, Output.Graph.YAxis.Data, ID
TestParameter, Output.Graph.YAxis.Scale, Linear
TestParameter, Output.Graph.YAxis.Bottom, 1E-14
TestParameter, Output.Graph.YAxis.Top, 0.01
TestParameter, Output.Graph.YAxis.Group, 
TestParameter, Output.List.Data, VG, IG, VD, ID, VS, IS, absIG
TestParameter, AutoAnalysis.Interpolation, false
TestParameter, AutoAnalysis.Line1.Enabled, false
TestParameter, AutoAnalysis.Line1.Type, 1
TestParameter, AutoAnalysis.Line1.Fix, True
TestParameter, AutoAnalysis.Line1.YAxis, 0
TestParameter, AutoAnalysis.Line1.Point1.Type, 0
TestParameter, AutoAnalysis.Line1.Point1.XY.X, 
TestParameter, AutoAnalysis.Line1.Point1.XY.Y, 
TestParameter, AutoAnalysis.Line1.Point1.Data.Var, 
TestParameter, AutoAnalysis.Line1.Point1.Data.Condition, 
TestParameter, AutoAnalysis.Line1.Point1.Data.Start, false
TestParameter, AutoAnalysis.Line1.Point1.Data.StartVar, 
TestParameter, AutoAnalysis.Line1.Point1.Data.StartCondition, 
TestParameter, AutoAnalysis.Line1.Point2.Type, 0
TestParameter, AutoAnalysis.Line1.Point2.XY.X, 
TestParameter, AutoAnalysis.Line1.Point2.XY.Y, 
TestParameter, AutoAnalysis.Line1.Point2.Data.Var, 
TestParameter, AutoAnalysis.Line1.Point2.Data.Condition, 
TestParameter, AutoAnalysis.Line1.Point2.Data.Start, false
TestParameter, AutoAnalysis.Line1.Point2.Data.StartVar, 
TestParameter, AutoAnalysis.Line1.Point2.Data.StartCondition, 
TestParameter, AutoAnalysis.Line1.GradientExpr, 0
TestParameter, AutoAnalysis.Line2.Enabled, false
TestParameter, AutoAnalysis.Line2.Type, 1
TestParameter, AutoAnalysis.Line2.Fix, True
TestParameter, AutoAnalysis.Line2.YAxis, 0
TestParameter, AutoAnalysis.Line2.Point1.Type, 0
TestParameter, AutoAnalysis.Line2.Point1.XY.X, 
TestParameter, AutoAnalysis.Line2.Point1.XY.Y, 
TestParameter, AutoAnalysis.Line2.Point1.Data.Var, 
TestParameter, AutoAnalysis.Line2.Point1.Data.Condition, 
TestParameter, AutoAnalysis.Line2.Point1.Data.Start, false
TestParameter, AutoAnalysis.Line2.Point1.Data.StartVar, 
TestParameter, AutoAnalysis.Line2.Point1.Data.StartCondition, 
TestParameter, AutoAnalysis.Line2.Point2.Type, 0
TestParameter, AutoAnalysis.Line2.Point2.XY.X, 
TestParameter, AutoAnalysis.Line2.Point2.XY.Y, 
TestParameter, AutoAnalysis.Line2.Point2.Data.Var, 
TestParameter, AutoAnalysis.Line2.Point2.Data.Condition, 
TestParameter, AutoAnalysis.Line2.Point2.Data.Start, false
TestParameter, AutoAnalysis.Line2.Point2.Data.StartVar, 
TestParameter, AutoAnalysis.Line2.Point2.Data.StartCondition, 
TestParameter, AutoAnalysis.Line2.GradientExpr, 0
TestParameter, AutoAnalysis.Marker.Enabled, false
TestParameter, AutoAnalysis.Marker.Data.Var, 
TestParameter, AutoAnalysis.Marker.Data.Condition, 
TestParameter, AutoAnalysis.Marker.Data.Start, false
TestParameter, AutoAnalysis.Marker.Data.StartVar, 
TestParameter, AutoAnalysis.Marker.Data.StartCondition, 
MetaData, TestRecord.EntryPoint, true
MetaData, TestRecord.RecordTime, 04/23/2019 13:25:34
MetaData, TestRecord.TestTarget, 
MetaData, TestRecord.IterationIndex, 1
MetaData, TestRecord.Preservation, true
MetaData, TestRecord.Flag, 
MetaData, TestRecord.Remarks, 250-300-G31
MetaData, TestRecord.LinkKey, 84ead46e-89e2-47d4-9523-ccfb1d73b974
Dimension1, 11, 11, 11, 11, 11, 11, 11, 11
Dimension2, 7, 7, 7, 7, 7, 7, 7, 7
DataName, VD, VG, VS, ID, IS, IG, absID, absIG
DataValue, 0, -1, 0, 1.0686700000000002E-10, 1.8400000000000002E-12, -9.6388000000000011E-11, 1.0686700000000002E-10, 9.6388000000000011E-11
DataValue, 0.5, -1, 0, 9.1897E-11, -1.5570000000000001E-12, -9.2478000000000009E-11, 9.1897E-11, 9.2478000000000009E-11
DataValue, 1, -1, 0, 9.3739000000000008E-11, -1.46E-12, -9.1373E-11, 9.3739000000000008E-11, 9.1373E-11
DataValue, 1.5, -1, 0, 8.1877E-11, 2.3000000000000003E-13, -8.2584000000000009E-11, 8.1877E-11, 8.2584000000000009E-11
DataValue, 2, -1, 0, 8.2881000000000011E-11, 1.368E-12, -7.9768000000000008E-11, 8.2881000000000011E-11, 7.9768000000000008E-11
DataValue, 2.5, -1, 0, 7.9932E-11, -5.9E-14, -7.7070000000000011E-11, 7.9932E-11, 7.7070000000000011E-11
DataValue, 3, -1, 0, 7.546E-11, -1.4450000000000002E-12, -7.5831000000000007E-11, 7.546E-11, 7.5831000000000007E-11
DataValue, 3.5, -1, 0, 7.6128000000000008E-11, -1.6830000000000002E-12, -7.2925000000000009E-11, 7.6128000000000008E-11, 7.2925000000000009E-11
DataValue, 4, -1, 0, 7.4349000000000011E-11, -2.69E-13, -6.9451000000000012E-11, 7.4349000000000011E-11, 6.9451000000000012E-11
DataValue, 4.5, -1, 0, 7.1772E-11, 4E-13, -7.4357E-11, 7.1772E-11, 7.4357E-11
DataValue, 5, -1, 0, 7.6038000000000012E-11, 3.1200000000000003E-13, -7.0840000000000011E-11, 7.6038000000000012E-11, 7.0840000000000011E-11
DataValue, 0, 0, 0, 2.5909000000000002E-11, -2.4319E-11, 2.67E-13, 2.5909000000000002E-11, 2.67E-13
DataValue, 0.5, 0, 0, 2.38523E-09, -2.37609E-09, -5.7657000000000004E-11, 2.38523E-09, 5.7657000000000004E-11
DataValue, 1, 0, 0, 2.52821E-09, -2.47362E-09, -6.1355E-11, 2.52821E-09, 6.1355E-11
DataValue, 1.5, 0, 0, 2.59884E-09, -2.53962E-09, -6.4947E-11, 2.59884E-09, 6.4947E-11
DataValue, 2, 0, 0, 2.65303E-09, -2.59867E-09, -6.494300000000001E-11, 2.65303E-09, 6.494300000000001E-11
DataValue, 2.5, 0, 0, 2.69978E-09, -2.64257E-09, -5.6555000000000005E-11, 2.69978E-09, 5.6555000000000005E-11
DataValue, 3, 0, 0, 2.73908E-09, -2.6791E-09, -6.2116E-11, 2.73908E-09, 6.2116E-11
DataValue, 3.5, 0, 0, 2.77423E-09, -2.71347E-09, -6.3654E-11, 2.77423E-09, 6.3654E-11
DataValue, 4, 0, 0, 2.80483E-09, -2.74317E-09, -6.0347E-11, 2.80483E-09, 6.0347E-11
DataValue, 4.5, 0, 0, 2.82591E-09, -2.76685E-09, -6.2614E-11, 2.82591E-09, 6.2614E-11
DataValue, 5, 0, 0, 2.84883E-09, -2.78889E-09, -6.3689E-11, 2.84883E-09, 6.3689E-11
DataValue, 0, 1, 0, -5.91076E-09, -3.01192E-08, 3.6325699999999994E-08, 5.91076E-09, 3.6325699999999994E-08
DataValue, 0.5, 1, 0, 4.34526E-07, -4.47107E-07, 1.50133E-08, 4.34526E-07, 1.50133E-08
DataValue, 1, 1, 0, 7.3768099999999995E-07, -7.27859E-07, 6.1243600000000008E-10, 7.3768099999999995E-07, 6.1243600000000008E-10
DataValue, 1.5, 1, 0, 7.48497E-07, -7.4161E-07, -1.9675000000000002E-11, 7.48497E-07, 1.9675000000000002E-11
DataValue, 2, 1, 0, 7.11549E-07, -7.0421E-07, -1.69903E-10, 7.11549E-07, 1.69903E-10
DataValue, 2.5, 1, 0, 6.68256E-07, -6.60184E-07, -1.92898E-10, 6.68256E-07, 1.92898E-10
DataValue, 3, 1, 0, 6.3185799999999994E-07, -6.28622E-07, -1.8695700000000002E-10, 6.3185799999999994E-07, 1.8695700000000002E-10
DataValue, 3.5, 1, 0, 5.99341E-07, -5.96128E-07, -1.7938E-10, 5.99341E-07, 1.7938E-10
DataValue, 4, 1, 0, 5.75978E-07, -5.73282E-07, -1.66161E-10, 5.75978E-07, 1.66161E-10
DataValue, 4.5, 1, 0, 5.52736E-07, -5.5050299999999994E-07, -1.6333300000000002E-10, 5.52736E-07, 1.6333300000000002E-10
DataValue, 5, 1, 0, 5.31571E-07, -5.2765799999999995E-07, -1.44255E-10, 5.31571E-07, 1.44255E-10
DataValue, 0, 2, 0, -1.7563399999999998E-08, -2.74571E-07, 2.8758899999999997E-07, 1.7563399999999998E-08, 2.8758899999999997E-07
DataValue, 0.5, 2, 0, 9.78313E-07, -1.23573E-06, 2.46866E-07, 9.78313E-07, 2.46866E-07
DataValue, 1, 2, 0, 2.3704500000000003E-06, -2.5002200000000003E-06, 1.47154E-07, 2.3704500000000003E-06, 1.47154E-07
DataValue, 1.5, 2, 0, 3.1508800000000005E-06, -3.17907E-06, 5.7772699999999994E-08, 3.1508800000000005E-06, 5.7772699999999994E-08
DataValue, 2, 2, 0, 3.4066600000000005E-06, -3.37705E-06, 9.9348999999999989E-09, 3.4066600000000005E-06, 9.9348999999999989E-09
DataValue, 2.5, 2, 0, 3.4256900000000002E-06, -3.3908200000000003E-06, 1.9688000000000002E-10, 3.4256900000000002E-06, 1.9688000000000002E-10
DataValue, 3, 2, 0, 3.2388400000000005E-06, -3.20581E-06, -8.7625000000000008E-11, 3.2388400000000005E-06, 8.7625000000000008E-11
DataValue, 3.5, 2, 0, 3.0975100000000003E-06, -3.0685900000000003E-06, -3.88327E-10, 3.0975100000000003E-06, 3.88327E-10
DataValue, 4, 2, 0, 2.9631400000000003E-06, -2.94316E-06, -4.37165E-10, 2.9631400000000003E-06, 4.37165E-10
DataValue, 4.5, 2, 0, 2.8350000000000004E-06, -2.82212E-06, -4.3867700000000006E-10, 2.8350000000000004E-06, 4.3867700000000006E-10
DataValue, 5, 2, 0, 2.7323700000000003E-06, -2.7054100000000002E-06, -4.21448E-10, 2.7323700000000003E-06, 4.21448E-10
DataValue, 0, 3, 0, -2.80736E-08, -8.35251E-07, 8.59501E-07, 2.80736E-08, 8.59501E-07
DataValue, 0.5, 3, 0, 1.6006100000000003E-06, -2.47068E-06, 8.32939E-07, 1.6006100000000003E-06, 8.32939E-07
DataValue, 1, 3, 0, 4.7207E-06, -5.47567E-06, 7.38293E-07, 4.7207E-06, 7.38293E-07
DataValue, 1.5, 3, 0, 8.025980000000001E-06, -8.5963800000000015E-06, 5.91355E-07, 8.025980000000001E-06, 5.91355E-07
DataValue, 2, 3, 0, 1.0554800000000001E-05, -1.0910040000000002E-05, 4.04489E-07, 1.0554800000000001E-05, 4.04489E-07
DataValue, 2.5, 3, 0, 1.20339E-05, -1.2064500000000001E-05, 2.38541E-07, 1.20339E-05, 2.38541E-07
DataValue, 3, 3, 0, 1.26582E-05, -1.26558E-05, 1.1661699999999999E-07, 1.26582E-05, 1.1661699999999999E-07
DataValue, 3.5, 3, 0, 1.2847800000000001E-05, -1.27924E-05, 3.4539499999999996E-08, 1.2847800000000001E-05, 3.4539499999999996E-08
DataValue, 4, 3, 0, 1.2870200000000001E-05, -1.27725E-05, 3.28355E-09, 1.2870200000000001E-05, 3.28355E-09
DataValue, 4.5, 3, 0, 1.25378E-05, -1.2471E-05, -1.5154000000000003E-11, 1.25378E-05, 1.5154000000000003E-11
DataValue, 5, 3, 0, 1.2045900000000001E-05, -1.1967900000000001E-05, -1.0211670000000002E-09, 1.2045900000000001E-05, 1.0211670000000002E-09
DataValue, 0, 4, 0, -4.7927299999999993E-08, -1.8591900000000003E-06, 1.8994100000000003E-06, 4.7927299999999993E-08, 1.8994100000000003E-06
DataValue, 0.5, 4, 0, 2.2752200000000004E-06, -4.1762100000000006E-06, 1.8734500000000003E-06, 2.2752200000000004E-06, 1.8734500000000003E-06
DataValue, 1, 4, 0, 7.0556600000000006E-06, -8.8907300000000015E-06, 1.76738E-06, 7.0556600000000006E-06, 1.76738E-06
DataValue, 1.5, 4, 0, 1.2838600000000001E-05, -1.4583100000000001E-05, 1.6274700000000001E-06, 1.2838600000000001E-05, 1.6274700000000001E-06
DataValue, 2, 4, 0, 1.83862E-05, -1.99283E-05, 1.4522800000000001E-06, 1.83862E-05, 1.4522800000000001E-06
DataValue, 2.5, 4, 0, 2.37031E-05, -2.4934100000000002E-05, 1.2565100000000002E-06, 2.37031E-05, 1.2565100000000002E-06
DataValue, 3, 4, 0, 2.80486E-05, -2.90415E-05, 1.07835E-06, 2.80486E-05, 1.07835E-06
DataValue, 3.5, 4, 0, 3.29608E-05, -3.3816600000000004E-05, 8.68656E-07, 3.29608E-05, 8.68656E-07
DataValue, 4, 4, 0, 3.44787E-05, -3.5031300000000005E-05, 6.22068E-07, 3.44787E-05, 6.22068E-07
DataValue, 4.5, 4, 0, 3.63758E-05, -3.6999500000000004E-05, 4.4914999999999997E-07, 3.63758E-05, 4.4914999999999997E-07
DataValue, 5, 4, 0, 3.91307E-05, -3.9150700000000004E-05, 2.7057E-07, 3.91307E-05, 2.7057E-07
DataValue, 0, 5, 0, -7.88628E-08, -3.2878900000000005E-06, 3.3503900000000003E-06, 7.88628E-08, 3.3503900000000003E-06
DataValue, 0.5, 5, 0, 3.0619500000000004E-06, -6.3911500000000006E-06, 3.2958900000000002E-06, 3.0619500000000004E-06, 3.2958900000000002E-06
DataValue, 1, 5, 0, 9.6010000000000018E-06, -1.28484E-05, 3.1348700000000003E-06, 9.6010000000000018E-06, 3.1348700000000003E-06
DataValue, 1.5, 5, 0, 1.76589E-05, -2.07318E-05, 2.9694300000000003E-06, 1.76589E-05, 2.9694300000000003E-06
DataValue, 2, 5, 0, 2.5874900000000002E-05, -2.8665400000000002E-05, 2.7792100000000003E-06, 2.5874900000000002E-05, 2.7792100000000003E-06
DataValue, 2.5, 5, 0, 3.40911E-05, -3.6893E-05, 2.5899300000000004E-06, 3.40911E-05, 2.5899300000000004E-06
DataValue, 3, 5, 0, 4.23589E-05, -4.45688E-05, 2.3684400000000003E-06, 4.23589E-05, 2.3684400000000003E-06
DataValue, 3.5, 5, 0, 4.94657E-05, -5.1277100000000004E-05, 2.1785300000000004E-06, 4.94657E-05, 2.1785300000000004E-06
DataValue, 4, 5, 0, 5.37426E-05, -5.55594E-05, 1.9478000000000002E-06, 5.37426E-05, 1.9478000000000002E-06
DataValue, 4.5, 5, 0, 5.89769E-05, -6.0254800000000005E-05, 1.7352800000000002E-06, 5.89769E-05, 1.7352800000000002E-06
DataValue, 5, 5, 0, 6.3309500000000008E-05, -6.48904E-05, 1.4301500000000002E-06, 6.3309500000000008E-05, 1.4301500000000002E-06