
SetupTitle, Output
PrimitiveTest, I/V Sweep
TestParameter, Context.MainFrame, 4155C
TestParameter, Channel.UnitType, SMU, SMU, SMU
TestParameter, Channel.Unit, SMU1:MP, SMU4:MP, SMU3:MP
TestParameter, Channel.IName, ID, IS, IG
TestParameter, Channel.VName, VD, VS, VG
TestParameter, Channel.Mode, V, COMMON, V
TestParameter, Channel.Func, VAR1, CONST, VAR2
TestParameter, Channel.Index, 
TestParameter, Channel.Time, 
TestParameter, Measurement.Port.Unit, SMU1:MP, SMU4:MP, SMU3:MP
TestParameter, Measurement.Port.SeriesResistor, NONE, NONE, NONE
TestParameter, Measurement.Port.Filter, ON, ON, ON
TestParameter, Measurement.Primary.Locus, Single
TestParameter, Measurement.Primary.Scale, LINEAR
TestParameter, Measurement.Primary.Start, 0
TestParameter, Measurement.Primary.Stop, 5
TestParameter, Measurement.Primary.Step, 0.5
TestParameter, Measurement.Primary.Compliance, 0.1
TestParameter, Measurement.Primary.PowerCompliance, 0
TestParameter, Measurement.Aborting.Condition, CONTINUE AT ANY
TestParameter, Measurement.PostOutput.Value, START
TestParameter, Measurement.PostOutput.Retention, OFF
TestParameter, Measurement.Secondary.Start, -1
TestParameter, Measurement.Secondary.Count, 7
TestParameter, Measurement.Secondary.Step, 1
TestParameter, Measurement.Secondary.Compliance, 0.1
TestParameter, Measurement.Secondary.PowerCompliance, 0
TestParameter, Measurement.Bias.Source, 0, 0, -1
TestParameter, Measurement.Bias.Compliance, 0.1, 0.1, 0.1
TestParameter, Measurement.Monitor.Unit, SMU1:MP, SMU4:MP, SMU3:MP
TestParameter, Measurement.Monitor.Adc, HR ADC, HR ADC, HR ADC
TestParameter, Measurement.Monitor.RangingMode, AUTO, AUTO, AUTO
TestParameter, Measurement.Monitor.RangeBoundary, , , 
TestParameter, Measurement.Monitor.RangeRating, BY FULL RANGE, BY FULL RANGE, BY FULL RANGE
TestParameter, Measurement.Monitor.RangeRatingCoeff, 50, 50, 50
TestParameter, Measurement.Timing.Hold, 0.5
TestParameter, Measurement.Timing.Delay, 0.05
TestParameter, Measurement.Adc.HighResolution.AutoZero, OFF
TestParameter, Measurement.Adc.HighResolution.Mode, AUTO
TestParameter, Measurement.Adc.HighResolution.Coeff, 1
TestParameter, Measurement.Ag16440ASelector.SemiconductorRelay.Channel1, DEFAULT
TestParameter, Measurement.Ag16440ASelector.SemiconductorRelay.Channel3, DEFAULT
TestParameter, Function.User.Name, absID, absIG
TestParameter, Function.User.Unit, A, A
TestParameter, Function.User.Definition, abs(ID), abs(IG)
TestParameter, Output.Graph.Enabled, true
TestParameter, Output.Graph.XAxis.Data, VD
TestParameter, Output.Graph.XAxis.Scale, Linear
TestParameter, Output.Graph.XAxis.Left, 0
TestParameter, Output.Graph.XAxis.Right, 7
TestParameter, Output.Graph.YAxis.Data, ID
TestParameter, Output.Graph.YAxis.Scale, Linear
TestParameter, Output.Graph.YAxis.Bottom, 1E-14
TestParameter, Output.Graph.YAxis.Top, 0.01
TestParameter, Output.Graph.YAxis.Group, 
TestParameter, Output.List.Data, VG, IG, VD, ID, VS, IS, absIG
TestParameter, AutoAnalysis.Interpolation, false
TestParameter, AutoAnalysis.Line1.Enabled, false
TestParameter, AutoAnalysis.Line1.Type, 1
TestParameter, AutoAnalysis.Line1.Fix, True
TestParameter, AutoAnalysis.Line1.YAxis, 0
TestParameter, AutoAnalysis.Line1.Point1.Type, 0
TestParameter, AutoAnalysis.Line1.Point1.XY.X, 
TestParameter, AutoAnalysis.Line1.Point1.XY.Y, 
TestParameter, AutoAnalysis.Line1.Point1.Data.Var, 
TestParameter, AutoAnalysis.Line1.Point1.Data.Condition, 
TestParameter, AutoAnalysis.Line1.Point1.Data.Start, false
TestParameter, AutoAnalysis.Line1.Point1.Data.StartVar, 
TestParameter, AutoAnalysis.Line1.Point1.Data.StartCondition, 
TestParameter, AutoAnalysis.Line1.Point2.Type, 0
TestParameter, AutoAnalysis.Line1.Point2.XY.X, 
TestParameter, AutoAnalysis.Line1.Point2.XY.Y, 
TestParameter, AutoAnalysis.Line1.Point2.Data.Var, 
TestParameter, AutoAnalysis.Line1.Point2.Data.Condition, 
TestParameter, AutoAnalysis.Line1.Point2.Data.Start, false
TestParameter, AutoAnalysis.Line1.Point2.Data.StartVar, 
TestParameter, AutoAnalysis.Line1.Point2.Data.StartCondition, 
TestParameter, AutoAnalysis.Line1.GradientExpr, 0
TestParameter, AutoAnalysis.Line2.Enabled, false
TestParameter, AutoAnalysis.Line2.Type, 1
TestParameter, AutoAnalysis.Line2.Fix, True
TestParameter, AutoAnalysis.Line2.YAxis, 0
TestParameter, AutoAnalysis.Line2.Point1.Type, 0
TestParameter, AutoAnalysis.Line2.Point1.XY.X, 
TestParameter, AutoAnalysis.Line2.Point1.XY.Y, 
TestParameter, AutoAnalysis.Line2.Point1.Data.Var, 
TestParameter, AutoAnalysis.Line2.Point1.Data.Condition, 
TestParameter, AutoAnalysis.Line2.Point1.Data.Start, false
TestParameter, AutoAnalysis.Line2.Point1.Data.StartVar, 
TestParameter, AutoAnalysis.Line2.Point1.Data.StartCondition, 
TestParameter, AutoAnalysis.Line2.Point2.Type, 0
TestParameter, AutoAnalysis.Line2.Point2.XY.X, 
TestParameter, AutoAnalysis.Line2.Point2.XY.Y, 
TestParameter, AutoAnalysis.Line2.Point2.Data.Var, 
TestParameter, AutoAnalysis.Line2.Point2.Data.Condition, 
TestParameter, AutoAnalysis.Line2.Point2.Data.Start, false
TestParameter, AutoAnalysis.Line2.Point2.Data.StartVar, 
TestParameter, AutoAnalysis.Line2.Point2.Data.StartCondition, 
TestParameter, AutoAnalysis.Line2.GradientExpr, 0
TestParameter, AutoAnalysis.Marker.Enabled, false
TestParameter, AutoAnalysis.Marker.Data.Var, 
TestParameter, AutoAnalysis.Marker.Data.Condition, 
TestParameter, AutoAnalysis.Marker.Data.Start, false
TestParameter, AutoAnalysis.Marker.Data.StartVar, 
TestParameter, AutoAnalysis.Marker.Data.StartCondition, 
MetaData, TestRecord.EntryPoint, true
MetaData, TestRecord.RecordTime, 04/24/2019 16:17:55
MetaData, TestRecord.TestTarget, 31
MetaData, TestRecord.IterationIndex, 1
MetaData, TestRecord.Preservation, true
MetaData, TestRecord.Flag, 
MetaData, TestRecord.Remarks, 350-180-G31
MetaData, TestRecord.LinkKey, 304e7a92-0201-4feb-8847-b42253d71108
Dimension1, 11, 11, 11, 11, 11, 11, 11, 11
Dimension2, 7, 7, 7, 7, 7, 7, 7, 7
DataName, VD, VG, VS, ID, IS, IG, absID, absIG
DataValue, 0, -1, 0, 9.76E-13, -2.015E-12, -9.78E-13, 9.76E-13, 9.78E-13
DataValue, 0.5, -1, 0, 1.5680000000000002E-12, 1.088E-12, -1.191E-12, 1.5680000000000002E-12, 1.191E-12
DataValue, 1, -1, 0, 1.0870000000000001E-12, -1.7510000000000001E-12, -1.3650000000000001E-12, 1.0870000000000001E-12, 1.3650000000000001E-12
DataValue, 1.5, -1, 0, 2.67E-12, -7.05E-13, -4.068E-12, 2.67E-12, 4.068E-12
DataValue, 2, -1, 0, 4.627E-12, -5.7900000000000006E-13, -4.08E-12, 4.627E-12, 4.08E-12
DataValue, 2.5, -1, 0, 8.362E-12, 1.827E-12, -9.7040000000000015E-12, 8.362E-12, 9.7040000000000015E-12
DataValue, 3, -1, 0, 1.2387E-11, 7.99E-13, -1.3512000000000001E-11, 1.2387E-11, 1.3512000000000001E-11
DataValue, 3.5, -1, 0, 1.775E-11, -2.185E-12, -1.8025E-11, 1.775E-11, 1.8025E-11
DataValue, 4, -1, 0, 4.0982E-11, 3.0610000000000004E-12, -9.267E-12, 4.0982E-11, 9.267E-12
DataValue, 4.5, -1, 0, 1.2930000000000001E-11, -9.15E-13, -1.0929E-11, 1.2930000000000001E-11, 1.0929E-11
DataValue, 5, -1, 0, 1.4619E-11, -2.218E-12, -1.5149000000000002E-11, 1.4619E-11, 1.5149000000000002E-11
DataValue, 0, 0, 0, 1.4234000000000001E-11, -1.5183000000000003E-11, 8.6100000000000007E-13, 1.4234000000000001E-11, 8.6100000000000007E-13
DataValue, 0.5, 0, 0, 7.57066E-10, -7.7374600000000011E-10, 8.7000000000000008E-14, 7.57066E-10, 8.7000000000000008E-14
DataValue, 1, 0, 0, 8.26877E-10, -8.30096E-10, -6.1800000000000009E-13, 8.26877E-10, 6.1800000000000009E-13
DataValue, 1.5, 0, 0, 8.76214E-10, -8.8268100000000011E-10, -5E-13, 8.76214E-10, 5E-13
DataValue, 2, 0, 0, 9.2573500000000011E-10, -9.32162E-10, -1.554E-12, 9.2573500000000011E-10, 1.554E-12
DataValue, 2.5, 0, 0, 9.73231E-10, -9.7983600000000017E-10, -2.574E-12, 9.73231E-10, 2.574E-12
DataValue, 3, 0, 0, 1.0141E-09, -1.014371E-09, -5.3550000000000005E-12, 1.0141E-09, 5.3550000000000005E-12
DataValue, 3.5, 0, 0, 1.04842E-09, -1.0417E-09, -1.0293E-11, 1.04842E-09, 1.0293E-11
DataValue, 4, 0, 0, 1.08396E-09, -1.0632E-09, -1.7501E-11, 1.08396E-09, 1.7501E-11
DataValue, 4.5, 0, 0, 1.10582E-09, -1.08092E-09, -1.1674E-11, 1.10582E-09, 1.1674E-11
DataValue, 5, 0, 0, 1.12141E-09, -1.11246E-09, -1.4193000000000001E-11, 1.12141E-09, 1.4193000000000001E-11
DataValue, 0, 1, 0, 2.28323E-09, -2.30268E-09, 1.498E-12, 2.28323E-09, 1.498E-12
DataValue, 0.5, 1, 0, 4.19934E-07, -3.79114E-07, 8.66E-13, 4.19934E-07, 8.66E-13
DataValue, 1, 1, 0, 3.45813E-07, -3.42763E-07, -6.0000000000000007E-13, 3.45813E-07, 6.0000000000000007E-13
DataValue, 1.5, 1, 0, 3.19844E-07, -3.17255E-07, -9.51E-13, 3.19844E-07, 9.51E-13
DataValue, 2, 1, 0, 2.9900799999999997E-07, -2.9622E-07, -1.126E-12, 2.9900799999999997E-07, 1.126E-12
DataValue, 2.5, 1, 0, 2.82108E-07, -2.79169E-07, -4.0640000000000005E-12, 2.82108E-07, 4.0640000000000005E-12
DataValue, 3, 1, 0, 2.68255E-07, -2.66529E-07, -2.289E-12, 2.68255E-07, 2.289E-12
DataValue, 3.5, 1, 0, 2.57606E-07, -2.56658E-07, -3.389E-12, 2.57606E-07, 3.389E-12
DataValue, 4, 1, 0, 2.47173E-07, -2.46609E-07, -5.6230000000000006E-12, 2.47173E-07, 5.6230000000000006E-12
DataValue, 4.5, 1, 0, 2.39825E-07, -2.39107E-07, -1.3651000000000002E-11, 2.39825E-07, 1.3651000000000002E-11
DataValue, 5, 1, 0, 2.3325799999999998E-07, -2.31752E-07, -2.7994000000000004E-11, 2.3325799999999998E-07, 2.7994000000000004E-11
DataValue, 0, 2, 0, 1.4542199999999998E-08, -1.43876E-08, 2.3380000000000003E-12, 1.4542199999999998E-08, 2.3380000000000003E-12
DataValue, 0.5, 2, 0, 5.9526500000000005E-06, -5.5992300000000009E-06, 7.5700000000000011E-13, 5.9526500000000005E-06, 7.5700000000000011E-13
DataValue, 1, 2, 0, 5.87949E-06, -5.7879800000000006E-06, -1.024E-12, 5.87949E-06, 1.024E-12
DataValue, 1.5, 2, 0, 5.29958E-06, -5.26008E-06, 4.4200000000000004E-13, 5.29958E-06, 4.4200000000000004E-13
DataValue, 2, 2, 0, 4.9479500000000006E-06, -4.92185E-06, -6.2000000000000008E-13, 4.9479500000000006E-06, 6.2000000000000008E-13
DataValue, 2.5, 2, 0, 4.75512E-06, -4.7349700000000008E-06, -9.61E-13, 4.75512E-06, 9.61E-13
DataValue, 3, 2, 0, 4.6051900000000005E-06, -4.5854700000000008E-06, -1.6110000000000001E-12, 4.6051900000000005E-06, 1.6110000000000001E-12
DataValue, 3.5, 2, 0, 4.46405E-06, -4.4494700000000008E-06, -2.603E-12, 4.46405E-06, 2.603E-12
DataValue, 4, 2, 0, 4.3603400000000007E-06, -4.34441E-06, -4.5530000000000005E-12, 4.3603400000000007E-06, 4.5530000000000005E-12
DataValue, 4.5, 2, 0, 4.2514000000000005E-06, -4.2434100000000006E-06, -4.3190000000000005E-12, 4.2514000000000005E-06, 4.3190000000000005E-12
DataValue, 5, 2, 0, 4.16239E-06, -4.15418E-06, -1.1642E-11, 4.16239E-06, 1.1642E-11
DataValue, 0, 3, 0, 3.3175099999999996E-08, -3.3115499999999996E-08, 2.4120000000000002E-12, 3.3175099999999996E-08, 2.4120000000000002E-12
DataValue, 0.5, 3, 0, 1.7385600000000002E-05, -1.73005E-05, -5.82E-13, 1.7385600000000002E-05, 5.82E-13
DataValue, 1, 3, 0, 2.83667E-05, -2.81871E-05, 6.9100000000000008E-13, 2.83667E-05, 6.9100000000000008E-13
DataValue, 1.5, 3, 0, 3.23437E-05, -3.1968500000000004E-05, -1.7430000000000002E-12, 3.23437E-05, 1.7430000000000002E-12
DataValue, 2, 3, 0, 3.14065E-05, -3.11317E-05, -4.9000000000000006E-14, 3.14065E-05, 4.9000000000000006E-14
DataValue, 2.5, 3, 0, 2.96649E-05, -2.9503000000000002E-05, 6.6000000000000009E-14, 2.96649E-05, 6.6000000000000009E-14
DataValue, 3, 3, 0, 2.83401E-05, -2.8220500000000002E-05, -4.13E-13, 2.83401E-05, 4.13E-13
DataValue, 3.5, 3, 0, 2.7644200000000002E-05, -2.7560800000000002E-05, -7.4400000000000006E-13, 2.7644200000000002E-05, 7.4400000000000006E-13
DataValue, 4, 3, 0, 2.7024E-05, -2.69374E-05, -2.6600000000000003E-13, 2.7024E-05, 2.6600000000000003E-13
DataValue, 4.5, 3, 0, 2.6486700000000002E-05, -2.6404E-05, -5.57E-13, 2.6486700000000002E-05, 5.57E-13
DataValue, 5, 3, 0, 2.59854E-05, -2.59217E-05, -2.26E-12, 2.59854E-05, 2.26E-12
DataValue, 0, 4, 0, 5.1373899999999995E-08, -5.1152599999999993E-08, 2.611E-12, 5.1373899999999995E-08, 2.611E-12
DataValue, 0.5, 4, 0, 2.86033E-05, -2.85584E-05, 1.5300000000000001E-12, 2.86033E-05, 1.5300000000000001E-12
DataValue, 1, 4, 0, 5.08764E-05, -5.08234E-05, 6.4E-14, 5.08764E-05, 6.4E-14
DataValue, 1.5, 4, 0, 6.7342000000000007E-05, -6.72351E-05, 5.69E-13, 6.7342000000000007E-05, 5.69E-13
DataValue, 2, 4, 0, 7.8261300000000009E-05, -7.80514E-05, 1.047E-12, 7.8261300000000009E-05, 1.047E-12
DataValue, 2.5, 4, 0, 8.3724500000000008E-05, -8.33957E-05, -5.6E-14, 8.3724500000000008E-05, 5.6E-14
DataValue, 3, 4, 0, 8.4437E-05, -8.39238E-05, -6.7500000000000005E-13, 8.4437E-05, 6.7500000000000005E-13
DataValue, 3.5, 4, 0, 8.3333E-05, -8.2854E-05, -2.0620000000000003E-12, 8.3333E-05, 2.0620000000000003E-12
DataValue, 4, 4, 0, 8.15658E-05, -8.12662E-05, -1.5830000000000002E-12, 8.15658E-05, 1.5830000000000002E-12
DataValue, 4.5, 4, 0, 7.9963600000000008E-05, -7.97012E-05, -7.55E-13, 7.9963600000000008E-05, 7.55E-13
DataValue, 5, 4, 0, 7.83585E-05, -7.81327E-05, -1.8450000000000003E-12, 7.83585E-05, 1.8450000000000003E-12
DataValue, 0, 5, 0, 6.889219999999999E-08, -6.8566699999999992E-08, 4.1320000000000006E-12, 6.889219999999999E-08, 4.1320000000000006E-12
DataValue, 0.5, 5, 0, 3.94643E-05, -3.9419600000000005E-05, 4.665E-12, 3.94643E-05, 4.665E-12
DataValue, 1, 5, 0, 7.2364500000000008E-05, -7.2318200000000008E-05, 1.1480000000000002E-12, 7.2364500000000008E-05, 1.1480000000000002E-12
DataValue, 1.5, 5, 0, 9.91077E-05, -9.90437E-05, 1.6990000000000001E-12, 9.91077E-05, 1.6990000000000001E-12
DataValue, 2, 5, 0, 0.000120111, -0.00011995500000000001, 1.5320000000000001E-12, 0.000120111, 1.5320000000000001E-12
DataValue, 2.5, 5, 0, 0.00013631800000000002, -0.00013618700000000002, 1.285E-12, 0.00013631800000000002, 1.285E-12
DataValue, 3, 5, 0, 0.00014736800000000002, -0.000147174, -3.38E-13, 0.00014736800000000002, 3.38E-13
DataValue, 3.5, 5, 0, 0.000154355, -0.000154122, -2.644E-12, 0.000154355, 2.644E-12
DataValue, 4, 5, 0, 0.000158953, -0.00015867800000000002, -2.4100000000000003E-13, 0.000158953, 2.4100000000000003E-13
DataValue, 4.5, 5, 0, 0.000160859, -0.000160552, 9.6800000000000012E-13, 0.000160859, 9.6800000000000012E-13
DataValue, 5, 5, 0, 0.000160883, -0.00016056700000000002, -1.086E-12, 0.000160883, 1.086E-12