
SetupTitle, Output
PrimitiveTest, I/V Sweep
TestParameter, Context.MainFrame, 4155C
TestParameter, Channel.UnitType, SMU, SMU, SMU
TestParameter, Channel.Unit, SMU3:MP, SMU4:MP, SMU1:MP
TestParameter, Channel.IName, ID, IS, IG
TestParameter, Channel.VName, VD, VS, VG
TestParameter, Channel.Mode, V, COMMON, V
TestParameter, Channel.Func, VAR1, CONST, VAR2
TestParameter, Channel.Index, 
TestParameter, Channel.Time, 
TestParameter, Measurement.Port.Unit, SMU3:MP, SMU4:MP, SMU1:MP
TestParameter, Measurement.Port.SeriesResistor, NONE, NONE, NONE
TestParameter, Measurement.Port.Filter, ON, ON, ON
TestParameter, Measurement.Primary.Locus, Single
TestParameter, Measurement.Primary.Scale, LINEAR
TestParameter, Measurement.Primary.Start, 0
TestParameter, Measurement.Primary.Stop, 5
TestParameter, Measurement.Primary.Step, 0.5
TestParameter, Measurement.Primary.Compliance, 0.1
TestParameter, Measurement.Primary.PowerCompliance, 0
TestParameter, Measurement.Aborting.Condition, CONTINUE AT ANY
TestParameter, Measurement.PostOutput.Value, START
TestParameter, Measurement.PostOutput.Retention, OFF
TestParameter, Measurement.Secondary.Start, -1
TestParameter, Measurement.Secondary.Count, 7
TestParameter, Measurement.Secondary.Step, 1
TestParameter, Measurement.Secondary.Compliance, 0.1
TestParameter, Measurement.Secondary.PowerCompliance, 0
TestParameter, Measurement.Bias.Source, 0, 0, -1
TestParameter, Measurement.Bias.Compliance, 0.1, 0.1, 0.1
TestParameter, Measurement.Monitor.Unit, SMU3:MP, SMU4:MP, SMU1:MP
TestParameter, Measurement.Monitor.Adc, HR ADC, HR ADC, HR ADC
TestParameter, Measurement.Monitor.RangingMode, AUTO, AUTO, AUTO
TestParameter, Measurement.Monitor.RangeBoundary, , , 
TestParameter, Measurement.Monitor.RangeRating, BY FULL RANGE, BY FULL RANGE, BY FULL RANGE
TestParameter, Measurement.Monitor.RangeRatingCoeff, 50, 50, 50
TestParameter, Measurement.Timing.Hold, 0.5
TestParameter, Measurement.Timing.Delay, 0.05
TestParameter, Measurement.Adc.HighResolution.AutoZero, OFF
TestParameter, Measurement.Adc.HighResolution.Mode, AUTO
TestParameter, Measurement.Adc.HighResolution.Coeff, 1
TestParameter, Measurement.Ag16440ASelector.SemiconductorRelay.Channel1, DEFAULT
TestParameter, Measurement.Ag16440ASelector.SemiconductorRelay.Channel3, DEFAULT
TestParameter, Function.User.Name, absID, absIG
TestParameter, Function.User.Unit, A, A
TestParameter, Function.User.Definition, abs(ID), abs(IG)
TestParameter, Output.Graph.Enabled, true
TestParameter, Output.Graph.XAxis.Data, VD
TestParameter, Output.Graph.XAxis.Scale, Linear
TestParameter, Output.Graph.XAxis.Left, 0
TestParameter, Output.Graph.XAxis.Right, 7
TestParameter, Output.Graph.YAxis.Data, ID
TestParameter, Output.Graph.YAxis.Scale, Linear
TestParameter, Output.Graph.YAxis.Bottom, 1E-14
TestParameter, Output.Graph.YAxis.Top, 0.01
TestParameter, Output.Graph.YAxis.Group, 
TestParameter, Output.List.Data, VG, IG, VD, ID, VS, IS, absIG
TestParameter, AutoAnalysis.Interpolation, false
TestParameter, AutoAnalysis.Line1.Enabled, false
TestParameter, AutoAnalysis.Line1.Type, 1
TestParameter, AutoAnalysis.Line1.Fix, True
TestParameter, AutoAnalysis.Line1.YAxis, 0
TestParameter, AutoAnalysis.Line1.Point1.Type, 0
TestParameter, AutoAnalysis.Line1.Point1.XY.X, 
TestParameter, AutoAnalysis.Line1.Point1.XY.Y, 
TestParameter, AutoAnalysis.Line1.Point1.Data.Var, 
TestParameter, AutoAnalysis.Line1.Point1.Data.Condition, 
TestParameter, AutoAnalysis.Line1.Point1.Data.Start, false
TestParameter, AutoAnalysis.Line1.Point1.Data.StartVar, 
TestParameter, AutoAnalysis.Line1.Point1.Data.StartCondition, 
TestParameter, AutoAnalysis.Line1.Point2.Type, 0
TestParameter, AutoAnalysis.Line1.Point2.XY.X, 
TestParameter, AutoAnalysis.Line1.Point2.XY.Y, 
TestParameter, AutoAnalysis.Line1.Point2.Data.Var, 
TestParameter, AutoAnalysis.Line1.Point2.Data.Condition, 
TestParameter, AutoAnalysis.Line1.Point2.Data.Start, false
TestParameter, AutoAnalysis.Line1.Point2.Data.StartVar, 
TestParameter, AutoAnalysis.Line1.Point2.Data.StartCondition, 
TestParameter, AutoAnalysis.Line1.GradientExpr, 0
TestParameter, AutoAnalysis.Line2.Enabled, false
TestParameter, AutoAnalysis.Line2.Type, 1
TestParameter, AutoAnalysis.Line2.Fix, True
TestParameter, AutoAnalysis.Line2.YAxis, 0
TestParameter, AutoAnalysis.Line2.Point1.Type, 0
TestParameter, AutoAnalysis.Line2.Point1.XY.X, 
TestParameter, AutoAnalysis.Line2.Point1.XY.Y, 
TestParameter, AutoAnalysis.Line2.Point1.Data.Var, 
TestParameter, AutoAnalysis.Line2.Point1.Data.Condition, 
TestParameter, AutoAnalysis.Line2.Point1.Data.Start, false
TestParameter, AutoAnalysis.Line2.Point1.Data.StartVar, 
TestParameter, AutoAnalysis.Line2.Point1.Data.StartCondition, 
TestParameter, AutoAnalysis.Line2.Point2.Type, 0
TestParameter, AutoAnalysis.Line2.Point2.XY.X, 
TestParameter, AutoAnalysis.Line2.Point2.XY.Y, 
TestParameter, AutoAnalysis.Line2.Point2.Data.Var, 
TestParameter, AutoAnalysis.Line2.Point2.Data.Condition, 
TestParameter, AutoAnalysis.Line2.Point2.Data.Start, false
TestParameter, AutoAnalysis.Line2.Point2.Data.StartVar, 
TestParameter, AutoAnalysis.Line2.Point2.Data.StartCondition, 
TestParameter, AutoAnalysis.Line2.GradientExpr, 0
TestParameter, AutoAnalysis.Marker.Enabled, false
TestParameter, AutoAnalysis.Marker.Data.Var, 
TestParameter, AutoAnalysis.Marker.Data.Condition, 
TestParameter, AutoAnalysis.Marker.Data.Start, false
TestParameter, AutoAnalysis.Marker.Data.StartVar, 
TestParameter, AutoAnalysis.Marker.Data.StartCondition, 
MetaData, TestRecord.EntryPoint, true
MetaData, TestRecord.RecordTime, 06/18/2019 15:58:09
MetaData, TestRecord.TestTarget, 11-13
MetaData, TestRecord.IterationIndex, 1
MetaData, TestRecord.Preservation, true
MetaData, TestRecord.Flag, 
MetaData, TestRecord.Remarks, good
MetaData, TestRecord.LinkKey, 66e98492-db64-4007-9b6e-fcbfac3e747d
Dimension1, 11, 11, 11, 11, 11, 11, 11, 11
Dimension2, 7, 7, 7, 7, 7, 7, 7, 7
DataName, VD, VG, VS, ID, IS, IG, absID, absIG
DataValue, 0, -1, 0, 1.4630000000000001E-12, 6.0310000000000005E-12, -2.6260000000000003E-12, 1.4630000000000001E-12, 2.6260000000000003E-12
DataValue, 0.5, -1, 0, 8.551000000000001E-12, -7.360000000000001E-13, -4.757E-12, 8.551000000000001E-12, 4.757E-12
DataValue, 1, -1, 0, 1.0856000000000001E-11, -1.615E-12, -1.0364E-11, 1.0856000000000001E-11, 1.0364E-11
DataValue, 1.5, -1, 0, 2.0027E-11, 1.475E-12, -2.0319000000000002E-11, 2.0027E-11, 2.0319000000000002E-11
DataValue, 2, -1, 0, 2.9359E-11, -1.4260000000000002E-12, -2.7619000000000002E-11, 2.9359E-11, 2.7619000000000002E-11
DataValue, 2.5, -1, 0, 4.1497000000000005E-11, 8.5100000000000011E-13, -3.8121E-11, 4.1497000000000005E-11, 3.8121E-11
DataValue, 3, -1, 0, 4.3826000000000003E-11, -7.03E-13, -4.4356E-11, 4.3826000000000003E-11, 4.4356E-11
DataValue, 3.5, -1, 0, 5.8474E-11, -5.5500000000000006E-13, -5.6827000000000006E-11, 5.8474E-11, 5.6827000000000006E-11
DataValue, 4, -1, 0, 7.2385E-11, -1.7900000000000002E-13, -7.0260000000000011E-11, 7.2385E-11, 7.0260000000000011E-11
DataValue, 4.5, -1, 0, 8.7221E-11, -1.76E-13, -8.3367E-11, 8.7221E-11, 8.3367E-11
DataValue, 5, -1, 0, 1.01966E-10, -1.3650000000000001E-12, -9.7923000000000009E-11, 1.01966E-10, 9.7923000000000009E-11
DataValue, 0, 0, 0, -3.61E-12, 4.47E-13, 2.063E-12, 3.61E-12, 2.063E-12
DataValue, 0.5, 0, 0, 2.6101200000000003E-10, -2.71773E-10, 2.37E-13, 2.6101200000000003E-10, 2.37E-13
DataValue, 1, 0, 0, 2.9658800000000004E-10, -3.07705E-10, -9.52E-13, 2.9658800000000004E-10, 9.52E-13
DataValue, 1.5, 0, 0, 3.3139700000000004E-10, -3.33659E-10, -3.4540000000000004E-12, 3.3139700000000004E-10, 3.4540000000000004E-12
DataValue, 2, 0, 0, 3.5405800000000005E-10, -3.4322200000000005E-10, -7.1560000000000006E-12, 3.5405800000000005E-10, 7.1560000000000006E-12
DataValue, 2.5, 0, 0, 3.8023500000000003E-10, -3.6425900000000003E-10, -1.2840000000000001E-11, 3.8023500000000003E-10, 1.2840000000000001E-11
DataValue, 3, 0, 0, 4.0402800000000003E-10, -3.88129E-10, -1.9783000000000002E-11, 4.0402800000000003E-10, 1.9783000000000002E-11
DataValue, 3.5, 0, 0, 4.21347E-10, -3.9339700000000003E-10, -2.7996E-11, 4.21347E-10, 2.7996E-11
DataValue, 4, 0, 0, 4.41101E-10, -3.9794800000000004E-10, -3.7930000000000005E-11, 4.41101E-10, 3.7930000000000005E-11
DataValue, 4.5, 0, 0, 4.62658E-10, -4.1060400000000004E-10, -4.8820000000000006E-11, 4.62658E-10, 4.8820000000000006E-11
DataValue, 5, 0, 0, 4.89234E-10, -4.2159700000000005E-10, -6.0817E-11, 4.89234E-10, 6.0817E-11
DataValue, 0, 1, 0, -2.0893600000000002E-10, 1.8528100000000001E-10, 8.763E-12, 2.0893600000000002E-10, 8.763E-12
DataValue, 0.5, 1, 0, 1.97097E-07, -1.92087E-07, 2.8310000000000004E-12, 1.97097E-07, 2.8310000000000004E-12
DataValue, 1, 1, 0, 1.87935E-07, -1.87517E-07, -1.7410000000000002E-12, 1.87935E-07, 1.7410000000000002E-12
DataValue, 1.5, 1, 0, 1.84741E-07, -1.84065E-07, -3.4150000000000003E-12, 1.84741E-07, 3.4150000000000003E-12
DataValue, 2, 1, 0, 1.81149E-07, -1.80319E-07, -4.015E-12, 1.81149E-07, 4.015E-12
DataValue, 2.5, 1, 0, 1.76912E-07, -1.76427E-07, -5.2630000000000005E-12, 1.76912E-07, 5.2630000000000005E-12
DataValue, 3, 1, 0, 1.73566E-07, -1.73214E-07, -8.524E-12, 1.73566E-07, 8.524E-12
DataValue, 3.5, 1, 0, 1.7018E-07, -1.69523E-07, -1.5021000000000002E-11, 1.7018E-07, 1.5021000000000002E-11
DataValue, 4, 1, 0, 1.66728E-07, -1.66422E-07, -2.2294E-11, 1.66728E-07, 2.2294E-11
DataValue, 4.5, 1, 0, 1.64183E-07, -1.63805E-07, -3.1033E-11, 1.64183E-07, 3.1033E-11
DataValue, 5, 1, 0, 1.61694E-07, -1.61307E-07, -4.0730000000000004E-11, 1.61694E-07, 4.0730000000000004E-11
DataValue, 0, 2, 0, -1.05602E-09, 1.01788E-09, 2.1308E-11, 1.05602E-09, 2.1308E-11
DataValue, 0.5, 2, 0, 2.0677E-06, -1.98764E-06, 8.805E-12, 2.0677E-06, 8.805E-12
DataValue, 1, 2, 0, 2.43068E-06, -2.4035300000000003E-06, 2.7640000000000003E-12, 2.43068E-06, 2.7640000000000003E-12
DataValue, 1.5, 2, 0, 2.38376E-06, -2.36748E-06, -4.75E-13, 2.38376E-06, 4.75E-13
DataValue, 2, 2, 0, 2.2703100000000004E-06, -2.25494E-06, -2.9360000000000004E-12, 2.2703100000000004E-06, 2.9360000000000004E-12
DataValue, 2.5, 2, 0, 2.1762900000000004E-06, -2.1593200000000004E-06, -5.295E-12, 2.1762900000000004E-06, 5.295E-12
DataValue, 3, 2, 0, 2.0812E-06, -2.07035E-06, -6.6060000000000007E-12, 2.0812E-06, 6.6060000000000007E-12
DataValue, 3.5, 2, 0, 2.01345E-06, -2.00174E-06, -7.787E-12, 2.01345E-06, 7.787E-12
DataValue, 4, 2, 0, 1.94956E-06, -1.9457000000000003E-06, -1.0338E-11, 1.94956E-06, 1.0338E-11
DataValue, 4.5, 2, 0, 1.9015800000000002E-06, -1.8955600000000003E-06, -1.7275E-11, 1.9015800000000002E-06, 1.7275E-11
DataValue, 5, 2, 0, 1.8464300000000002E-06, -1.84045E-06, -2.5382E-11, 1.8464300000000002E-06, 2.5382E-11
DataValue, 0, 3, 0, -2.78543E-09, 2.68754E-09, 2.4249E-11, 2.78543E-09, 2.4249E-11
DataValue, 0.5, 3, 0, 6.0779600000000007E-06, -5.99625E-06, 1.2585000000000001E-11, 6.0779600000000007E-06, 1.2585000000000001E-11
DataValue, 1, 3, 0, 9.1489500000000016E-06, -9.08057E-06, 6.5830000000000005E-12, 9.1489500000000016E-06, 6.5830000000000005E-12
DataValue, 1.5, 3, 0, 1.01921E-05, -1.0120070000000001E-05, 3.572E-12, 1.01921E-05, 3.572E-12
DataValue, 2, 3, 0, 1.03001E-05, -1.024223E-05, 1.707E-12, 1.03001E-05, 1.707E-12
DataValue, 2.5, 3, 0, 1.0046E-05, -1.0002000000000002E-05, -1.69E-13, 1.0046E-05, 1.69E-13
DataValue, 3, 3, 0, 9.73359E-06, -9.6755500000000009E-06, -2.019E-12, 9.73359E-06, 2.019E-12
DataValue, 3.5, 3, 0, 9.3790200000000009E-06, -9.3404000000000012E-06, -3.775E-12, 9.3790200000000009E-06, 3.775E-12
DataValue, 4, 3, 0, 9.091670000000001E-06, -9.05774E-06, -4.904E-12, 9.091670000000001E-06, 4.904E-12
DataValue, 4.5, 3, 0, 8.88977E-06, -8.86102E-06, -6.7510000000000006E-12, 8.88977E-06, 6.7510000000000006E-12
DataValue, 5, 3, 0, 8.69911E-06, -8.68827E-06, -9.511E-12, 8.69911E-06, 9.511E-12
DataValue, 0, 4, 0, -4.4395E-09, 4.63209E-09, 3.3134E-11, 4.4395E-09, 3.3134E-11
DataValue, 0.5, 4, 0, 1.21181E-05, -1.21003E-05, 1.8569E-11, 1.21181E-05, 1.8569E-11
DataValue, 1, 4, 0, 2.08575E-05, -2.08124E-05, 1.1575000000000001E-11, 2.08575E-05, 1.1575000000000001E-11
DataValue, 1.5, 4, 0, 2.63658E-05, -2.6245700000000002E-05, 7.12E-12, 2.63658E-05, 7.12E-12
DataValue, 2, 4, 0, 2.91187E-05, -2.89677E-05, 4.096E-12, 2.91187E-05, 4.096E-12
DataValue, 2.5, 4, 0, 3.00637E-05, -2.99399E-05, 2.556E-12, 3.00637E-05, 2.556E-12
DataValue, 3, 4, 0, 3.00543E-05, -2.99415E-05, 1.164E-12, 3.00543E-05, 1.164E-12
DataValue, 3.5, 4, 0, 2.95844E-05, -2.9491000000000003E-05, -1.0800000000000001E-13, 2.95844E-05, 1.0800000000000001E-13
DataValue, 4, 4, 0, 2.90059E-05, -2.89165E-05, -1.6370000000000002E-12, 2.90059E-05, 1.6370000000000002E-12
DataValue, 4.5, 4, 0, 2.8452300000000002E-05, -2.83697E-05, -3.81E-12, 2.8452300000000002E-05, 3.81E-12
DataValue, 5, 4, 0, 2.79406E-05, -2.7889900000000002E-05, -5.356E-12, 2.79406E-05, 5.356E-12
DataValue, 0, 5, 0, -9.2359999999999991E-09, 9.0512999999999991E-09, 3.4309E-11, 9.2359999999999991E-09, 3.4309E-11
DataValue, 0.5, 5, 0, 1.93257E-05, -1.93153E-05, 2.1992E-11, 1.93257E-05, 2.1992E-11
DataValue, 1, 5, 0, 3.48683E-05, -3.4876300000000004E-05, 1.4931000000000003E-11, 3.48683E-05, 1.4931000000000003E-11
DataValue, 1.5, 5, 0, 4.71215E-05, -4.7109E-05, 1.0398000000000002E-11, 4.71215E-05, 1.0398000000000002E-11
DataValue, 2, 5, 0, 5.60513E-05, -5.59629E-05, 7.295E-12, 5.60513E-05, 7.295E-12
DataValue, 2.5, 5, 0, 6.17914E-05, -6.16477E-05, 5.048E-12, 6.17914E-05, 5.048E-12
DataValue, 3, 5, 0, 6.49496E-05, -6.47903E-05, 3.5950000000000003E-12, 6.49496E-05, 3.5950000000000003E-12
DataValue, 3.5, 5, 0, 6.6332300000000009E-05, -6.61747E-05, 2.452E-12, 6.6332300000000009E-05, 2.452E-12
DataValue, 4, 5, 0, 6.66055E-05, -6.64662E-05, 1.5760000000000002E-12, 6.66055E-05, 1.5760000000000002E-12
DataValue, 4.5, 5, 0, 6.6289E-05, -6.61565E-05, 5.7800000000000006E-13, 6.6289E-05, 5.7800000000000006E-13
DataValue, 5, 5, 0, 6.56485E-05, -6.5528700000000008E-05, -8.26E-13, 6.56485E-05, 8.26E-13