
SetupTitle, Output
PrimitiveTest, I/V Sweep
TestParameter, Context.MainFrame, 4155C
TestParameter, Channel.UnitType, SMU, SMU, SMU
TestParameter, Channel.Unit, SMU3:MP, SMU4:MP, SMU1:MP
TestParameter, Channel.IName, ID, IS, IG
TestParameter, Channel.VName, VD, VS, VG
TestParameter, Channel.Mode, V, COMMON, V
TestParameter, Channel.Func, VAR1, CONST, VAR2
TestParameter, Channel.Index, 
TestParameter, Channel.Time, 
TestParameter, Measurement.Port.Unit, SMU3:MP, SMU4:MP, SMU1:MP
TestParameter, Measurement.Port.SeriesResistor, NONE, NONE, NONE
TestParameter, Measurement.Port.Filter, ON, ON, ON
TestParameter, Measurement.Primary.Locus, Single
TestParameter, Measurement.Primary.Scale, LINEAR
TestParameter, Measurement.Primary.Start, 0
TestParameter, Measurement.Primary.Stop, 5
TestParameter, Measurement.Primary.Step, 0.5
TestParameter, Measurement.Primary.Compliance, 0.1
TestParameter, Measurement.Primary.PowerCompliance, 0
TestParameter, Measurement.Aborting.Condition, CONTINUE AT ANY
TestParameter, Measurement.PostOutput.Value, START
TestParameter, Measurement.PostOutput.Retention, OFF
TestParameter, Measurement.Secondary.Start, -1
TestParameter, Measurement.Secondary.Count, 7
TestParameter, Measurement.Secondary.Step, 1
TestParameter, Measurement.Secondary.Compliance, 0.1
TestParameter, Measurement.Secondary.PowerCompliance, 0
TestParameter, Measurement.Bias.Source, 0, 0, -1
TestParameter, Measurement.Bias.Compliance, 0.1, 0.1, 0.1
TestParameter, Measurement.Monitor.Unit, SMU3:MP, SMU4:MP, SMU1:MP
TestParameter, Measurement.Monitor.Adc, HR ADC, HR ADC, HR ADC
TestParameter, Measurement.Monitor.RangingMode, AUTO, AUTO, AUTO
TestParameter, Measurement.Monitor.RangeBoundary, , , 
TestParameter, Measurement.Monitor.RangeRating, BY FULL RANGE, BY FULL RANGE, BY FULL RANGE
TestParameter, Measurement.Monitor.RangeRatingCoeff, 50, 50, 50
TestParameter, Measurement.Timing.Hold, 0.5
TestParameter, Measurement.Timing.Delay, 0.05
TestParameter, Measurement.Adc.HighResolution.AutoZero, OFF
TestParameter, Measurement.Adc.HighResolution.Mode, AUTO
TestParameter, Measurement.Adc.HighResolution.Coeff, 1
TestParameter, Measurement.Ag16440ASelector.SemiconductorRelay.Channel1, DEFAULT
TestParameter, Measurement.Ag16440ASelector.SemiconductorRelay.Channel3, DEFAULT
TestParameter, Function.User.Name, absID, absIG
TestParameter, Function.User.Unit, A, A
TestParameter, Function.User.Definition, abs(ID), abs(IG)
TestParameter, Output.Graph.Enabled, true
TestParameter, Output.Graph.XAxis.Data, VD
TestParameter, Output.Graph.XAxis.Scale, Linear
TestParameter, Output.Graph.XAxis.Left, 0
TestParameter, Output.Graph.XAxis.Right, 7
TestParameter, Output.Graph.YAxis.Data, ID
TestParameter, Output.Graph.YAxis.Scale, Linear
TestParameter, Output.Graph.YAxis.Bottom, 1E-14
TestParameter, Output.Graph.YAxis.Top, 0.01
TestParameter, Output.Graph.YAxis.Group, 
TestParameter, Output.List.Data, VG, IG, VD, ID, VS, IS, absIG
TestParameter, AutoAnalysis.Interpolation, false
TestParameter, AutoAnalysis.Line1.Enabled, false
TestParameter, AutoAnalysis.Line1.Type, 1
TestParameter, AutoAnalysis.Line1.Fix, True
TestParameter, AutoAnalysis.Line1.YAxis, 0
TestParameter, AutoAnalysis.Line1.Point1.Type, 0
TestParameter, AutoAnalysis.Line1.Point1.XY.X, 
TestParameter, AutoAnalysis.Line1.Point1.XY.Y, 
TestParameter, AutoAnalysis.Line1.Point1.Data.Var, 
TestParameter, AutoAnalysis.Line1.Point1.Data.Condition, 
TestParameter, AutoAnalysis.Line1.Point1.Data.Start, false
TestParameter, AutoAnalysis.Line1.Point1.Data.StartVar, 
TestParameter, AutoAnalysis.Line1.Point1.Data.StartCondition, 
TestParameter, AutoAnalysis.Line1.Point2.Type, 0
TestParameter, AutoAnalysis.Line1.Point2.XY.X, 
TestParameter, AutoAnalysis.Line1.Point2.XY.Y, 
TestParameter, AutoAnalysis.Line1.Point2.Data.Var, 
TestParameter, AutoAnalysis.Line1.Point2.Data.Condition, 
TestParameter, AutoAnalysis.Line1.Point2.Data.Start, false
TestParameter, AutoAnalysis.Line1.Point2.Data.StartVar, 
TestParameter, AutoAnalysis.Line1.Point2.Data.StartCondition, 
TestParameter, AutoAnalysis.Line1.GradientExpr, 0
TestParameter, AutoAnalysis.Line2.Enabled, false
TestParameter, AutoAnalysis.Line2.Type, 1
TestParameter, AutoAnalysis.Line2.Fix, True
TestParameter, AutoAnalysis.Line2.YAxis, 0
TestParameter, AutoAnalysis.Line2.Point1.Type, 0
TestParameter, AutoAnalysis.Line2.Point1.XY.X, 
TestParameter, AutoAnalysis.Line2.Point1.XY.Y, 
TestParameter, AutoAnalysis.Line2.Point1.Data.Var, 
TestParameter, AutoAnalysis.Line2.Point1.Data.Condition, 
TestParameter, AutoAnalysis.Line2.Point1.Data.Start, false
TestParameter, AutoAnalysis.Line2.Point1.Data.StartVar, 
TestParameter, AutoAnalysis.Line2.Point1.Data.StartCondition, 
TestParameter, AutoAnalysis.Line2.Point2.Type, 0
TestParameter, AutoAnalysis.Line2.Point2.XY.X, 
TestParameter, AutoAnalysis.Line2.Point2.XY.Y, 
TestParameter, AutoAnalysis.Line2.Point2.Data.Var, 
TestParameter, AutoAnalysis.Line2.Point2.Data.Condition, 
TestParameter, AutoAnalysis.Line2.Point2.Data.Start, false
TestParameter, AutoAnalysis.Line2.Point2.Data.StartVar, 
TestParameter, AutoAnalysis.Line2.Point2.Data.StartCondition, 
TestParameter, AutoAnalysis.Line2.GradientExpr, 0
TestParameter, AutoAnalysis.Marker.Enabled, false
TestParameter, AutoAnalysis.Marker.Data.Var, 
TestParameter, AutoAnalysis.Marker.Data.Condition, 
TestParameter, AutoAnalysis.Marker.Data.Start, false
TestParameter, AutoAnalysis.Marker.Data.StartVar, 
TestParameter, AutoAnalysis.Marker.Data.StartCondition, 
MetaData, TestRecord.EntryPoint, true
MetaData, TestRecord.RecordTime, 06/18/2019 15:04:22
MetaData, TestRecord.TestTarget, 4-34
MetaData, TestRecord.IterationIndex, 1
MetaData, TestRecord.Preservation, true
MetaData, TestRecord.Flag, 
MetaData, TestRecord.Remarks, good
MetaData, TestRecord.LinkKey, 86ab1081-1498-4d1e-8b09-143491daaef5
Dimension1, 11, 11, 11, 11, 11, 11, 11, 11
Dimension2, 7, 7, 7, 7, 7, 7, 7, 7
DataName, VD, VG, VS, ID, IS, IG, absID, absIG
DataValue, 0, -1, 0, 5.5600000000000005E-13, -5.9E-13, -1.3000000000000001E-12, 5.5600000000000005E-13, 1.3000000000000001E-12
DataValue, 0.5, -1, 0, 7.43E-12, 1.099E-12, -3.9090000000000004E-12, 7.43E-12, 3.9090000000000004E-12
DataValue, 1, -1, 0, 6.092E-12, 6.06E-13, -7.598E-12, 6.092E-12, 7.598E-12
DataValue, 1.5, -1, 0, 1.2353000000000001E-11, 2.1330000000000003E-12, -8.285E-12, 1.2353000000000001E-11, 8.285E-12
DataValue, 2, -1, 0, 2.1927000000000002E-11, -1E-15, -8.0800000000000011E-12, 2.1927000000000002E-11, 8.0800000000000011E-12
DataValue, 2.5, -1, 0, 2.6627000000000003E-11, -5.5200000000000007E-13, -2.4467E-11, 2.6627000000000003E-11, 2.4467E-11
DataValue, 3, -1, 0, 3.6471E-11, -2.2900000000000003E-13, -3.5214E-11, 3.6471E-11, 3.5214E-11
DataValue, 3.5, -1, 0, 6.2155E-11, -1.688E-12, -7.9994000000000008E-11, 6.2155E-11, 7.9994000000000008E-11
DataValue, 4, -1, 0, 1.18404E-10, -1.925E-12, -1.13864E-10, 1.18404E-10, 1.13864E-10
DataValue, 4.5, -1, 0, 1.0954500000000001E-10, 4.4000000000000004E-13, -1.22384E-10, 1.0954500000000001E-10, 1.22384E-10
DataValue, 5, -1, 0, 2.61896E-10, -4.444E-12, -2.06934E-10, 2.61896E-10, 2.06934E-10
DataValue, 0, 0, 0, -4.6470000000000007E-12, 7.590000000000001E-13, 7.03E-13, 4.6470000000000007E-12, 7.03E-13
DataValue, 0.5, 0, 0, 1.21173E-10, -1.2561000000000002E-10, -2.17E-13, 1.21173E-10, 2.17E-13
DataValue, 1, 0, 0, 1.32666E-10, -1.34058E-10, -4.4300000000000003E-13, 1.32666E-10, 4.4300000000000003E-13
DataValue, 1.5, 0, 0, 1.4384300000000002E-10, -1.39168E-10, -4.0900000000000005E-12, 1.4384300000000002E-10, 4.0900000000000005E-12
DataValue, 2, 0, 0, 1.52098E-10, -1.4126E-10, -8.631E-12, 1.52098E-10, 8.631E-12
DataValue, 2.5, 0, 0, 1.5353700000000002E-10, -1.438E-10, -8.4610000000000012E-12, 1.5353700000000002E-10, 8.4610000000000012E-12
DataValue, 3, 0, 0, 1.5537800000000002E-10, -1.45855E-10, -7.31E-12, 1.5537800000000002E-10, 7.31E-12
DataValue, 3.5, 0, 0, 1.5466100000000002E-10, -1.46819E-10, -1.2866000000000001E-11, 1.5466100000000002E-10, 1.2866000000000001E-11
DataValue, 4, 0, 0, 1.78983E-10, -1.49784E-10, -2.7907000000000004E-11, 1.78983E-10, 2.7907000000000004E-11
DataValue, 4.5, 0, 0, 2.0223100000000002E-10, -1.49069E-10, -5.7756000000000007E-11, 2.0223100000000002E-10, 5.7756000000000007E-11
DataValue, 5, 0, 0, 1.5684500000000002E-10, -1.5239800000000002E-10, -1.0833000000000001E-11, 1.5684500000000002E-10, 1.0833000000000001E-11
DataValue, 0, 1, 0, -1.1430000000000001E-11, 8.73E-12, 1.097E-12, 1.1430000000000001E-11, 1.097E-12
DataValue, 0.5, 1, 0, 9.12969E-09, -8.91454E-09, 2.17E-13, 9.12969E-09, 2.17E-13
DataValue, 1, 1, 0, 9.39601E-09, -9.37442E-09, -5.4800000000000009E-13, 9.39601E-09, 5.4800000000000009E-13
DataValue, 1.5, 1, 0, 9.18483E-09, -9.15698E-09, -5.7600000000000007E-13, 9.18483E-09, 5.7600000000000007E-13
DataValue, 2, 1, 0, 8.9085E-09, -8.88326E-09, -9.8100000000000016E-13, 8.9085E-09, 9.8100000000000016E-13
DataValue, 2.5, 1, 0, 8.68454E-09, -8.67498E-09, -3.1150000000000004E-12, 8.68454E-09, 3.1150000000000004E-12
DataValue, 3, 1, 0, 8.4844E-09, -8.46048E-09, -5.7090000000000008E-12, 8.4844E-09, 5.7090000000000008E-12
DataValue, 3.5, 1, 0, 8.27864E-09, -8.26198E-09, -5.9720000000000008E-12, 8.27864E-09, 5.9720000000000008E-12
DataValue, 4, 1, 0, 8.10763E-09, -8.08763E-09, -6.584E-12, 8.10763E-09, 6.584E-12
DataValue, 4.5, 1, 0, 7.94382E-09, -7.92756E-09, -7.3220000000000013E-12, 7.94382E-09, 7.3220000000000013E-12
DataValue, 5, 1, 0, 7.82986E-09, -7.82382E-09, -7.362E-12, 7.82986E-09, 7.362E-12
DataValue, 0, 2, 0, -3.8806000000000004E-11, 3.7242E-11, 1.5870000000000002E-12, 3.8806000000000004E-11, 1.5870000000000002E-12
DataValue, 0.5, 2, 0, 4.76338E-08, -4.4858699999999995E-08, 8.1300000000000007E-13, 4.76338E-08, 8.1300000000000007E-13
DataValue, 1, 2, 0, 4.9816499999999995E-08, -4.9351599999999996E-08, -1.009E-12, 4.9816499999999995E-08, 1.009E-12
DataValue, 1.5, 2, 0, 4.8651899999999992E-08, -4.8347199999999994E-08, -1.7600000000000002E-12, 4.8651899999999992E-08, 1.7600000000000002E-12
DataValue, 2, 2, 0, 4.65679E-08, -4.6328599999999996E-08, -1.203E-12, 4.65679E-08, 1.203E-12
DataValue, 2.5, 2, 0, 4.4555399999999993E-08, -4.4403599999999997E-08, -1.921E-12, 4.4555399999999993E-08, 1.921E-12
DataValue, 3, 2, 0, 4.2938099999999996E-08, -4.2735699999999997E-08, -1.216E-12, 4.2938099999999996E-08, 1.216E-12
DataValue, 3.5, 2, 0, 4.1444099999999996E-08, -4.1252299999999994E-08, -2.5580000000000002E-12, 4.1444099999999996E-08, 2.5580000000000002E-12
DataValue, 4, 2, 0, 4.01321E-08, -4.0004E-08, -4.622E-12, 4.01321E-08, 4.622E-12
DataValue, 4.5, 2, 0, 3.89257E-08, -3.88207E-08, -7.617E-12, 3.89257E-08, 7.617E-12
DataValue, 5, 2, 0, 3.77635E-08, -3.7683399999999996E-08, -6.4720000000000007E-12, 3.77635E-08, 6.4720000000000007E-12
DataValue, 0, 3, 0, -9.0824000000000011E-11, 8.255E-11, 1.5640000000000002E-12, 9.0824000000000011E-11, 1.5640000000000002E-12
DataValue, 0.5, 3, 0, 1.19329E-07, -1.1357199999999999E-07, 1.264E-12, 1.19329E-07, 1.264E-12
DataValue, 1, 3, 0, 1.44892E-07, -1.43448E-07, -8.8800000000000005E-13, 1.44892E-07, 8.8800000000000005E-13
DataValue, 1.5, 3, 0, 1.48099E-07, -1.47002E-07, -2.13E-12, 1.48099E-07, 2.13E-12
DataValue, 2, 3, 0, 1.43685E-07, -1.43265E-07, -2.1490000000000002E-12, 1.43685E-07, 2.1490000000000002E-12
DataValue, 2.5, 3, 0, 1.38334E-07, -1.37525E-07, -2.511E-12, 1.38334E-07, 2.511E-12
DataValue, 3, 3, 0, 1.3318E-07, -1.3222899999999999E-07, -2.399E-12, 1.3318E-07, 2.399E-12
DataValue, 3.5, 3, 0, 1.28318E-07, -1.27549E-07, -2.0540000000000003E-12, 1.28318E-07, 2.0540000000000003E-12
DataValue, 4, 3, 0, 1.23758E-07, -1.23459E-07, -2.299E-12, 1.23758E-07, 2.299E-12
DataValue, 4.5, 3, 0, 1.20097E-07, -1.19396E-07, -3.4860000000000003E-12, 1.20097E-07, 3.4860000000000003E-12
DataValue, 5, 3, 0, 1.1657E-07, -1.1609299999999999E-07, -4.501E-12, 1.1657E-07, 4.501E-12
DataValue, 0, 4, 0, -1.69891E-10, 1.5988900000000002E-10, 3.899E-12, 1.69891E-10, 3.899E-12
DataValue, 0.5, 4, 0, 2.51322E-07, -2.38459E-07, 1.686E-12, 2.51322E-07, 1.686E-12
DataValue, 1, 4, 0, 3.2090399999999997E-07, -3.16943E-07, 2.2700000000000002E-13, 3.2090399999999997E-07, 2.2700000000000002E-13
DataValue, 1.5, 4, 0, 3.29006E-07, -3.26824E-07, -1.358E-12, 3.29006E-07, 1.358E-12
DataValue, 2, 4, 0, 3.29806E-07, -3.27637E-07, -2.172E-12, 3.29806E-07, 2.172E-12
DataValue, 2.5, 4, 0, 3.21511E-07, -3.18666E-07, -2.577E-12, 3.21511E-07, 2.577E-12
DataValue, 3, 4, 0, 3.1099E-07, -3.08852E-07, -2.665E-12, 3.1099E-07, 2.665E-12
DataValue, 3.5, 4, 0, 2.99163E-07, -2.97891E-07, -2.832E-12, 2.99163E-07, 2.832E-12
DataValue, 4, 4, 0, 2.88482E-07, -2.87438E-07, -2.566E-12, 2.88482E-07, 2.566E-12
DataValue, 4.5, 4, 0, 2.80394E-07, -2.79055E-07, -2.7170000000000002E-12, 2.80394E-07, 2.7170000000000002E-12
DataValue, 5, 4, 0, 2.72203E-07, -2.7176299999999997E-07, -2.8980000000000004E-12, 2.72203E-07, 2.8980000000000004E-12
DataValue, 0, 5, 0, -2.7458E-10, 2.6941E-10, 5.117E-12, 2.7458E-10, 5.117E-12
DataValue, 0.5, 5, 0, 4.52095E-07, -4.3208699999999997E-07, 2.6210000000000002E-12, 4.52095E-07, 2.6210000000000002E-12
DataValue, 1, 5, 0, 6.08523E-07, -6.01316E-07, 1.189E-12, 6.08523E-07, 1.189E-12
DataValue, 1.5, 5, 0, 6.41761E-07, -6.3598E-07, 3.89E-13, 6.41761E-07, 3.89E-13
DataValue, 2, 5, 0, 6.40935E-07, -6.36356E-07, -1.368E-12, 6.40935E-07, 1.368E-12
DataValue, 2.5, 5, 0, 6.34591E-07, -6.31691E-07, -2.365E-12, 6.34591E-07, 2.365E-12
DataValue, 3, 5, 0, 6.2109E-07, -6.19692E-07, -2.657E-12, 6.2109E-07, 2.657E-12
DataValue, 3.5, 5, 0, 6.03606E-07, -6.00942E-07, -2.8190000000000004E-12, 6.03606E-07, 2.8190000000000004E-12
DataValue, 4, 5, 0, 5.8722999999999995E-07, -5.8423799999999994E-07, -2.9980000000000004E-12, 5.8722999999999995E-07, 2.9980000000000004E-12
DataValue, 4.5, 5, 0, 5.6798E-07, -5.66109E-07, -2.5600000000000004E-12, 5.6798E-07, 2.5600000000000004E-12
DataValue, 5, 5, 0, 5.5407799999999994E-07, -5.51798E-07, -2.7000000000000002E-12, 5.5407799999999994E-07, 2.7000000000000002E-12