
SetupTitle, Output
PrimitiveTest, I/V Sweep
TestParameter, Context.MainFrame, 4155C
TestParameter, Channel.UnitType, SMU, SMU, SMU
TestParameter, Channel.Unit, SMU3:MP, SMU1:MP, SMU4:MP
TestParameter, Channel.IName, ID, IS, IG
TestParameter, Channel.VName, VD, VS, VG
TestParameter, Channel.Mode, V, COMMON, V
TestParameter, Channel.Func, VAR1, CONST, VAR2
TestParameter, Channel.Index, 
TestParameter, Channel.Time, 
TestParameter, Measurement.Port.Unit, SMU3:MP, SMU1:MP, SMU4:MP
TestParameter, Measurement.Port.SeriesResistor, NONE, NONE, NONE
TestParameter, Measurement.Port.Filter, ON, ON, ON
TestParameter, Measurement.Primary.Locus, Single
TestParameter, Measurement.Primary.Scale, LINEAR
TestParameter, Measurement.Primary.Start, 0
TestParameter, Measurement.Primary.Stop, 5
TestParameter, Measurement.Primary.Step, 0.5
TestParameter, Measurement.Primary.Compliance, 0.1
TestParameter, Measurement.Primary.PowerCompliance, 0
TestParameter, Measurement.Aborting.Condition, CONTINUE AT ANY
TestParameter, Measurement.PostOutput.Value, START
TestParameter, Measurement.PostOutput.Retention, OFF
TestParameter, Measurement.Secondary.Start, -1
TestParameter, Measurement.Secondary.Count, 7
TestParameter, Measurement.Secondary.Step, 1
TestParameter, Measurement.Secondary.Compliance, 0.1
TestParameter, Measurement.Secondary.PowerCompliance, 0
TestParameter, Measurement.Bias.Source, 0, 0, -1
TestParameter, Measurement.Bias.Compliance, 0.1, 0.1, 0.1
TestParameter, Measurement.Monitor.Unit, SMU3:MP, SMU1:MP, SMU4:MP
TestParameter, Measurement.Monitor.Adc, HR ADC, HR ADC, HR ADC
TestParameter, Measurement.Monitor.RangingMode, AUTO, AUTO, AUTO
TestParameter, Measurement.Monitor.RangeBoundary, , , 
TestParameter, Measurement.Monitor.RangeRating, BY FULL RANGE, BY FULL RANGE, BY FULL RANGE
TestParameter, Measurement.Monitor.RangeRatingCoeff, 50, 50, 50
TestParameter, Measurement.Timing.Hold, 0.5
TestParameter, Measurement.Timing.Delay, 0.05
TestParameter, Measurement.Adc.HighResolution.AutoZero, OFF
TestParameter, Measurement.Adc.HighResolution.Mode, AUTO
TestParameter, Measurement.Adc.HighResolution.Coeff, 1
TestParameter, Measurement.Ag16440ASelector.SemiconductorRelay.Channel1, DEFAULT
TestParameter, Measurement.Ag16440ASelector.SemiconductorRelay.Channel3, DEFAULT
TestParameter, Function.User.Name, absID, absIG
TestParameter, Function.User.Unit, A, A
TestParameter, Function.User.Definition, abs(ID), abs(IG)
TestParameter, Output.Graph.Enabled, true
TestParameter, Output.Graph.XAxis.Data, VD
TestParameter, Output.Graph.XAxis.Scale, Linear
TestParameter, Output.Graph.XAxis.Left, 0
TestParameter, Output.Graph.XAxis.Right, 7
TestParameter, Output.Graph.YAxis.Data, ID
TestParameter, Output.Graph.YAxis.Scale, Linear
TestParameter, Output.Graph.YAxis.Bottom, 1E-14
TestParameter, Output.Graph.YAxis.Top, 0.01
TestParameter, Output.Graph.YAxis.Group, 
TestParameter, Output.List.Data, VG, IG, VD, ID, VS, IS, absIG
TestParameter, AutoAnalysis.Interpolation, false
TestParameter, AutoAnalysis.Line1.Enabled, false
TestParameter, AutoAnalysis.Line1.Type, 1
TestParameter, AutoAnalysis.Line1.Fix, True
TestParameter, AutoAnalysis.Line1.YAxis, 0
TestParameter, AutoAnalysis.Line1.Point1.Type, 0
TestParameter, AutoAnalysis.Line1.Point1.XY.X, 
TestParameter, AutoAnalysis.Line1.Point1.XY.Y, 
TestParameter, AutoAnalysis.Line1.Point1.Data.Var, 
TestParameter, AutoAnalysis.Line1.Point1.Data.Condition, 
TestParameter, AutoAnalysis.Line1.Point1.Data.Start, false
TestParameter, AutoAnalysis.Line1.Point1.Data.StartVar, 
TestParameter, AutoAnalysis.Line1.Point1.Data.StartCondition, 
TestParameter, AutoAnalysis.Line1.Point2.Type, 0
TestParameter, AutoAnalysis.Line1.Point2.XY.X, 
TestParameter, AutoAnalysis.Line1.Point2.XY.Y, 
TestParameter, AutoAnalysis.Line1.Point2.Data.Var, 
TestParameter, AutoAnalysis.Line1.Point2.Data.Condition, 
TestParameter, AutoAnalysis.Line1.Point2.Data.Start, false
TestParameter, AutoAnalysis.Line1.Point2.Data.StartVar, 
TestParameter, AutoAnalysis.Line1.Point2.Data.StartCondition, 
TestParameter, AutoAnalysis.Line1.GradientExpr, 0
TestParameter, AutoAnalysis.Line2.Enabled, false
TestParameter, AutoAnalysis.Line2.Type, 1
TestParameter, AutoAnalysis.Line2.Fix, True
TestParameter, AutoAnalysis.Line2.YAxis, 0
TestParameter, AutoAnalysis.Line2.Point1.Type, 0
TestParameter, AutoAnalysis.Line2.Point1.XY.X, 
TestParameter, AutoAnalysis.Line2.Point1.XY.Y, 
TestParameter, AutoAnalysis.Line2.Point1.Data.Var, 
TestParameter, AutoAnalysis.Line2.Point1.Data.Condition, 
TestParameter, AutoAnalysis.Line2.Point1.Data.Start, false
TestParameter, AutoAnalysis.Line2.Point1.Data.StartVar, 
TestParameter, AutoAnalysis.Line2.Point1.Data.StartCondition, 
TestParameter, AutoAnalysis.Line2.Point2.Type, 0
TestParameter, AutoAnalysis.Line2.Point2.XY.X, 
TestParameter, AutoAnalysis.Line2.Point2.XY.Y, 
TestParameter, AutoAnalysis.Line2.Point2.Data.Var, 
TestParameter, AutoAnalysis.Line2.Point2.Data.Condition, 
TestParameter, AutoAnalysis.Line2.Point2.Data.Start, false
TestParameter, AutoAnalysis.Line2.Point2.Data.StartVar, 
TestParameter, AutoAnalysis.Line2.Point2.Data.StartCondition, 
TestParameter, AutoAnalysis.Line2.GradientExpr, 0
TestParameter, AutoAnalysis.Marker.Enabled, false
TestParameter, AutoAnalysis.Marker.Data.Var, 
TestParameter, AutoAnalysis.Marker.Data.Condition, 
TestParameter, AutoAnalysis.Marker.Data.Start, false
TestParameter, AutoAnalysis.Marker.Data.StartVar, 
TestParameter, AutoAnalysis.Marker.Data.StartCondition, 
MetaData, TestRecord.EntryPoint, true
MetaData, TestRecord.RecordTime, 05/02/2019 19:04:22
MetaData, TestRecord.TestTarget, 350-300-2-5
MetaData, TestRecord.IterationIndex, 1
MetaData, TestRecord.Preservation, true
MetaData, TestRecord.Flag, 
MetaData, TestRecord.Remarks, good
MetaData, TestRecord.LinkKey, 9f6cbae3-59b1-48ce-8318-3ab3029495d7
Dimension1, 11, 11, 11, 11, 11, 11, 11, 11
Dimension2, 7, 7, 7, 7, 7, 7, 7, 7
DataName, VD, VG, VS, ID, IS, IG, absID, absIG
DataValue, 0, -1, 0, 5.7082E-11, -9.73E-13, -5.6903000000000005E-11, 5.7082E-11, 5.6903000000000005E-11
DataValue, 0.5, -1, 0, 8.6508E-11, 1.6000000000000003E-13, -8.608100000000001E-11, 8.6508E-11, 8.608100000000001E-11
DataValue, 1, -1, 0, 1.1841E-10, 1.2840000000000002E-12, -1.16975E-10, 1.1841E-10, 1.16975E-10
DataValue, 1.5, -1, 0, 1.4501900000000002E-10, -5.0700000000000006E-13, -1.45013E-10, 1.4501900000000002E-10, 1.45013E-10
DataValue, 2, -1, 0, 1.74688E-10, -5.7200000000000009E-13, -1.73817E-10, 1.74688E-10, 1.73817E-10
DataValue, 2.5, -1, 0, 2.0363500000000002E-10, 4.01E-13, -2.01877E-10, 2.0363500000000002E-10, 2.01877E-10
DataValue, 3, -1, 0, 2.3245E-10, -1.7300000000000002E-13, -2.3055900000000002E-10, 2.3245E-10, 2.3055900000000002E-10
DataValue, 3.5, -1, 0, 2.5992900000000004E-10, -2.7700000000000003E-13, -2.60683E-10, 2.5992900000000004E-10, 2.60683E-10
DataValue, 4, -1, 0, 2.9210500000000005E-10, -3.2300000000000004E-13, -2.8928300000000003E-10, 2.9210500000000005E-10, 2.8928300000000003E-10
DataValue, 4.5, -1, 0, 3.21033E-10, 6.0000000000000005E-15, -3.2153700000000003E-10, 3.21033E-10, 3.2153700000000003E-10
DataValue, 5, -1, 0, 3.5096400000000003E-10, 7E-15, -3.4950600000000003E-10, 3.5096400000000003E-10, 3.4950600000000003E-10
DataValue, 0, 0, 0, -1.24E-13, 1.7800000000000002E-13, 3.6000000000000003E-13, 1.24E-13, 3.6000000000000003E-13
DataValue, 0.5, 0, 0, 4.0657000000000005E-11, -1.1905000000000002E-11, -2.8667000000000003E-11, 4.0657000000000005E-11, 2.8667000000000003E-11
DataValue, 1, 0, 0, 6.921E-11, -1.2669000000000001E-11, -5.8278E-11, 6.921E-11, 5.8278E-11
DataValue, 1.5, 0, 0, 1.0032600000000001E-10, -1.3772E-11, -8.6662E-11, 1.0032600000000001E-10, 8.6662E-11
DataValue, 2, 0, 0, 1.29698E-10, -1.4460000000000001E-11, -1.1530500000000001E-10, 1.29698E-10, 1.1530500000000001E-10
DataValue, 2.5, 0, 0, 1.5957600000000002E-10, -1.4842E-11, -1.4277900000000001E-10, 1.5957600000000002E-10, 1.4277900000000001E-10
DataValue, 3, 0, 0, 1.8820400000000002E-10, -1.5056000000000002E-11, -1.7333100000000002E-10, 1.8820400000000002E-10, 1.7333100000000002E-10
DataValue, 3.5, 0, 0, 2.18134E-10, -1.4923000000000002E-11, -2.0269200000000002E-10, 2.18134E-10, 2.0269200000000002E-10
DataValue, 4, 0, 0, 2.46716E-10, -1.4740000000000002E-11, -2.3127400000000003E-10, 2.46716E-10, 2.3127400000000003E-10
DataValue, 4.5, 0, 0, 2.78638E-10, -1.5153E-11, -2.6057400000000005E-10, 2.78638E-10, 2.6057400000000005E-10
DataValue, 5, 0, 0, 3.0723700000000004E-10, -1.6447000000000002E-11, -2.87738E-10, 3.0723700000000004E-10, 2.87738E-10
DataValue, 0, 1, 0, -7.0128E-11, 1.1629E-11, 5.7403000000000003E-11, 7.0128E-11, 5.7403000000000003E-11
DataValue, 0.5, 1, 0, 1.8949199999999997E-08, -1.8254899999999998E-08, 2.9612E-11, 1.8949199999999997E-08, 2.9612E-11
DataValue, 1, 1, 0, 1.7861199999999998E-08, -1.7839899999999998E-08, -6.38E-13, 1.7861199999999998E-08, 6.38E-13
DataValue, 1.5, 1, 0, 1.7194899999999997E-08, -1.7078999999999997E-08, -2.8926000000000002E-11, 1.7194899999999997E-08, 2.8926000000000002E-11
DataValue, 2, 1, 0, 1.7319599999999997E-08, -1.6914399999999997E-08, -5.7813000000000005E-11, 1.7319599999999997E-08, 5.7813000000000005E-11
DataValue, 2.5, 1, 0, 1.64056E-08, -1.6198299999999997E-08, -8.630100000000001E-11, 1.64056E-08, 8.630100000000001E-11
DataValue, 3, 1, 0, 1.54254E-08, -1.5353399999999997E-08, -1.1411000000000001E-10, 1.54254E-08, 1.1411000000000001E-10
DataValue, 3.5, 1, 0, 1.55892E-08, -1.51873E-08, -1.41663E-10, 1.55892E-08, 1.41663E-10
DataValue, 4, 1, 0, 1.5224799999999998E-08, -1.4865999999999999E-08, -1.71603E-10, 1.5224799999999998E-08, 1.71603E-10
DataValue, 4.5, 1, 0, 1.4700499999999998E-08, -1.4534599999999999E-08, -2.0024300000000002E-10, 1.4700499999999998E-08, 2.0024300000000002E-10
DataValue, 5, 1, 0, 1.4504099999999999E-08, -1.4334799999999998E-08, -2.28292E-10, 1.4504099999999999E-08, 2.28292E-10
DataValue, 0, 2, 0, -1.7838800000000003E-10, 6.0978E-11, 1.1850800000000002E-10, 1.7838800000000003E-10, 1.1850800000000002E-10
DataValue, 0.5, 2, 0, 1.5286E-07, -1.52416E-07, 8.7498E-11, 1.5286E-07, 8.7498E-11
DataValue, 1, 2, 0, 2.2461E-07, -2.2261499999999999E-07, 5.8668E-11, 2.2461E-07, 5.8668E-11
DataValue, 1.5, 2, 0, 2.41196E-07, -2.3948199999999997E-07, 2.8802E-11, 2.41196E-07, 2.8802E-11
DataValue, 2, 2, 0, 2.38145E-07, -2.38848E-07, 5.2800000000000007E-13, 2.38145E-07, 5.2800000000000007E-13
DataValue, 2.5, 2, 0, 2.35333E-07, -2.31786E-07, -2.8611E-11, 2.35333E-07, 2.8611E-11
DataValue, 3, 2, 0, 2.3139099999999998E-07, -2.3101E-07, -5.7371000000000007E-11, 2.3139099999999998E-07, 5.7371000000000007E-11
DataValue, 3.5, 2, 0, 2.24021E-07, -2.21118E-07, -8.4554E-11, 2.24021E-07, 8.4554E-11
DataValue, 4, 2, 0, 2.14731E-07, -2.14036E-07, -1.1256200000000001E-10, 2.14731E-07, 1.1256200000000001E-10
DataValue, 4.5, 2, 0, 2.1458E-07, -2.12752E-07, -1.41865E-10, 2.1458E-07, 1.41865E-10
DataValue, 5, 2, 0, 2.11718E-07, -2.10618E-07, -1.6987800000000002E-10, 2.11718E-07, 1.6987800000000002E-10
DataValue, 0, 3, 0, -3.38993E-10, 1.38734E-10, 2.02375E-10, 3.38993E-10, 2.02375E-10
DataValue, 0.5, 3, 0, 4.04122E-07, -4.04703E-07, 1.5704100000000002E-10, 4.04122E-07, 1.5704100000000002E-10
DataValue, 1, 3, 0, 6.97325E-07, -6.99408E-07, 1.18904E-10, 6.97325E-07, 1.18904E-10
DataValue, 1.5, 3, 0, 8.91582E-07, -8.92747E-07, 8.675600000000001E-11, 8.91582E-07, 8.675600000000001E-11
DataValue, 2, 3, 0, 9.884E-07, -9.91178E-07, 5.8866E-11, 9.884E-07, 5.8866E-11
DataValue, 2.5, 3, 0, 1.0294800000000001E-06, -1.029429E-06, 2.9788000000000004E-11, 1.0294800000000001E-06, 2.9788000000000004E-11
DataValue, 3, 3, 0, 1.0420600000000001E-06, -1.038712E-06, 1.2130000000000002E-12, 1.0420600000000001E-06, 1.2130000000000002E-12
DataValue, 3.5, 3, 0, 1.0411100000000001E-06, -1.04147E-06, -2.7838000000000003E-11, 1.0411100000000001E-06, 2.7838000000000003E-11
DataValue, 4, 3, 0, 1.02977E-06, -1.031897E-06, -5.5078000000000007E-11, 1.02977E-06, 5.5078000000000007E-11
DataValue, 4.5, 3, 0, 1.0314900000000001E-06, -1.027385E-06, -8.4999000000000008E-11, 1.0314900000000001E-06, 8.4999000000000008E-11
DataValue, 5, 3, 0, 1.01491E-06, -1.013469E-06, -1.1242200000000002E-10, 1.01491E-06, 1.1242200000000002E-10
DataValue, 0, 4, 0, -5.59579E-10, 2.0457200000000002E-10, 3.47991E-10, 5.59579E-10, 3.47991E-10
DataValue, 0.5, 4, 0, 7.26112E-07, -7.26087E-07, 2.66134E-10, 7.26112E-07, 2.66134E-10
DataValue, 1, 4, 0, 1.3100000000000002E-06, -1.3097000000000001E-06, 2.0338300000000003E-10, 1.3100000000000002E-06, 2.0338300000000003E-10
DataValue, 1.5, 4, 0, 1.7598200000000002E-06, -1.76099E-06, 1.5561300000000002E-10, 1.7598200000000002E-06, 1.5561300000000002E-10
DataValue, 2, 4, 0, 2.1027800000000003E-06, -2.1070800000000004E-06, 1.22215E-10, 2.1027800000000003E-06, 1.22215E-10
DataValue, 2.5, 4, 0, 2.34737E-06, -2.3493E-06, 9.0885E-11, 2.34737E-06, 9.0885E-11
DataValue, 3, 4, 0, 2.49719E-06, -2.4970100000000003E-06, 6.1006000000000009E-11, 2.49719E-06, 6.1006000000000009E-11
DataValue, 3.5, 4, 0, 2.5918000000000003E-06, -2.5978900000000003E-06, 3.3167E-11, 2.5918000000000003E-06, 3.3167E-11
DataValue, 4, 4, 0, 2.6401300000000003E-06, -2.6367E-06, 4.1240000000000006E-12, 2.6401300000000003E-06, 4.1240000000000006E-12
DataValue, 4.5, 4, 0, 2.6583700000000003E-06, -2.65734E-06, -2.3665000000000003E-11, 2.6583700000000003E-06, 2.3665000000000003E-11
DataValue, 5, 4, 0, 2.6715E-06, -2.67406E-06, -5.3621000000000007E-11, 2.6715E-06, 5.3621000000000007E-11
DataValue, 0, 5, 0, -8.6735600000000006E-10, 1.8652400000000003E-10, 6.49599E-10, 8.6735600000000006E-10, 6.49599E-10
DataValue, 0.5, 5, 0, 1.0927700000000002E-06, -1.09417E-06, 4.8341900000000007E-10, 1.0927700000000002E-06, 4.8341900000000007E-10
DataValue, 1, 5, 0, 2.0167500000000002E-06, -2.0189900000000002E-06, 3.6248300000000005E-10, 2.0167500000000002E-06, 3.6248300000000005E-10
DataValue, 1.5, 5, 0, 2.79188E-06, -2.79639E-06, 2.67729E-10, 2.79188E-06, 2.67729E-10
DataValue, 2, 5, 0, 3.4306400000000005E-06, -3.4361700000000003E-06, 2.0685000000000002E-10, 3.4306400000000005E-06, 2.0685000000000002E-10
DataValue, 2.5, 5, 0, 3.9445700000000008E-06, -3.9494000000000007E-06, 1.6455100000000003E-10, 3.9445700000000008E-06, 1.6455100000000003E-10
DataValue, 3, 5, 0, 4.3417E-06, -4.3420900000000005E-06, 1.30348E-10, 4.3417E-06, 1.30348E-10
DataValue, 3.5, 5, 0, 4.63277E-06, -4.63589E-06, 1.0019400000000001E-10, 4.63277E-06, 1.0019400000000001E-10
DataValue, 4, 5, 0, 4.84752E-06, -4.8527900000000005E-06, 6.8142E-11, 4.84752E-06, 6.8142E-11
DataValue, 4.5, 5, 0, 4.99163E-06, -4.9947700000000005E-06, 3.9708E-11, 4.99163E-06, 3.9708E-11
DataValue, 5, 5, 0, 5.07859E-06, -5.0808500000000007E-06, 1.1310000000000001E-11, 5.07859E-06, 1.1310000000000001E-11