
SetupTitle, Output
PrimitiveTest, I/V Sweep
TestParameter, Context.MainFrame, 4155C
TestParameter, Channel.UnitType, SMU, SMU, SMU
TestParameter, Channel.Unit, SMU3:MP, SMU1:MP, SMU4:MP
TestParameter, Channel.IName, ID, IS, IG
TestParameter, Channel.VName, VD, VS, VG
TestParameter, Channel.Mode, V, COMMON, V
TestParameter, Channel.Func, VAR1, CONST, VAR2
TestParameter, Channel.Index, 
TestParameter, Channel.Time, 
TestParameter, Measurement.Port.Unit, SMU3:MP, SMU1:MP, SMU4:MP
TestParameter, Measurement.Port.SeriesResistor, NONE, NONE, NONE
TestParameter, Measurement.Port.Filter, ON, ON, ON
TestParameter, Measurement.Primary.Locus, Single
TestParameter, Measurement.Primary.Scale, LINEAR
TestParameter, Measurement.Primary.Start, 0
TestParameter, Measurement.Primary.Stop, 5
TestParameter, Measurement.Primary.Step, 0.5
TestParameter, Measurement.Primary.Compliance, 0.1
TestParameter, Measurement.Primary.PowerCompliance, 0
TestParameter, Measurement.Aborting.Condition, CONTINUE AT ANY
TestParameter, Measurement.PostOutput.Value, START
TestParameter, Measurement.PostOutput.Retention, OFF
TestParameter, Measurement.Secondary.Start, -1
TestParameter, Measurement.Secondary.Count, 7
TestParameter, Measurement.Secondary.Step, 1
TestParameter, Measurement.Secondary.Compliance, 0.1
TestParameter, Measurement.Secondary.PowerCompliance, 0
TestParameter, Measurement.Bias.Source, 0, 0, -1
TestParameter, Measurement.Bias.Compliance, 0.1, 0.1, 0.1
TestParameter, Measurement.Monitor.Unit, SMU3:MP, SMU1:MP, SMU4:MP
TestParameter, Measurement.Monitor.Adc, HR ADC, HR ADC, HR ADC
TestParameter, Measurement.Monitor.RangingMode, AUTO, AUTO, AUTO
TestParameter, Measurement.Monitor.RangeBoundary, , , 
TestParameter, Measurement.Monitor.RangeRating, BY FULL RANGE, BY FULL RANGE, BY FULL RANGE
TestParameter, Measurement.Monitor.RangeRatingCoeff, 50, 50, 50
TestParameter, Measurement.Timing.Hold, 0.5
TestParameter, Measurement.Timing.Delay, 0.05
TestParameter, Measurement.Adc.HighResolution.AutoZero, OFF
TestParameter, Measurement.Adc.HighResolution.Mode, AUTO
TestParameter, Measurement.Adc.HighResolution.Coeff, 1
TestParameter, Measurement.Ag16440ASelector.SemiconductorRelay.Channel1, DEFAULT
TestParameter, Measurement.Ag16440ASelector.SemiconductorRelay.Channel3, DEFAULT
TestParameter, Function.User.Name, absID, absIG
TestParameter, Function.User.Unit, A, A
TestParameter, Function.User.Definition, abs(ID), abs(IG)
TestParameter, Output.Graph.Enabled, true
TestParameter, Output.Graph.XAxis.Data, VD
TestParameter, Output.Graph.XAxis.Scale, Linear
TestParameter, Output.Graph.XAxis.Left, 0
TestParameter, Output.Graph.XAxis.Right, 7
TestParameter, Output.Graph.YAxis.Data, ID
TestParameter, Output.Graph.YAxis.Scale, Linear
TestParameter, Output.Graph.YAxis.Bottom, 1E-14
TestParameter, Output.Graph.YAxis.Top, 0.01
TestParameter, Output.Graph.YAxis.Group, 
TestParameter, Output.List.Data, VG, IG, VD, ID, VS, IS, absIG
TestParameter, AutoAnalysis.Interpolation, false
TestParameter, AutoAnalysis.Line1.Enabled, false
TestParameter, AutoAnalysis.Line1.Type, 1
TestParameter, AutoAnalysis.Line1.Fix, True
TestParameter, AutoAnalysis.Line1.YAxis, 0
TestParameter, AutoAnalysis.Line1.Point1.Type, 0
TestParameter, AutoAnalysis.Line1.Point1.XY.X, 
TestParameter, AutoAnalysis.Line1.Point1.XY.Y, 
TestParameter, AutoAnalysis.Line1.Point1.Data.Var, 
TestParameter, AutoAnalysis.Line1.Point1.Data.Condition, 
TestParameter, AutoAnalysis.Line1.Point1.Data.Start, false
TestParameter, AutoAnalysis.Line1.Point1.Data.StartVar, 
TestParameter, AutoAnalysis.Line1.Point1.Data.StartCondition, 
TestParameter, AutoAnalysis.Line1.Point2.Type, 0
TestParameter, AutoAnalysis.Line1.Point2.XY.X, 
TestParameter, AutoAnalysis.Line1.Point2.XY.Y, 
TestParameter, AutoAnalysis.Line1.Point2.Data.Var, 
TestParameter, AutoAnalysis.Line1.Point2.Data.Condition, 
TestParameter, AutoAnalysis.Line1.Point2.Data.Start, false
TestParameter, AutoAnalysis.Line1.Point2.Data.StartVar, 
TestParameter, AutoAnalysis.Line1.Point2.Data.StartCondition, 
TestParameter, AutoAnalysis.Line1.GradientExpr, 0
TestParameter, AutoAnalysis.Line2.Enabled, false
TestParameter, AutoAnalysis.Line2.Type, 1
TestParameter, AutoAnalysis.Line2.Fix, True
TestParameter, AutoAnalysis.Line2.YAxis, 0
TestParameter, AutoAnalysis.Line2.Point1.Type, 0
TestParameter, AutoAnalysis.Line2.Point1.XY.X, 
TestParameter, AutoAnalysis.Line2.Point1.XY.Y, 
TestParameter, AutoAnalysis.Line2.Point1.Data.Var, 
TestParameter, AutoAnalysis.Line2.Point1.Data.Condition, 
TestParameter, AutoAnalysis.Line2.Point1.Data.Start, false
TestParameter, AutoAnalysis.Line2.Point1.Data.StartVar, 
TestParameter, AutoAnalysis.Line2.Point1.Data.StartCondition, 
TestParameter, AutoAnalysis.Line2.Point2.Type, 0
TestParameter, AutoAnalysis.Line2.Point2.XY.X, 
TestParameter, AutoAnalysis.Line2.Point2.XY.Y, 
TestParameter, AutoAnalysis.Line2.Point2.Data.Var, 
TestParameter, AutoAnalysis.Line2.Point2.Data.Condition, 
TestParameter, AutoAnalysis.Line2.Point2.Data.Start, false
TestParameter, AutoAnalysis.Line2.Point2.Data.StartVar, 
TestParameter, AutoAnalysis.Line2.Point2.Data.StartCondition, 
TestParameter, AutoAnalysis.Line2.GradientExpr, 0
TestParameter, AutoAnalysis.Marker.Enabled, false
TestParameter, AutoAnalysis.Marker.Data.Var, 
TestParameter, AutoAnalysis.Marker.Data.Condition, 
TestParameter, AutoAnalysis.Marker.Data.Start, false
TestParameter, AutoAnalysis.Marker.Data.StartVar, 
TestParameter, AutoAnalysis.Marker.Data.StartCondition, 
MetaData, TestRecord.EntryPoint, true
MetaData, TestRecord.RecordTime, 05/02/2019 11:15:43
MetaData, TestRecord.TestTarget, 250-300-10-5
MetaData, TestRecord.IterationIndex, 1
MetaData, TestRecord.Preservation, true
MetaData, TestRecord.Flag, 
MetaData, TestRecord.Remarks, bad
MetaData, TestRecord.LinkKey, 553d1d37-f8b3-47ba-aa21-9808e8c854e0
Dimension1, 11, 11, 11, 11, 11, 11, 11, 11
Dimension2, 7, 7, 7, 7, 7, 7, 7, 7
DataName, VD, VG, VS, ID, IS, IG, absID, absIG
DataValue, 0, -1, 0, 4.2980000000000005E-12, 6.9660000000000008E-12, -1.1884E-11, 4.2980000000000005E-12, 1.1884E-11
DataValue, 0.5, -1, 0, 9.028E-12, 3.167E-12, -1.7621000000000002E-11, 9.028E-12, 1.7621000000000002E-11
DataValue, 1, -1, 0, 1.6989000000000002E-11, 5.692E-12, -1.23E-11, 1.6989000000000002E-11, 1.23E-11
DataValue, 1.5, -1, 0, 1.7608E-11, -8.4000000000000006E-13, -1.9716000000000002E-11, 1.7608E-11, 1.9716000000000002E-11
DataValue, 2, -1, 0, 2.2427E-11, 2.173E-12, -2.5934000000000003E-11, 2.2427E-11, 2.5934000000000003E-11
DataValue, 2.5, -1, 0, 2.7761000000000002E-11, -3.6000000000000004E-14, -2.4116E-11, 2.7761000000000002E-11, 2.4116E-11
DataValue, 3, -1, 0, 3.1646E-11, -4.836E-12, -2.6801000000000003E-11, 3.1646E-11, 2.6801000000000003E-11
DataValue, 3.5, -1, 0, 3.8889000000000005E-11, -5.422E-12, -3.1679000000000005E-11, 3.8889000000000005E-11, 3.1679000000000005E-11
DataValue, 4, -1, 0, 4.0839E-11, -7.2430000000000005E-12, -3.317E-11, 4.0839E-11, 3.317E-11
DataValue, 4.5, -1, 0, 4.5324E-11, -8.231E-12, -3.4391000000000006E-11, 4.5324E-11, 3.4391000000000006E-11
DataValue, 5, -1, 0, 5.2020000000000005E-11, -1.0553000000000002E-11, -3.6617000000000005E-11, 5.2020000000000005E-11, 3.6617000000000005E-11
DataValue, 0, 0, 0, -2.1572E-11, 1.9138E-11, -1.644E-12, 2.1572E-11, 1.644E-12
DataValue, 0.5, 0, 0, 4.69193E-09, -4.75162E-09, -2.5040000000000002E-12, 4.69193E-09, 2.5040000000000002E-12
DataValue, 1, 0, 0, 4.85382E-09, -4.86858E-09, -5.8150000000000006E-12, 4.85382E-09, 5.8150000000000006E-12
DataValue, 1.5, 0, 0, 4.86601E-09, -4.86105E-09, -7.403E-12, 4.86601E-09, 7.403E-12
DataValue, 2, 0, 0, 4.85207E-09, -4.86372E-09, -9.625E-12, 4.85207E-09, 9.625E-12
DataValue, 2.5, 0, 0, 4.82557E-09, -4.78597E-09, -1.2052E-11, 4.82557E-09, 1.2052E-11
DataValue, 3, 0, 0, 4.81869E-09, -4.84947E-09, -1.4577E-11, 4.81869E-09, 1.4577E-11
DataValue, 3.5, 0, 0, 4.89427E-09, -4.91203E-09, -1.7559E-11, 4.89427E-09, 1.7559E-11
DataValue, 4, 0, 0, 4.87601E-09, -4.82626E-09, -1.9754000000000002E-11, 4.87601E-09, 1.9754000000000002E-11
DataValue, 4.5, 0, 0, 4.8484E-09, -4.80323E-09, -2.1585000000000002E-11, 4.8484E-09, 2.1585000000000002E-11
DataValue, 5, 0, 0, 4.83597E-09, -4.82575E-09, -2.3543000000000003E-11, 4.83597E-09, 2.3543000000000003E-11
DataValue, 0, 1, 0, -3.7675200000000003E-10, 3.4151000000000004E-10, 2.7082000000000003E-11, 3.7675200000000003E-10, 2.7082000000000003E-11
DataValue, 0.5, 1, 0, 2.53849E-07, -2.46859E-07, 1.2012000000000002E-11, 2.53849E-07, 1.2012000000000002E-11
DataValue, 1, 1, 0, 2.94245E-07, -2.92835E-07, 8.514E-12, 2.94245E-07, 8.514E-12
DataValue, 1.5, 1, 0, 2.85472E-07, -2.82959E-07, 5.316E-12, 2.85472E-07, 5.316E-12
DataValue, 2, 1, 0, 2.76798E-07, -2.74662E-07, 3.936E-12, 2.76798E-07, 3.936E-12
DataValue, 2.5, 1, 0, 2.64196E-07, -2.63457E-07, 1.7220000000000001E-12, 2.64196E-07, 1.7220000000000001E-12
DataValue, 3, 1, 0, 2.57643E-07, -2.56116E-07, -1.3630000000000002E-12, 2.57643E-07, 1.3630000000000002E-12
DataValue, 3.5, 1, 0, 2.4666E-07, -2.47578E-07, -4.033E-12, 2.4666E-07, 4.033E-12
DataValue, 4, 1, 0, 2.39945E-07, -2.41235E-07, -4.951E-12, 2.39945E-07, 4.951E-12
DataValue, 4.5, 1, 0, 2.32206E-07, -2.35488E-07, -8.185E-12, 2.32206E-07, 8.185E-12
DataValue, 5, 1, 0, 2.30189E-07, -2.2912799999999999E-07, -1.0588000000000001E-11, 2.30189E-07, 1.0588000000000001E-11
DataValue, 0, 2, 0, -1.21097E-09, 4.4615400000000004E-10, 6.90633E-10, 1.21097E-09, 6.90633E-10
DataValue, 0.5, 2, 0, 7.5088699999999994E-07, -7.30425E-07, 3.01003E-10, 7.5088699999999994E-07, 3.01003E-10
DataValue, 1, 2, 0, 1.1174500000000002E-06, -1.0935000000000002E-06, 1.5178900000000002E-10, 1.1174500000000002E-06, 1.5178900000000002E-10
DataValue, 1.5, 2, 0, 1.2452900000000001E-06, -1.23975E-06, 1.05032E-10, 1.2452900000000001E-06, 1.05032E-10
DataValue, 2, 2, 0, 1.2730700000000002E-06, -1.2663E-06, 8.2239000000000009E-11, 1.2730700000000002E-06, 8.2239000000000009E-11
DataValue, 2.5, 2, 0, 1.2441100000000002E-06, -1.2371000000000002E-06, 6.8048000000000009E-11, 1.2441100000000002E-06, 6.8048000000000009E-11
DataValue, 3, 2, 0, 1.21069E-06, -1.21085E-06, 5.9362000000000007E-11, 1.21069E-06, 5.9362000000000007E-11
DataValue, 3.5, 2, 0, 1.16239E-06, -1.15445E-06, 4.9494000000000004E-11, 1.16239E-06, 4.9494000000000004E-11
DataValue, 4, 2, 0, 1.12906E-06, -1.1207300000000001E-06, 4.5446000000000006E-11, 1.12906E-06, 4.5446000000000006E-11
DataValue, 4.5, 2, 0, 1.1023300000000002E-06, -1.0996200000000002E-06, 3.9418E-11, 1.1023300000000002E-06, 3.9418E-11
DataValue, 5, 2, 0, 1.0746200000000002E-06, -1.07404E-06, 3.3920000000000004E-11, 1.0746200000000002E-06, 3.3920000000000004E-11
DataValue, 0, 3, 0, -2.21146E-09, -2.55406E-09, 4.61761E-09, 2.21146E-09, 4.61761E-09
DataValue, 0.5, 3, 0, 9.85443E-07, -9.60347E-07, 3.26572E-09, 9.85443E-07, 3.26572E-09
DataValue, 1, 3, 0, 2.0253600000000003E-06, -2.07232E-06, 2.08892E-09, 2.0253600000000003E-06, 2.08892E-09
DataValue, 1.5, 3, 0, 3.0751400000000003E-06, -3.0734300000000005E-06, 1.31845E-09, 3.0751400000000003E-06, 1.31845E-09
DataValue, 2, 3, 0, 3.7034400000000002E-06, -3.71025E-06, 9.68385E-10, 3.7034400000000002E-06, 9.68385E-10
DataValue, 2.5, 3, 0, 3.89056E-06, -3.8658300000000007E-06, 7.98674E-10, 3.89056E-06, 7.98674E-10
DataValue, 3, 3, 0, 3.9862100000000008E-06, -3.96655E-06, 6.94006E-10, 3.9862100000000008E-06, 6.94006E-10
DataValue, 3.5, 3, 0, 3.9621600000000005E-06, -3.94824E-06, 6.18181E-10, 3.9621600000000005E-06, 6.18181E-10
DataValue, 4, 3, 0, 3.9044800000000008E-06, -3.8809900000000008E-06, 5.5832800000000006E-10, 3.9044800000000008E-06, 5.5832800000000006E-10
DataValue, 4.5, 3, 0, 3.8259E-06, -3.8192000000000006E-06, 5.09329E-10, 3.8259E-06, 5.09329E-10
DataValue, 5, 3, 0, 3.7526400000000005E-06, -3.7522600000000002E-06, 4.75552E-10, 3.7526400000000005E-06, 4.75552E-10
DataValue, 0, 4, 0, -4.95099E-09, -1.0932099999999999E-08, 1.56389E-08, 4.95099E-09, 1.56389E-08
DataValue, 0.5, 4, 0, 1.4940200000000001E-06, -1.4869000000000001E-06, 1.2342699999999999E-08, 1.4940200000000001E-06, 1.2342699999999999E-08
DataValue, 1, 4, 0, 3.1766200000000003E-06, -3.23674E-06, 9.32855E-09, 3.1766200000000003E-06, 9.32855E-09
DataValue, 1.5, 4, 0, 5.13291E-06, -5.3485900000000009E-06, 6.27475E-09, 5.13291E-06, 6.27475E-09
DataValue, 2, 4, 0, 7.3988200000000008E-06, -7.4185300000000006E-06, 4.55637E-09, 7.3988200000000008E-06, 4.55637E-09
DataValue, 2.5, 4, 0, 8.5169900000000009E-06, -8.5102E-06, 3.80278E-09, 8.5169900000000009E-06, 3.80278E-09
DataValue, 3, 4, 0, 9.3565600000000018E-06, -9.327320000000001E-06, 3.27922E-09, 9.3565600000000018E-06, 3.27922E-09
DataValue, 3.5, 4, 0, 9.63888E-06, -9.63668E-06, 2.9435E-09, 9.63888E-06, 2.9435E-09
DataValue, 4, 4, 0, 9.80932E-06, -9.77038E-06, 2.70169E-09, 9.80932E-06, 2.70169E-09
DataValue, 4.5, 4, 0, 9.79597E-06, -9.7723700000000011E-06, 2.52583E-09, 9.79597E-06, 2.52583E-09
DataValue, 5, 4, 0, 9.6777900000000017E-06, -9.6730900000000016E-06, 2.39665E-09, 9.6777900000000017E-06, 2.39665E-09
DataValue, 0, 5, 0, -1.97699E-08, -1.9007699999999998E-08, 3.8218699999999997E-08, 1.97699E-08, 3.8218699999999997E-08
DataValue, 0.5, 5, 0, 3.29546E-06, -3.2961000000000005E-06, 2.9465099999999998E-08, 3.29546E-06, 2.9465099999999998E-08
DataValue, 1, 5, 0, 6.3167000000000009E-06, -6.3719500000000009E-06, 2.2755599999999997E-08, 6.3167000000000009E-06, 2.2755599999999997E-08
DataValue, 1.5, 5, 0, 9.16124E-06, -9.2639300000000016E-06, 1.7737899999999998E-08, 9.16124E-06, 1.7737899999999998E-08
DataValue, 2, 5, 0, 1.16748E-05, -1.1623400000000001E-05, 1.4255299999999999E-08, 1.16748E-05, 1.4255299999999999E-08
DataValue, 2.5, 5, 0, 1.3668400000000001E-05, -1.37129E-05, 1.1906499999999998E-08, 1.3668400000000001E-05, 1.1906499999999998E-08
DataValue, 3, 5, 0, 1.52848E-05, -1.5244600000000001E-05, 1.03867E-08, 1.52848E-05, 1.03867E-08
DataValue, 3.5, 5, 0, 1.66273E-05, -1.6599200000000002E-05, 9.25428E-09, 1.66273E-05, 9.25428E-09
DataValue, 4, 5, 0, 1.77483E-05, -1.77267E-05, 8.45539E-09, 1.77483E-05, 8.45539E-09
DataValue, 4.5, 5, 0, 1.84958E-05, -1.84884E-05, 7.9356E-09, 1.84958E-05, 7.9356E-09
DataValue, 5, 5, 0, 1.8915500000000002E-05, -1.8908E-05, 7.53282E-09, 1.8915500000000002E-05, 7.53282E-09