
SetupTitle, Output
PrimitiveTest, I/V Sweep
TestParameter, Context.MainFrame, 4155C
TestParameter, Channel.UnitType, SMU, SMU, SMU
TestParameter, Channel.Unit, SMU3:MP, SMU1:MP, SMU4:MP
TestParameter, Channel.IName, ID, IS, IG
TestParameter, Channel.VName, VD, VS, VG
TestParameter, Channel.Mode, V, COMMON, V
TestParameter, Channel.Func, VAR1, CONST, VAR2
TestParameter, Channel.Index, 
TestParameter, Channel.Time, 
TestParameter, Measurement.Port.Unit, SMU3:MP, SMU1:MP, SMU4:MP
TestParameter, Measurement.Port.SeriesResistor, NONE, NONE, NONE
TestParameter, Measurement.Port.Filter, ON, ON, ON
TestParameter, Measurement.Primary.Locus, Single
TestParameter, Measurement.Primary.Scale, LINEAR
TestParameter, Measurement.Primary.Start, 0
TestParameter, Measurement.Primary.Stop, 5
TestParameter, Measurement.Primary.Step, 0.5
TestParameter, Measurement.Primary.Compliance, 0.1
TestParameter, Measurement.Primary.PowerCompliance, 0
TestParameter, Measurement.Aborting.Condition, CONTINUE AT ANY
TestParameter, Measurement.PostOutput.Value, START
TestParameter, Measurement.PostOutput.Retention, OFF
TestParameter, Measurement.Secondary.Start, -1
TestParameter, Measurement.Secondary.Count, 7
TestParameter, Measurement.Secondary.Step, 1
TestParameter, Measurement.Secondary.Compliance, 0.1
TestParameter, Measurement.Secondary.PowerCompliance, 0
TestParameter, Measurement.Bias.Source, 0, 0, -1
TestParameter, Measurement.Bias.Compliance, 0.1, 0.1, 0.1
TestParameter, Measurement.Monitor.Unit, SMU3:MP, SMU1:MP, SMU4:MP
TestParameter, Measurement.Monitor.Adc, HR ADC, HR ADC, HR ADC
TestParameter, Measurement.Monitor.RangingMode, AUTO, AUTO, AUTO
TestParameter, Measurement.Monitor.RangeBoundary, , , 
TestParameter, Measurement.Monitor.RangeRating, BY FULL RANGE, BY FULL RANGE, BY FULL RANGE
TestParameter, Measurement.Monitor.RangeRatingCoeff, 50, 50, 50
TestParameter, Measurement.Timing.Hold, 0.5
TestParameter, Measurement.Timing.Delay, 0.05
TestParameter, Measurement.Adc.HighResolution.AutoZero, OFF
TestParameter, Measurement.Adc.HighResolution.Mode, AUTO
TestParameter, Measurement.Adc.HighResolution.Coeff, 1
TestParameter, Measurement.Ag16440ASelector.SemiconductorRelay.Channel1, DEFAULT
TestParameter, Measurement.Ag16440ASelector.SemiconductorRelay.Channel3, DEFAULT
TestParameter, Function.User.Name, absID, absIG
TestParameter, Function.User.Unit, A, A
TestParameter, Function.User.Definition, abs(ID), abs(IG)
TestParameter, Output.Graph.Enabled, true
TestParameter, Output.Graph.XAxis.Data, VD
TestParameter, Output.Graph.XAxis.Scale, Linear
TestParameter, Output.Graph.XAxis.Left, 0
TestParameter, Output.Graph.XAxis.Right, 7
TestParameter, Output.Graph.YAxis.Data, ID
TestParameter, Output.Graph.YAxis.Scale, Linear
TestParameter, Output.Graph.YAxis.Bottom, 1E-14
TestParameter, Output.Graph.YAxis.Top, 0.01
TestParameter, Output.Graph.YAxis.Group, 
TestParameter, Output.List.Data, VG, IG, VD, ID, VS, IS, absIG
TestParameter, AutoAnalysis.Interpolation, false
TestParameter, AutoAnalysis.Line1.Enabled, false
TestParameter, AutoAnalysis.Line1.Type, 1
TestParameter, AutoAnalysis.Line1.Fix, True
TestParameter, AutoAnalysis.Line1.YAxis, 0
TestParameter, AutoAnalysis.Line1.Point1.Type, 0
TestParameter, AutoAnalysis.Line1.Point1.XY.X, 
TestParameter, AutoAnalysis.Line1.Point1.XY.Y, 
TestParameter, AutoAnalysis.Line1.Point1.Data.Var, 
TestParameter, AutoAnalysis.Line1.Point1.Data.Condition, 
TestParameter, AutoAnalysis.Line1.Point1.Data.Start, false
TestParameter, AutoAnalysis.Line1.Point1.Data.StartVar, 
TestParameter, AutoAnalysis.Line1.Point1.Data.StartCondition, 
TestParameter, AutoAnalysis.Line1.Point2.Type, 0
TestParameter, AutoAnalysis.Line1.Point2.XY.X, 
TestParameter, AutoAnalysis.Line1.Point2.XY.Y, 
TestParameter, AutoAnalysis.Line1.Point2.Data.Var, 
TestParameter, AutoAnalysis.Line1.Point2.Data.Condition, 
TestParameter, AutoAnalysis.Line1.Point2.Data.Start, false
TestParameter, AutoAnalysis.Line1.Point2.Data.StartVar, 
TestParameter, AutoAnalysis.Line1.Point2.Data.StartCondition, 
TestParameter, AutoAnalysis.Line1.GradientExpr, 0
TestParameter, AutoAnalysis.Line2.Enabled, false
TestParameter, AutoAnalysis.Line2.Type, 1
TestParameter, AutoAnalysis.Line2.Fix, True
TestParameter, AutoAnalysis.Line2.YAxis, 0
TestParameter, AutoAnalysis.Line2.Point1.Type, 0
TestParameter, AutoAnalysis.Line2.Point1.XY.X, 
TestParameter, AutoAnalysis.Line2.Point1.XY.Y, 
TestParameter, AutoAnalysis.Line2.Point1.Data.Var, 
TestParameter, AutoAnalysis.Line2.Point1.Data.Condition, 
TestParameter, AutoAnalysis.Line2.Point1.Data.Start, false
TestParameter, AutoAnalysis.Line2.Point1.Data.StartVar, 
TestParameter, AutoAnalysis.Line2.Point1.Data.StartCondition, 
TestParameter, AutoAnalysis.Line2.Point2.Type, 0
TestParameter, AutoAnalysis.Line2.Point2.XY.X, 
TestParameter, AutoAnalysis.Line2.Point2.XY.Y, 
TestParameter, AutoAnalysis.Line2.Point2.Data.Var, 
TestParameter, AutoAnalysis.Line2.Point2.Data.Condition, 
TestParameter, AutoAnalysis.Line2.Point2.Data.Start, false
TestParameter, AutoAnalysis.Line2.Point2.Data.StartVar, 
TestParameter, AutoAnalysis.Line2.Point2.Data.StartCondition, 
TestParameter, AutoAnalysis.Line2.GradientExpr, 0
TestParameter, AutoAnalysis.Marker.Enabled, false
TestParameter, AutoAnalysis.Marker.Data.Var, 
TestParameter, AutoAnalysis.Marker.Data.Condition, 
TestParameter, AutoAnalysis.Marker.Data.Start, false
TestParameter, AutoAnalysis.Marker.Data.StartVar, 
TestParameter, AutoAnalysis.Marker.Data.StartCondition, 
MetaData, TestRecord.EntryPoint, true
MetaData, TestRecord.RecordTime, 05/02/2019 18:42:25
MetaData, TestRecord.TestTarget, 350-300-50-20
MetaData, TestRecord.IterationIndex, 1
MetaData, TestRecord.Preservation, true
MetaData, TestRecord.Flag, 
MetaData, TestRecord.Remarks, good
MetaData, TestRecord.LinkKey, 78741c3e-9b8c-434a-9e2f-5f07107a171a
Dimension1, 11, 11, 11, 11, 11, 11, 11, 11
Dimension2, 7, 7, 7, 7, 7, 7, 7, 7
DataName, VD, VG, VS, ID, IS, IG, absID, absIG
DataValue, 0, -1, 0, 2.3900000000000004E-13, -4.12E-13, -1.015E-12, 2.3900000000000004E-13, 1.015E-12
DataValue, 0.5, -1, 0, 5.0300000000000008E-13, 2.48E-13, -9.8100000000000016E-13, 5.0300000000000008E-13, 9.8100000000000016E-13
DataValue, 1, -1, 0, 8.26E-13, 4.5400000000000003E-13, -1.408E-12, 8.26E-13, 1.408E-12
DataValue, 1.5, -1, 0, 1.1690000000000002E-12, 4.6000000000000006E-13, -9.13E-13, 1.1690000000000002E-12, 9.13E-13
DataValue, 2, -1, 0, 1.552E-12, 1.9800000000000002E-13, -6.53E-13, 1.552E-12, 6.53E-13
DataValue, 2.5, -1, 0, 1.715E-12, 6.640000000000001E-13, -1.329E-12, 1.715E-12, 1.329E-12
DataValue, 3, -1, 0, 9.86E-13, 9.32E-13, 1.207E-12, 9.86E-13, 1.207E-12
DataValue, 3.5, -1, 0, 1.3900000000000001E-12, -7.26E-13, 7.4600000000000005E-13, 1.3900000000000001E-12, 7.4600000000000005E-13
DataValue, 4, -1, 0, 2.1410000000000003E-12, -1.2000000000000001E-12, -4.96E-13, 2.1410000000000003E-12, 4.96E-13
DataValue, 4.5, -1, 0, 1.2940000000000001E-12, 2.9E-14, -7.6400000000000008E-13, 1.2940000000000001E-12, 7.6400000000000008E-13
DataValue, 5, -1, 0, 2.6720000000000003E-12, -6.37E-13, -1.076E-12, 2.6720000000000003E-12, 1.076E-12
DataValue, 0, 0, 0, -2.8800000000000004E-13, -1.1400000000000002E-13, -1.22E-13, 2.8800000000000004E-13, 1.22E-13
DataValue, 0.5, 0, 0, 2.44E-12, -4.139E-12, 2.8670000000000002E-12, 2.44E-12, 2.8670000000000002E-12
DataValue, 1, 0, 0, 3.9320000000000006E-12, -3.725E-12, 1.1E-14, 3.9320000000000006E-12, 1.1E-14
DataValue, 1.5, 0, 0, 4.055E-12, -3.9010000000000004E-12, 3.8500000000000003E-13, 4.055E-12, 3.8500000000000003E-13
DataValue, 2, 0, 0, 3.217E-12, -4.178E-12, 7.7000000000000005E-13, 3.217E-12, 7.7000000000000005E-13
DataValue, 2.5, 0, 0, 4.998E-12, -4.467E-12, 2.35E-13, 4.998E-12, 2.35E-13
DataValue, 3, 0, 0, 4.891E-12, -3.9220000000000005E-12, -4.63E-13, 4.891E-12, 4.63E-13
DataValue, 3.5, 0, 0, 5.2370000000000004E-12, -3.957E-12, -4.8000000000000004E-14, 5.2370000000000004E-12, 4.8000000000000004E-14
DataValue, 4, 0, 0, 5.49E-12, -4.241E-12, -4.7900000000000008E-13, 5.49E-12, 4.7900000000000008E-13
DataValue, 4.5, 0, 0, 5.3150000000000007E-12, -4.0080000000000007E-12, -3.63E-13, 5.3150000000000007E-12, 3.63E-13
DataValue, 5, 0, 0, 5.771E-12, -3.9510000000000004E-12, -4.4100000000000004E-13, 5.771E-12, 4.4100000000000004E-13
DataValue, 0, 1, 0, -8.2784E-11, 8.2155000000000013E-11, -7.04E-13, 8.2784E-11, 7.04E-13
DataValue, 0.5, 1, 0, 1.05733E-07, -1.06034E-07, 2.92E-13, 1.05733E-07, 2.92E-13
DataValue, 1, 1, 0, 1.1107E-07, -1.11083E-07, -5.0200000000000008E-13, 1.1107E-07, 5.0200000000000008E-13
DataValue, 1.5, 1, 0, 1.11271E-07, -1.11152E-07, -1.0580000000000001E-12, 1.11271E-07, 1.0580000000000001E-12
DataValue, 2, 1, 0, 1.10952E-07, -1.10815E-07, -1.362E-12, 1.10952E-07, 1.362E-12
DataValue, 2.5, 1, 0, 1.1054799999999999E-07, -1.10335E-07, -5.34E-13, 1.1054799999999999E-07, 5.34E-13
DataValue, 3, 1, 0, 1.09928E-07, -1.09733E-07, 1.617E-12, 1.09928E-07, 1.617E-12
DataValue, 3.5, 1, 0, 1.09473E-07, -1.0943E-07, -4.09E-13, 1.09473E-07, 4.09E-13
DataValue, 4, 1, 0, 1.08976E-07, -1.08998E-07, -2.57E-13, 1.08976E-07, 2.57E-13
DataValue, 4.5, 1, 0, 1.0841299999999999E-07, -1.0816799999999999E-07, 1.349E-12, 1.0841299999999999E-07, 1.349E-12
DataValue, 5, 1, 0, 1.0785199999999999E-07, -1.0782899999999999E-07, -5.63E-13, 1.0785199999999999E-07, 5.63E-13
DataValue, 0, 2, 0, -4.5411700000000006E-10, 4.2656300000000005E-10, 3.4094000000000004E-11, 4.5411700000000006E-10, 3.4094000000000004E-11
DataValue, 0.5, 2, 0, 9.01704E-07, -9.01517E-07, 6.4830000000000005E-12, 9.01704E-07, 6.4830000000000005E-12
DataValue, 1, 2, 0, 1.34108E-06, -1.3412300000000002E-06, 2.092E-12, 1.34108E-06, 2.092E-12
DataValue, 1.5, 2, 0, 1.48969E-06, -1.49062E-06, 4.6320000000000005E-12, 1.48969E-06, 4.6320000000000005E-12
DataValue, 2, 2, 0, 1.52017E-06, -1.5205800000000002E-06, 6.849E-12, 1.52017E-06, 6.849E-12
DataValue, 2.5, 2, 0, 1.5238700000000002E-06, -1.52396E-06, 2.023E-12, 1.5238700000000002E-06, 2.023E-12
DataValue, 3, 2, 0, 1.5238500000000002E-06, -1.5233900000000003E-06, 2.511E-12, 1.5238500000000002E-06, 2.511E-12
DataValue, 3.5, 2, 0, 1.5227800000000001E-06, -1.5228600000000002E-06, 5.845E-12, 1.5227800000000001E-06, 5.845E-12
DataValue, 4, 2, 0, 1.5218900000000001E-06, -1.5218600000000002E-06, 2.349E-12, 1.5218900000000001E-06, 2.349E-12
DataValue, 4.5, 2, 0, 1.5208100000000002E-06, -1.5203600000000003E-06, 1.3960000000000001E-12, 1.5208100000000002E-06, 1.3960000000000001E-12
DataValue, 5, 2, 0, 1.51961E-06, -1.5196300000000002E-06, 5.359E-12, 1.51961E-06, 5.359E-12
DataValue, 0, 3, 0, -1.1686E-09, 8.0931000000000007E-10, 3.23879E-10, 1.1686E-09, 3.23879E-10
DataValue, 0.5, 3, 0, 2.1912300000000003E-06, -2.19041E-06, 1.2856600000000002E-10, 2.1912300000000003E-06, 1.2856600000000002E-10
DataValue, 1, 3, 0, 3.6933300000000003E-06, -3.6942200000000003E-06, 6.8167000000000009E-11, 3.6933300000000003E-06, 6.8167000000000009E-11
DataValue, 1.5, 3, 0, 4.6321300000000005E-06, -4.6359000000000008E-06, 5.0882000000000007E-11, 4.6321300000000005E-06, 5.0882000000000007E-11
DataValue, 2, 3, 0, 5.1610300000000006E-06, -5.1634300000000008E-06, 4.4748E-11, 5.1610300000000006E-06, 4.4748E-11
DataValue, 2.5, 3, 0, 5.4025E-06, -5.40533E-06, 4.1062E-11, 5.4025E-06, 4.1062E-11
DataValue, 3, 3, 0, 5.48579E-06, -5.4875E-06, 3.8565000000000005E-11, 5.48579E-06, 3.8565000000000005E-11
DataValue, 3.5, 3, 0, 5.5084300000000009E-06, -5.50865E-06, 3.9277000000000006E-11, 5.5084300000000009E-06, 3.9277000000000006E-11
DataValue, 4, 3, 0, 5.5163000000000009E-06, -5.5169300000000009E-06, 3.7697E-11, 5.5163000000000009E-06, 3.7697E-11
DataValue, 4.5, 3, 0, 5.5197000000000007E-06, -5.5197000000000007E-06, 3.5721E-11, 5.5197000000000007E-06, 3.5721E-11
DataValue, 5, 3, 0, 5.5205100000000006E-06, -5.5209800000000005E-06, 3.5576000000000006E-11, 5.5205100000000006E-06, 3.5576000000000006E-11
DataValue, 0, 4, 0, -2.52836E-09, 7.5884E-10, 1.65366E-09, 2.52836E-09, 1.65366E-09
DataValue, 0.5, 4, 0, 3.73931E-06, -3.7389900000000003E-06, 8.0777800000000006E-10, 3.73931E-06, 8.0777800000000006E-10
DataValue, 1, 4, 0, 6.66789E-06, -6.6670600000000007E-06, 4.5331200000000003E-10, 6.66789E-06, 4.5331200000000003E-10
DataValue, 1.5, 4, 0, 8.84911E-06, -8.8496100000000015E-06, 3.1196100000000004E-10, 8.84911E-06, 3.1196100000000004E-10
DataValue, 2, 4, 0, 1.03899E-05, -1.0388460000000001E-05, 2.5154600000000004E-10, 1.03899E-05, 2.5154600000000004E-10
DataValue, 2.5, 4, 0, 1.14034E-05, -1.14041E-05, 2.18649E-10, 1.14034E-05, 2.18649E-10
DataValue, 3, 4, 0, 1.20276E-05, -1.20283E-05, 2.0322300000000002E-10, 1.20276E-05, 2.0322300000000002E-10
DataValue, 3.5, 4, 0, 1.23579E-05, -1.23571E-05, 1.9424900000000002E-10, 1.23579E-05, 1.9424900000000002E-10
DataValue, 4, 4, 0, 1.2510300000000001E-05, -1.25067E-05, 1.8669500000000002E-10, 1.2510300000000001E-05, 1.8669500000000002E-10
DataValue, 4.5, 4, 0, 1.25725E-05, -1.25677E-05, 1.83406E-10, 1.25725E-05, 1.83406E-10
DataValue, 5, 4, 0, 1.25982E-05, -1.2593700000000001E-05, 1.7899000000000002E-10, 1.25982E-05, 1.7899000000000002E-10
DataValue, 0, 5, 0, -5.20195E-09, -4.87018E-10, 5.6268E-09, 5.20195E-09, 5.6268E-09
DataValue, 0.5, 5, 0, 5.43048E-06, -5.4309200000000005E-06, 3.18749E-09, 5.43048E-06, 3.18749E-09
DataValue, 1, 5, 0, 9.9626400000000012E-06, -9.96294E-06, 1.96699E-09, 9.9626400000000012E-06, 1.96699E-09
DataValue, 1.5, 5, 0, 1.36395E-05, -1.36311E-05, 1.36014E-09, 1.36395E-05, 1.36014E-09
DataValue, 2, 5, 0, 1.65259E-05, -1.652E-05, 1.04307E-09, 1.65259E-05, 1.04307E-09
DataValue, 2.5, 5, 0, 1.8705E-05, -1.8702200000000002E-05, 8.8458200000000008E-10, 1.8705E-05, 8.8458200000000008E-10
DataValue, 3, 5, 0, 2.02708E-05, -2.02686E-05, 7.9121900000000008E-10, 2.02708E-05, 7.9121900000000008E-10
DataValue, 3.5, 5, 0, 2.13531E-05, -2.13562E-05, 7.2881800000000006E-10, 2.13531E-05, 7.2881800000000006E-10
DataValue, 4, 5, 0, 2.2056E-05, -2.20564E-05, 6.849140000000001E-10, 2.2056E-05, 6.849140000000001E-10
DataValue, 4.5, 5, 0, 2.24655E-05, -2.24654E-05, 6.62268E-10, 2.24655E-05, 6.62268E-10
DataValue, 5, 5, 0, 2.2681200000000002E-05, -2.26803E-05, 6.4108600000000008E-10, 2.2681200000000002E-05, 6.4108600000000008E-10