
SetupTitle, Output
PrimitiveTest, I/V Sweep
TestParameter, Context.MainFrame, 4155C
TestParameter, Channel.UnitType, SMU, SMU, SMU
TestParameter, Channel.Unit, SMU3:MP, SMU1:MP, SMU4:MP
TestParameter, Channel.IName, ID, IS, IG
TestParameter, Channel.VName, VD, VS, VG
TestParameter, Channel.Mode, V, COMMON, V
TestParameter, Channel.Func, VAR1, CONST, VAR2
TestParameter, Channel.Index, 
TestParameter, Channel.Time, 
TestParameter, Measurement.Port.Unit, SMU3:MP, SMU1:MP, SMU4:MP
TestParameter, Measurement.Port.SeriesResistor, NONE, NONE, NONE
TestParameter, Measurement.Port.Filter, ON, ON, ON
TestParameter, Measurement.Primary.Locus, Single
TestParameter, Measurement.Primary.Scale, LINEAR
TestParameter, Measurement.Primary.Start, 0
TestParameter, Measurement.Primary.Stop, 5
TestParameter, Measurement.Primary.Step, 0.5
TestParameter, Measurement.Primary.Compliance, 0.1
TestParameter, Measurement.Primary.PowerCompliance, 0
TestParameter, Measurement.Aborting.Condition, CONTINUE AT ANY
TestParameter, Measurement.PostOutput.Value, START
TestParameter, Measurement.PostOutput.Retention, OFF
TestParameter, Measurement.Secondary.Start, -1
TestParameter, Measurement.Secondary.Count, 7
TestParameter, Measurement.Secondary.Step, 1
TestParameter, Measurement.Secondary.Compliance, 0.1
TestParameter, Measurement.Secondary.PowerCompliance, 0
TestParameter, Measurement.Bias.Source, 0, 0, -1
TestParameter, Measurement.Bias.Compliance, 0.1, 0.1, 0.1
TestParameter, Measurement.Monitor.Unit, SMU3:MP, SMU1:MP, SMU4:MP
TestParameter, Measurement.Monitor.Adc, HR ADC, HR ADC, HR ADC
TestParameter, Measurement.Monitor.RangingMode, AUTO, AUTO, AUTO
TestParameter, Measurement.Monitor.RangeBoundary, , , 
TestParameter, Measurement.Monitor.RangeRating, BY FULL RANGE, BY FULL RANGE, BY FULL RANGE
TestParameter, Measurement.Monitor.RangeRatingCoeff, 50, 50, 50
TestParameter, Measurement.Timing.Hold, 0.5
TestParameter, Measurement.Timing.Delay, 0.05
TestParameter, Measurement.Adc.HighResolution.AutoZero, OFF
TestParameter, Measurement.Adc.HighResolution.Mode, AUTO
TestParameter, Measurement.Adc.HighResolution.Coeff, 1
TestParameter, Measurement.Ag16440ASelector.SemiconductorRelay.Channel1, DEFAULT
TestParameter, Measurement.Ag16440ASelector.SemiconductorRelay.Channel3, DEFAULT
TestParameter, Function.User.Name, absID, absIG
TestParameter, Function.User.Unit, A, A
TestParameter, Function.User.Definition, abs(ID), abs(IG)
TestParameter, Output.Graph.Enabled, true
TestParameter, Output.Graph.XAxis.Data, VD
TestParameter, Output.Graph.XAxis.Scale, Linear
TestParameter, Output.Graph.XAxis.Left, 0
TestParameter, Output.Graph.XAxis.Right, 7
TestParameter, Output.Graph.YAxis.Data, ID
TestParameter, Output.Graph.YAxis.Scale, Linear
TestParameter, Output.Graph.YAxis.Bottom, 1E-14
TestParameter, Output.Graph.YAxis.Top, 0.01
TestParameter, Output.Graph.YAxis.Group, 
TestParameter, Output.List.Data, VG, IG, VD, ID, VS, IS, absIG
TestParameter, AutoAnalysis.Interpolation, false
TestParameter, AutoAnalysis.Line1.Enabled, false
TestParameter, AutoAnalysis.Line1.Type, 1
TestParameter, AutoAnalysis.Line1.Fix, True
TestParameter, AutoAnalysis.Line1.YAxis, 0
TestParameter, AutoAnalysis.Line1.Point1.Type, 0
TestParameter, AutoAnalysis.Line1.Point1.XY.X, 
TestParameter, AutoAnalysis.Line1.Point1.XY.Y, 
TestParameter, AutoAnalysis.Line1.Point1.Data.Var, 
TestParameter, AutoAnalysis.Line1.Point1.Data.Condition, 
TestParameter, AutoAnalysis.Line1.Point1.Data.Start, false
TestParameter, AutoAnalysis.Line1.Point1.Data.StartVar, 
TestParameter, AutoAnalysis.Line1.Point1.Data.StartCondition, 
TestParameter, AutoAnalysis.Line1.Point2.Type, 0
TestParameter, AutoAnalysis.Line1.Point2.XY.X, 
TestParameter, AutoAnalysis.Line1.Point2.XY.Y, 
TestParameter, AutoAnalysis.Line1.Point2.Data.Var, 
TestParameter, AutoAnalysis.Line1.Point2.Data.Condition, 
TestParameter, AutoAnalysis.Line1.Point2.Data.Start, false
TestParameter, AutoAnalysis.Line1.Point2.Data.StartVar, 
TestParameter, AutoAnalysis.Line1.Point2.Data.StartCondition, 
TestParameter, AutoAnalysis.Line1.GradientExpr, 0
TestParameter, AutoAnalysis.Line2.Enabled, false
TestParameter, AutoAnalysis.Line2.Type, 1
TestParameter, AutoAnalysis.Line2.Fix, True
TestParameter, AutoAnalysis.Line2.YAxis, 0
TestParameter, AutoAnalysis.Line2.Point1.Type, 0
TestParameter, AutoAnalysis.Line2.Point1.XY.X, 
TestParameter, AutoAnalysis.Line2.Point1.XY.Y, 
TestParameter, AutoAnalysis.Line2.Point1.Data.Var, 
TestParameter, AutoAnalysis.Line2.Point1.Data.Condition, 
TestParameter, AutoAnalysis.Line2.Point1.Data.Start, false
TestParameter, AutoAnalysis.Line2.Point1.Data.StartVar, 
TestParameter, AutoAnalysis.Line2.Point1.Data.StartCondition, 
TestParameter, AutoAnalysis.Line2.Point2.Type, 0
TestParameter, AutoAnalysis.Line2.Point2.XY.X, 
TestParameter, AutoAnalysis.Line2.Point2.XY.Y, 
TestParameter, AutoAnalysis.Line2.Point2.Data.Var, 
TestParameter, AutoAnalysis.Line2.Point2.Data.Condition, 
TestParameter, AutoAnalysis.Line2.Point2.Data.Start, false
TestParameter, AutoAnalysis.Line2.Point2.Data.StartVar, 
TestParameter, AutoAnalysis.Line2.Point2.Data.StartCondition, 
TestParameter, AutoAnalysis.Line2.GradientExpr, 0
TestParameter, AutoAnalysis.Marker.Enabled, false
TestParameter, AutoAnalysis.Marker.Data.Var, 
TestParameter, AutoAnalysis.Marker.Data.Condition, 
TestParameter, AutoAnalysis.Marker.Data.Start, false
TestParameter, AutoAnalysis.Marker.Data.StartVar, 
TestParameter, AutoAnalysis.Marker.Data.StartCondition, 
MetaData, TestRecord.EntryPoint, true
MetaData, TestRecord.RecordTime, 05/02/2019 13:42:14
MetaData, TestRecord.TestTarget, 150-300-10-5
MetaData, TestRecord.IterationIndex, 1
MetaData, TestRecord.Preservation, true
MetaData, TestRecord.Flag, 
MetaData, TestRecord.Remarks, good
MetaData, TestRecord.LinkKey, c29b4f4f-6c7b-4b4f-bb0d-69528b48c7c4
Dimension1, 11, 11, 11, 11, 11, 11, 11, 11
Dimension2, 7, 7, 7, 7, 7, 7, 7, 7
DataName, VD, VG, VS, ID, IS, IG, absID, absIG
DataValue, 0, -1, 0, 1.8000000000000002E-14, 2.46E-13, 9.3900000000000014E-13, 1.8000000000000002E-14, 9.3900000000000014E-13
DataValue, 0.5, -1, 0, 3.674E-12, -9.73E-13, -6.2700000000000005E-13, 3.674E-12, 6.2700000000000005E-13
DataValue, 1, -1, 0, 1.946E-12, -7.94E-13, -8.8E-14, 1.946E-12, 8.8E-14
DataValue, 1.5, -1, 0, 1.6660000000000002E-12, -3.03E-13, 1.3700000000000002E-13, 1.6660000000000002E-12, 1.3700000000000002E-13
DataValue, 2, -1, 0, 4.365E-12, 3.3750000000000005E-12, -6.7100000000000007E-13, 4.365E-12, 6.7100000000000007E-13
DataValue, 2.5, -1, 0, 3.5610000000000003E-12, -4.4400000000000003E-13, 5.254E-12, 3.5610000000000003E-12, 5.254E-12
DataValue, 3, -1, 0, 4.9370000000000005E-12, 7.094E-12, -1.2624000000000001E-11, 4.9370000000000005E-12, 1.2624000000000001E-11
DataValue, 3.5, -1, 0, -8.1990000000000009E-12, -8.773E-12, 4.45E-13, 8.1990000000000009E-12, 4.45E-13
DataValue, 4, -1, 0, 5.0160000000000004E-12, -6.05E-13, 1.879E-12, 5.0160000000000004E-12, 1.879E-12
DataValue, 4.5, -1, 0, 3.796E-12, -5.5670000000000008E-12, 3.1320000000000004E-12, 3.796E-12, 3.1320000000000004E-12
DataValue, 5, -1, 0, 9.3070000000000014E-12, -8.346E-12, -1.3439E-11, 9.3070000000000014E-12, 1.3439E-11
DataValue, 0, 0, 0, -9.26E-13, 1.291E-12, -1.661E-12, 9.26E-13, 1.661E-12
DataValue, 0.5, 0, 0, 1.06034E-10, -1.04038E-10, -1.084E-12, 1.06034E-10, 1.084E-12
DataValue, 1, 0, 0, 1.12469E-10, -1.1137600000000001E-10, 5.3280000000000007E-12, 1.12469E-10, 5.3280000000000007E-12
DataValue, 1.5, 0, 0, 1.1603400000000001E-10, -1.07776E-10, -2.4840000000000003E-12, 1.1603400000000001E-10, 2.4840000000000003E-12
DataValue, 2, 0, 0, 1.12972E-10, -1.07723E-10, -4.139E-12, 1.12972E-10, 4.139E-12
DataValue, 2.5, 0, 0, 1.14334E-10, -1.0999700000000001E-10, 1.354E-12, 1.14334E-10, 1.354E-12
DataValue, 3, 0, 0, 1.1644300000000001E-10, -1.12868E-10, 2.502E-12, 1.1644300000000001E-10, 2.502E-12
DataValue, 3.5, 0, 0, 1.19349E-10, -1.1082000000000001E-10, -1.402E-12, 1.19349E-10, 1.402E-12
DataValue, 4, 0, 0, 1.19771E-10, -1.1477900000000001E-10, -8.65E-13, 1.19771E-10, 8.65E-13
DataValue, 4.5, 0, 0, 1.22329E-10, -1.1601900000000001E-10, -1.0710000000000002E-12, 1.22329E-10, 1.0710000000000002E-12
DataValue, 5, 0, 0, 1.2397100000000002E-10, -1.17229E-10, -1.807E-12, 1.2397100000000002E-10, 1.807E-12
DataValue, 0, 1, 0, -1.10184E-09, 1.11356E-09, -1.688E-12, 1.10184E-09, 1.688E-12
DataValue, 0.5, 1, 0, 8.44925E-07, -8.41889E-07, 5.67E-13, 8.44925E-07, 5.67E-13
DataValue, 1, 1, 0, 9.95132E-07, -9.93641E-07, 6.8250000000000005E-12, 9.95132E-07, 6.8250000000000005E-12
DataValue, 1.5, 1, 0, 1.00183E-06, -9.99947E-07, 8.2860000000000008E-12, 1.00183E-06, 8.2860000000000008E-12
DataValue, 2, 1, 0, 9.9974000000000019E-07, -9.9903099999999989E-07, 9.0000000000000008E-14, 9.9974000000000019E-07, 9.0000000000000008E-14
DataValue, 2.5, 1, 0, 9.96107E-07, -9.95435E-07, -1.533E-12, 9.96107E-07, 1.533E-12
DataValue, 3, 1, 0, 9.90039E-07, -9.9036199999999988E-07, 2.846E-12, 9.90039E-07, 2.846E-12
DataValue, 3.5, 1, 0, 9.85702E-07, -9.85956E-07, -3.1780000000000004E-12, 9.85702E-07, 3.1780000000000004E-12
DataValue, 4, 1, 0, 9.80179E-07, -9.80872E-07, -6.789E-12, 9.80179E-07, 6.789E-12
DataValue, 4.5, 1, 0, 9.75235E-07, -9.74357E-07, -6.358E-12, 9.75235E-07, 6.358E-12
DataValue, 5, 1, 0, 9.71365E-07, -9.7084E-07, -2.1880000000000004E-12, 9.71365E-07, 2.1880000000000004E-12
DataValue, 0, 2, 0, -2.97998E-09, 2.97762E-09, 4.0030000000000006E-12, 2.97998E-09, 4.0030000000000006E-12
DataValue, 0.5, 2, 0, 3.1837200000000002E-06, -3.1806900000000005E-06, 2.478E-12, 3.1837200000000002E-06, 2.478E-12
DataValue, 1, 2, 0, 5.1590100000000008E-06, -5.15824E-06, 1.003E-12, 5.1590100000000008E-06, 1.003E-12
DataValue, 1.5, 2, 0, 6.1705600000000004E-06, -6.1703300000000004E-06, -1.0410000000000001E-12, 6.1705600000000004E-06, 1.0410000000000001E-12
DataValue, 2, 2, 0, 6.55021E-06, -6.5514300000000009E-06, 5.0400000000000007E-13, 6.55021E-06, 5.0400000000000007E-13
DataValue, 2.5, 2, 0, 6.6572400000000007E-06, -6.65721E-06, 6.15E-13, 6.6572400000000007E-06, 6.15E-13
DataValue, 3, 2, 0, 6.6939500000000005E-06, -6.6926700000000008E-06, 4.89E-13, 6.6939500000000005E-06, 4.89E-13
DataValue, 3.5, 2, 0, 6.7078500000000005E-06, -6.7099500000000009E-06, 1.2520000000000001E-12, 6.7078500000000005E-06, 1.2520000000000001E-12
DataValue, 4, 2, 0, 6.7061700000000007E-06, -6.7081100000000009E-06, -1.1300000000000001E-13, 6.7061700000000007E-06, 1.1300000000000001E-13
DataValue, 4.5, 2, 0, 6.7084000000000009E-06, -6.7085900000000006E-06, 2.21E-12, 6.7084000000000009E-06, 2.21E-12
DataValue, 5, 2, 0, 6.713790000000001E-06, -6.7139400000000005E-06, 1.73E-12, 6.713790000000001E-06, 1.73E-12
DataValue, 0, 3, 0, -4.85226E-09, 4.68579E-09, 2.1395E-11, 4.85226E-09, 2.1395E-11
DataValue, 0.5, 3, 0, 5.9399500000000006E-06, -5.93779E-06, 1.0763E-11, 5.9399500000000006E-06, 1.0763E-11
DataValue, 1, 3, 0, 1.049457E-05, -1.049244E-05, 7.091E-12, 1.049457E-05, 7.091E-12
DataValue, 1.5, 3, 0, 1.3796700000000001E-05, -1.3792700000000001E-05, 6.9640000000000006E-12, 1.3796700000000001E-05, 6.9640000000000006E-12
DataValue, 2, 3, 0, 1.60114E-05, -1.6011E-05, 5.1760000000000006E-12, 1.60114E-05, 5.1760000000000006E-12
DataValue, 2.5, 3, 0, 1.73647E-05, -1.73666E-05, 8.127E-12, 1.73647E-05, 8.127E-12
DataValue, 3, 3, 0, 1.80739E-05, -1.8078100000000002E-05, 5.0340000000000006E-12, 1.80739E-05, 5.0340000000000006E-12
DataValue, 3.5, 3, 0, 1.84049E-05, -1.8407000000000002E-05, 3.0560000000000003E-12, 1.84049E-05, 3.0560000000000003E-12
DataValue, 4, 3, 0, 1.8575600000000002E-05, -1.85732E-05, 6.1650000000000005E-12, 1.8575600000000002E-05, 6.1650000000000005E-12
DataValue, 4.5, 3, 0, 1.86644E-05, -1.86583E-05, 4.617E-12, 1.86644E-05, 4.617E-12
DataValue, 5, 3, 0, 1.8722300000000002E-05, -1.87153E-05, 5.6760000000000005E-12, 1.8722300000000002E-05, 5.6760000000000005E-12
DataValue, 0, 4, 0, -6.47819E-09, 6.382E-09, 9.4207E-11, 6.47819E-09, 9.4207E-11
DataValue, 0.5, 4, 0, 8.9975200000000012E-06, -8.9953900000000013E-06, 5.5166000000000006E-11, 8.9975200000000012E-06, 5.5166000000000006E-11
DataValue, 1, 4, 0, 1.64506E-05, -1.64492E-05, 4.1409E-11, 1.64506E-05, 4.1409E-11
DataValue, 1.5, 4, 0, 2.24839E-05, -2.24795E-05, 3.3207E-11, 2.24839E-05, 3.3207E-11
DataValue, 2, 4, 0, 2.7227000000000002E-05, -2.72297E-05, 2.8486E-11, 2.7227000000000002E-05, 2.8486E-11
DataValue, 2.5, 4, 0, 3.08261E-05, -3.083E-05, 2.9308E-11, 3.08261E-05, 2.9308E-11
DataValue, 3, 4, 0, 3.34466E-05, -3.3448700000000004E-05, 2.8212000000000003E-11, 3.34466E-05, 2.8212000000000003E-11
DataValue, 3.5, 4, 0, 3.52026E-05, -3.52107E-05, 2.4405000000000002E-11, 3.52026E-05, 2.4405000000000002E-11
DataValue, 4, 4, 0, 3.6319600000000004E-05, -3.63271E-05, 2.4296E-11, 3.6319600000000004E-05, 2.4296E-11
DataValue, 4.5, 4, 0, 3.69691E-05, -3.69825E-05, 2.6516E-11, 3.69691E-05, 2.6516E-11
DataValue, 5, 4, 0, 3.73843E-05, -3.73912E-05, 2.766E-11, 3.73843E-05, 2.766E-11
DataValue, 0, 5, 0, -1.0600599999999998E-08, 1.0097E-08, 3.54085E-10, 1.0600599999999998E-08, 3.54085E-10
DataValue, 0.5, 5, 0, 1.22844E-05, -1.22798E-05, 2.10947E-10, 1.22844E-05, 2.10947E-10
DataValue, 1, 5, 0, 2.2908300000000002E-05, -2.29075E-05, 1.5622200000000002E-10, 2.2908300000000002E-05, 1.5622200000000002E-10
DataValue, 1.5, 5, 0, 3.1983800000000004E-05, -3.1980900000000004E-05, 1.31014E-10, 3.1983800000000004E-05, 1.31014E-10
DataValue, 2, 5, 0, 3.96218E-05, -3.9628E-05, 1.33207E-10, 3.96218E-05, 1.33207E-10
DataValue, 2.5, 5, 0, 4.59609E-05, -4.59632E-05, 1.1493600000000001E-10, 4.59609E-05, 1.1493600000000001E-10
DataValue, 3, 5, 0, 5.11079E-05, -5.1109900000000003E-05, 1.15056E-10, 5.11079E-05, 1.15056E-10
DataValue, 3.5, 5, 0, 5.51828E-05, -5.52007E-05, 1.0570900000000001E-10, 5.51828E-05, 1.0570900000000001E-10
DataValue, 4, 5, 0, 5.83277E-05, -5.83367E-05, 1.18139E-10, 5.83277E-05, 1.18139E-10
DataValue, 4.5, 5, 0, 6.06305E-05, -6.0631600000000004E-05, 9.4288000000000013E-11, 6.06305E-05, 9.4288000000000013E-11
DataValue, 5, 5, 0, 6.2240300000000008E-05, -6.2261E-05, 1.0204500000000001E-10, 6.2240300000000008E-05, 1.0204500000000001E-10