
SetupTitle, Output
PrimitiveTest, I/V Sweep
TestParameter, Context.MainFrame, 4155C
TestParameter, Channel.UnitType, SMU, SMU, SMU
TestParameter, Channel.Unit, SMU3:MP, SMU1:MP, SMU4:MP
TestParameter, Channel.IName, ID, IS, IG
TestParameter, Channel.VName, VD, VS, VG
TestParameter, Channel.Mode, V, COMMON, V
TestParameter, Channel.Func, VAR1, CONST, VAR2
TestParameter, Channel.Index, 
TestParameter, Channel.Time, 
TestParameter, Measurement.Port.Unit, SMU3:MP, SMU1:MP, SMU4:MP
TestParameter, Measurement.Port.SeriesResistor, NONE, NONE, NONE
TestParameter, Measurement.Port.Filter, ON, ON, ON
TestParameter, Measurement.Primary.Locus, Single
TestParameter, Measurement.Primary.Scale, LINEAR
TestParameter, Measurement.Primary.Start, 0
TestParameter, Measurement.Primary.Stop, 5
TestParameter, Measurement.Primary.Step, 0.5
TestParameter, Measurement.Primary.Compliance, 0.1
TestParameter, Measurement.Primary.PowerCompliance, 0
TestParameter, Measurement.Aborting.Condition, CONTINUE AT ANY
TestParameter, Measurement.PostOutput.Value, START
TestParameter, Measurement.PostOutput.Retention, OFF
TestParameter, Measurement.Secondary.Start, -1
TestParameter, Measurement.Secondary.Count, 7
TestParameter, Measurement.Secondary.Step, 1
TestParameter, Measurement.Secondary.Compliance, 0.1
TestParameter, Measurement.Secondary.PowerCompliance, 0
TestParameter, Measurement.Bias.Source, 0, 0, -1
TestParameter, Measurement.Bias.Compliance, 0.1, 0.1, 0.1
TestParameter, Measurement.Monitor.Unit, SMU3:MP, SMU1:MP, SMU4:MP
TestParameter, Measurement.Monitor.Adc, HR ADC, HR ADC, HR ADC
TestParameter, Measurement.Monitor.RangingMode, AUTO, AUTO, AUTO
TestParameter, Measurement.Monitor.RangeBoundary, , , 
TestParameter, Measurement.Monitor.RangeRating, BY FULL RANGE, BY FULL RANGE, BY FULL RANGE
TestParameter, Measurement.Monitor.RangeRatingCoeff, 50, 50, 50
TestParameter, Measurement.Timing.Hold, 0.5
TestParameter, Measurement.Timing.Delay, 0.05
TestParameter, Measurement.Adc.HighResolution.AutoZero, OFF
TestParameter, Measurement.Adc.HighResolution.Mode, AUTO
TestParameter, Measurement.Adc.HighResolution.Coeff, 1
TestParameter, Measurement.Ag16440ASelector.SemiconductorRelay.Channel1, DEFAULT
TestParameter, Measurement.Ag16440ASelector.SemiconductorRelay.Channel3, DEFAULT
TestParameter, Function.User.Name, absID, absIG
TestParameter, Function.User.Unit, A, A
TestParameter, Function.User.Definition, abs(ID), abs(IG)
TestParameter, Output.Graph.Enabled, true
TestParameter, Output.Graph.XAxis.Data, VD
TestParameter, Output.Graph.XAxis.Scale, Linear
TestParameter, Output.Graph.XAxis.Left, 0
TestParameter, Output.Graph.XAxis.Right, 7
TestParameter, Output.Graph.YAxis.Data, ID
TestParameter, Output.Graph.YAxis.Scale, Linear
TestParameter, Output.Graph.YAxis.Bottom, 1E-14
TestParameter, Output.Graph.YAxis.Top, 0.01
TestParameter, Output.Graph.YAxis.Group, 
TestParameter, Output.List.Data, VG, IG, VD, ID, VS, IS, absIG
TestParameter, AutoAnalysis.Interpolation, false
TestParameter, AutoAnalysis.Line1.Enabled, false
TestParameter, AutoAnalysis.Line1.Type, 1
TestParameter, AutoAnalysis.Line1.Fix, True
TestParameter, AutoAnalysis.Line1.YAxis, 0
TestParameter, AutoAnalysis.Line1.Point1.Type, 0
TestParameter, AutoAnalysis.Line1.Point1.XY.X, 
TestParameter, AutoAnalysis.Line1.Point1.XY.Y, 
TestParameter, AutoAnalysis.Line1.Point1.Data.Var, 
TestParameter, AutoAnalysis.Line1.Point1.Data.Condition, 
TestParameter, AutoAnalysis.Line1.Point1.Data.Start, false
TestParameter, AutoAnalysis.Line1.Point1.Data.StartVar, 
TestParameter, AutoAnalysis.Line1.Point1.Data.StartCondition, 
TestParameter, AutoAnalysis.Line1.Point2.Type, 0
TestParameter, AutoAnalysis.Line1.Point2.XY.X, 
TestParameter, AutoAnalysis.Line1.Point2.XY.Y, 
TestParameter, AutoAnalysis.Line1.Point2.Data.Var, 
TestParameter, AutoAnalysis.Line1.Point2.Data.Condition, 
TestParameter, AutoAnalysis.Line1.Point2.Data.Start, false
TestParameter, AutoAnalysis.Line1.Point2.Data.StartVar, 
TestParameter, AutoAnalysis.Line1.Point2.Data.StartCondition, 
TestParameter, AutoAnalysis.Line1.GradientExpr, 0
TestParameter, AutoAnalysis.Line2.Enabled, false
TestParameter, AutoAnalysis.Line2.Type, 1
TestParameter, AutoAnalysis.Line2.Fix, True
TestParameter, AutoAnalysis.Line2.YAxis, 0
TestParameter, AutoAnalysis.Line2.Point1.Type, 0
TestParameter, AutoAnalysis.Line2.Point1.XY.X, 
TestParameter, AutoAnalysis.Line2.Point1.XY.Y, 
TestParameter, AutoAnalysis.Line2.Point1.Data.Var, 
TestParameter, AutoAnalysis.Line2.Point1.Data.Condition, 
TestParameter, AutoAnalysis.Line2.Point1.Data.Start, false
TestParameter, AutoAnalysis.Line2.Point1.Data.StartVar, 
TestParameter, AutoAnalysis.Line2.Point1.Data.StartCondition, 
TestParameter, AutoAnalysis.Line2.Point2.Type, 0
TestParameter, AutoAnalysis.Line2.Point2.XY.X, 
TestParameter, AutoAnalysis.Line2.Point2.XY.Y, 
TestParameter, AutoAnalysis.Line2.Point2.Data.Var, 
TestParameter, AutoAnalysis.Line2.Point2.Data.Condition, 
TestParameter, AutoAnalysis.Line2.Point2.Data.Start, false
TestParameter, AutoAnalysis.Line2.Point2.Data.StartVar, 
TestParameter, AutoAnalysis.Line2.Point2.Data.StartCondition, 
TestParameter, AutoAnalysis.Line2.GradientExpr, 0
TestParameter, AutoAnalysis.Marker.Enabled, false
TestParameter, AutoAnalysis.Marker.Data.Var, 
TestParameter, AutoAnalysis.Marker.Data.Condition, 
TestParameter, AutoAnalysis.Marker.Data.Start, false
TestParameter, AutoAnalysis.Marker.Data.StartVar, 
TestParameter, AutoAnalysis.Marker.Data.StartCondition, 
MetaData, TestRecord.EntryPoint, true
MetaData, TestRecord.RecordTime, 05/02/2019 16:04:32
MetaData, TestRecord.TestTarget, br-br-100-20
MetaData, TestRecord.IterationIndex, 1
MetaData, TestRecord.Preservation, true
MetaData, TestRecord.Flag, 
MetaData, TestRecord.Remarks, good
MetaData, TestRecord.LinkKey, 41cca15f-9a39-48a1-88d7-d885fb543e1a
Dimension1, 11, 11, 11, 11, 11, 11, 11, 11
Dimension2, 7, 7, 7, 7, 7, 7, 7, 7
DataName, VD, VG, VS, ID, IS, IG, absID, absIG
DataValue, 0, -1, 0, 6.9100000000000008E-13, 4.1E-13, -3.7300000000000003E-13, 6.9100000000000008E-13, 3.7300000000000003E-13
DataValue, 0.5, -1, 0, 3.2850000000000002E-12, -1.8600000000000002E-13, 5.7300000000000008E-13, 3.2850000000000002E-12, 5.7300000000000008E-13
DataValue, 1, -1, 0, 6.12E-13, -4.21E-13, -6.0000000000000005E-15, 6.12E-13, 6.0000000000000005E-15
DataValue, 1.5, -1, 0, 2.7800000000000003E-13, 6.2E-14, -3.15E-13, 2.7800000000000003E-13, 3.15E-13
DataValue, 2, -1, 0, 5.0400000000000007E-13, 2.5300000000000003E-13, -3.16E-13, 5.0400000000000007E-13, 3.16E-13
DataValue, 2.5, -1, 0, 1.4900000000000002E-13, 1.1E-14, -2.1900000000000003E-13, 1.4900000000000002E-13, 2.1900000000000003E-13
DataValue, 3, -1, 0, 6.55E-13, 2.6000000000000003E-14, -5.41E-13, 6.55E-13, 5.41E-13
DataValue, 3.5, -1, 0, 6.58E-13, 2.7400000000000004E-13, -3.5600000000000005E-13, 6.58E-13, 3.5600000000000005E-13
DataValue, 4, -1, 0, 7.23E-13, -3.0000000000000005E-14, -1.58E-13, 7.23E-13, 1.58E-13
DataValue, 4.5, -1, 0, 1.203E-12, 2.2100000000000002E-13, 3.38E-13, 1.203E-12, 3.38E-13
DataValue, 5, -1, 0, 5.7200000000000009E-13, 1.63E-13, 3.99E-13, 5.7200000000000009E-13, 3.99E-13
DataValue, 0, 0, 0, -4.4200000000000004E-13, 2.1600000000000001E-13, 5.35E-13, 4.4200000000000004E-13, 5.35E-13
DataValue, 0.5, 0, 0, 1.6718E-11, -1.6435000000000003E-11, 4.48E-13, 1.6718E-11, 4.48E-13
DataValue, 1, 0, 0, 1.7669E-11, -1.7236E-11, 1.83E-13, 1.7669E-11, 1.83E-13
DataValue, 1.5, 0, 0, 1.8580000000000002E-11, -1.7646000000000003E-11, 4.66E-13, 1.8580000000000002E-11, 4.66E-13
DataValue, 2, 0, 0, 1.8871E-11, -1.8164E-11, 3.42E-13, 1.8871E-11, 3.42E-13
DataValue, 2.5, 0, 0, 1.9070000000000002E-11, -1.8457E-11, 8.3000000000000012E-14, 1.9070000000000002E-11, 8.3000000000000012E-14
DataValue, 3, 0, 0, 1.9225E-11, -1.8764E-11, -2.0900000000000002E-13, 1.9225E-11, 2.0900000000000002E-13
DataValue, 3.5, 0, 0, 1.9779000000000003E-11, -1.9207E-11, -3.31E-13, 1.9779000000000003E-11, 3.31E-13
DataValue, 4, 0, 0, 1.9949E-11, -1.9534E-11, -7.1E-14, 1.9949E-11, 7.1E-14
DataValue, 4.5, 0, 0, 2.0854000000000003E-11, -1.9827E-11, -4.1E-14, 2.0854000000000003E-11, 4.1E-14
DataValue, 5, 0, 0, 2.0747000000000003E-11, -2.0243000000000002E-11, -3.31E-13, 2.0747000000000003E-11, 3.31E-13
DataValue, 0, 1, 0, -2.1847000000000002E-10, 2.1464700000000003E-10, 2.36E-13, 2.1847000000000002E-10, 2.36E-13
DataValue, 0.5, 1, 0, 1.65944E-07, -1.66694E-07, 5.0600000000000007E-13, 1.65944E-07, 5.0600000000000007E-13
DataValue, 1, 1, 0, 1.79713E-07, -1.80061E-07, 1.3200000000000002E-13, 1.79713E-07, 1.3200000000000002E-13
DataValue, 1.5, 1, 0, 1.81178E-07, -1.81148E-07, -1.0800000000000001E-13, 1.81178E-07, 1.0800000000000001E-13
DataValue, 2, 1, 0, 1.81099E-07, -1.81047E-07, 3.2200000000000004E-13, 1.81099E-07, 3.2200000000000004E-13
DataValue, 2.5, 1, 0, 1.8073699999999999E-07, -1.8054E-07, 4.46E-13, 1.8073699999999999E-07, 4.46E-13
DataValue, 3, 1, 0, 1.7984E-07, -1.7970799999999998E-07, 1.8400000000000002E-13, 1.7984E-07, 1.8400000000000002E-13
DataValue, 3.5, 1, 0, 1.78972E-07, -1.78861E-07, 5.8E-14, 1.78972E-07, 5.8E-14
DataValue, 4, 1, 0, 1.78252E-07, -1.78137E-07, -1.8000000000000002E-13, 1.78252E-07, 1.8000000000000002E-13
DataValue, 4.5, 1, 0, 1.7755999999999998E-07, -1.77311E-07, -4.1800000000000004E-13, 1.7755999999999998E-07, 4.1800000000000004E-13
DataValue, 5, 1, 0, 1.76704E-07, -1.76685E-07, -5.44E-13, 1.76704E-07, 5.44E-13
DataValue, 0, 2, 0, -1.02704E-09, 1.04764E-09, 3.41E-13, 1.02704E-09, 3.41E-13
DataValue, 0.5, 2, 0, 1.27661E-06, -1.2751200000000002E-06, 4.4300000000000003E-13, 1.27661E-06, 4.4300000000000003E-13
DataValue, 1, 2, 0, 1.8632400000000003E-06, -1.8649000000000001E-06, 2.48E-13, 1.8632400000000003E-06, 2.48E-13
DataValue, 1.5, 2, 0, 2.0545400000000002E-06, -2.05638E-06, 4.48E-13, 2.0545400000000002E-06, 4.48E-13
DataValue, 2, 2, 0, 2.0944800000000003E-06, -2.0952900000000002E-06, 3.14E-13, 2.0944800000000003E-06, 3.14E-13
DataValue, 2.5, 2, 0, 2.10256E-06, -2.10276E-06, 2.81E-13, 2.10256E-06, 2.81E-13
DataValue, 3, 2, 0, 2.10256E-06, -2.1023200000000003E-06, 6.5E-14, 2.10256E-06, 6.5E-14
DataValue, 3.5, 2, 0, 2.09946E-06, -2.09981E-06, 2.36E-13, 2.09946E-06, 2.36E-13
DataValue, 4, 2, 0, 2.0961100000000004E-06, -2.09579E-06, 2.33E-13, 2.0961100000000004E-06, 2.33E-13
DataValue, 4.5, 2, 0, 2.0935000000000004E-06, -2.09283E-06, -1.87E-13, 2.0935000000000004E-06, 1.87E-13
DataValue, 5, 2, 0, 2.08855E-06, -2.0881900000000003E-06, -4.1600000000000004E-13, 2.08855E-06, 4.1600000000000004E-13
DataValue, 0, 3, 0, -2.3043E-09, 2.30272E-09, -4.36E-13, 2.3043E-09, 4.36E-13
DataValue, 0.5, 3, 0, 3.0683000000000003E-06, -3.06498E-06, -4.2600000000000005E-13, 3.0683000000000003E-06, 4.2600000000000005E-13
DataValue, 1, 3, 0, 5.10966E-06, -5.1089200000000009E-06, -4.5600000000000008E-13, 5.10966E-06, 4.5600000000000008E-13
DataValue, 1.5, 3, 0, 6.31657E-06, -6.316860000000001E-06, -4.1E-13, 6.31657E-06, 4.1E-13
DataValue, 2, 3, 0, 6.928E-06, -6.9295800000000008E-06, -4.95E-13, 6.928E-06, 4.95E-13
DataValue, 2.5, 3, 0, 7.17985E-06, -7.1818900000000008E-06, -3.77E-13, 7.17985E-06, 3.77E-13
DataValue, 3, 3, 0, 7.260730000000001E-06, -7.2613800000000008E-06, -3.51E-13, 7.260730000000001E-06, 3.51E-13
DataValue, 3.5, 3, 0, 7.2800600000000006E-06, -7.2799100000000011E-06, -4.1800000000000004E-13, 7.2800600000000006E-06, 4.1800000000000004E-13
DataValue, 4, 3, 0, 7.2844300000000005E-06, -7.2826500000000005E-06, -2.23E-13, 7.2844300000000005E-06, 2.23E-13
DataValue, 4.5, 3, 0, 7.281410000000001E-06, -7.2799800000000009E-06, -2.0200000000000002E-13, 7.281410000000001E-06, 2.0200000000000002E-13
DataValue, 5, 3, 0, 7.2769200000000011E-06, -7.2755100000000008E-06, -1.0500000000000001E-13, 7.2769200000000011E-06, 1.0500000000000001E-13
DataValue, 0, 4, 0, -3.60878E-09, 3.51121E-09, -2.0100000000000003E-13, 3.60878E-09, 2.0100000000000003E-13
DataValue, 0.5, 4, 0, 5.1677400000000008E-06, -5.1608600000000006E-06, -4.5400000000000003E-13, 5.1677400000000008E-06, 4.5400000000000003E-13
DataValue, 1, 4, 0, 9.0931700000000009E-06, -9.0883100000000014E-06, -1.06E-13, 9.0931700000000009E-06, 1.06E-13
DataValue, 1.5, 4, 0, 1.1889900000000001E-05, -1.18784E-05, -4.45E-13, 1.1889900000000001E-05, 4.45E-13
DataValue, 2, 4, 0, 1.3736400000000001E-05, -1.37307E-05, -2.81E-13, 1.3736400000000001E-05, 2.81E-13
DataValue, 2.5, 4, 0, 1.48524E-05, -1.48495E-05, -2.93E-13, 1.48524E-05, 2.93E-13
DataValue, 3, 4, 0, 1.5449700000000002E-05, -1.5446400000000002E-05, -2.8E-14, 1.5449700000000002E-05, 2.8E-14
DataValue, 3.5, 4, 0, 1.57224E-05, -1.57195E-05, -2.2800000000000004E-13, 1.57224E-05, 2.2800000000000004E-13
DataValue, 4, 4, 0, 1.58302E-05, -1.5825200000000002E-05, 3.7E-14, 1.58302E-05, 3.7E-14
DataValue, 4.5, 4, 0, 1.58598E-05, -1.58527E-05, -2.7400000000000004E-13, 1.58598E-05, 2.7400000000000004E-13
DataValue, 5, 4, 0, 1.5859100000000002E-05, -1.5855E-05, -4E-13, 1.5859100000000002E-05, 4E-13
DataValue, 0, 5, 0, -4.55281E-09, 4.55172E-09, -5.3760000000000005E-12, 4.55281E-09, 5.3760000000000005E-12
DataValue, 0.5, 5, 0, 7.3231300000000006E-06, -7.3101200000000011E-06, 2.1160000000000003E-12, 7.3231300000000006E-06, 2.1160000000000003E-12
DataValue, 1, 5, 0, 1.3216400000000001E-05, -1.3197000000000001E-05, 1.105E-12, 1.3216400000000001E-05, 1.105E-12
DataValue, 1.5, 5, 0, 1.78182E-05, -1.7805900000000002E-05, 1.2940000000000001E-12, 1.78182E-05, 1.2940000000000001E-12
DataValue, 2, 5, 0, 2.12575E-05, -2.12449E-05, -4.4050000000000007E-12, 2.12575E-05, 4.4050000000000007E-12
DataValue, 2.5, 5, 0, 2.3673300000000003E-05, -2.36612E-05, 2.5390000000000004E-12, 2.3673300000000003E-05, 2.5390000000000004E-12
DataValue, 3, 5, 0, 2.52566E-05, -2.5248E-05, -3.86E-13, 2.52566E-05, 3.86E-13
DataValue, 3.5, 5, 0, 2.62078E-05, -2.6201100000000002E-05, 2.294E-12, 2.62078E-05, 2.294E-12
DataValue, 4, 5, 0, 2.6728100000000002E-05, -2.6721900000000002E-05, 7.100000000000001E-13, 2.6728100000000002E-05, 7.100000000000001E-13
DataValue, 4.5, 5, 0, 2.69811E-05, -2.69747E-05, -4.719E-12, 2.69811E-05, 4.719E-12
DataValue, 5, 5, 0, 2.70768E-05, -2.70706E-05, 3.576E-12, 2.70768E-05, 3.576E-12