
SetupTitle, Output
PrimitiveTest, I/V Sweep
TestParameter, Context.MainFrame, 4155C
TestParameter, Channel.UnitType, SMU, SMU, SMU
TestParameter, Channel.Unit, SMU3:MP, SMU1:MP, SMU4:MP
TestParameter, Channel.IName, ID, IS, IG
TestParameter, Channel.VName, VD, VS, VG
TestParameter, Channel.Mode, V, COMMON, V
TestParameter, Channel.Func, VAR1, CONST, VAR2
TestParameter, Channel.Index, 
TestParameter, Channel.Time, 
TestParameter, Measurement.Port.Unit, SMU3:MP, SMU1:MP, SMU4:MP
TestParameter, Measurement.Port.SeriesResistor, NONE, NONE, NONE
TestParameter, Measurement.Port.Filter, ON, ON, ON
TestParameter, Measurement.Primary.Locus, Single
TestParameter, Measurement.Primary.Scale, LINEAR
TestParameter, Measurement.Primary.Start, 0
TestParameter, Measurement.Primary.Stop, 5
TestParameter, Measurement.Primary.Step, 0.5
TestParameter, Measurement.Primary.Compliance, 0.1
TestParameter, Measurement.Primary.PowerCompliance, 0
TestParameter, Measurement.Aborting.Condition, CONTINUE AT ANY
TestParameter, Measurement.PostOutput.Value, START
TestParameter, Measurement.PostOutput.Retention, OFF
TestParameter, Measurement.Secondary.Start, -1
TestParameter, Measurement.Secondary.Count, 7
TestParameter, Measurement.Secondary.Step, 1
TestParameter, Measurement.Secondary.Compliance, 0.1
TestParameter, Measurement.Secondary.PowerCompliance, 0
TestParameter, Measurement.Bias.Source, 0, 0, -1
TestParameter, Measurement.Bias.Compliance, 0.1, 0.1, 0.1
TestParameter, Measurement.Monitor.Unit, SMU3:MP, SMU1:MP, SMU4:MP
TestParameter, Measurement.Monitor.Adc, HR ADC, HR ADC, HR ADC
TestParameter, Measurement.Monitor.RangingMode, AUTO, AUTO, AUTO
TestParameter, Measurement.Monitor.RangeBoundary, , , 
TestParameter, Measurement.Monitor.RangeRating, BY FULL RANGE, BY FULL RANGE, BY FULL RANGE
TestParameter, Measurement.Monitor.RangeRatingCoeff, 50, 50, 50
TestParameter, Measurement.Timing.Hold, 0.5
TestParameter, Measurement.Timing.Delay, 0.05
TestParameter, Measurement.Adc.HighResolution.AutoZero, OFF
TestParameter, Measurement.Adc.HighResolution.Mode, AUTO
TestParameter, Measurement.Adc.HighResolution.Coeff, 1
TestParameter, Measurement.Ag16440ASelector.SemiconductorRelay.Channel1, DEFAULT
TestParameter, Measurement.Ag16440ASelector.SemiconductorRelay.Channel3, DEFAULT
TestParameter, Function.User.Name, absID, absIG
TestParameter, Function.User.Unit, A, A
TestParameter, Function.User.Definition, abs(ID), abs(IG)
TestParameter, Output.Graph.Enabled, true
TestParameter, Output.Graph.XAxis.Data, VD
TestParameter, Output.Graph.XAxis.Scale, Linear
TestParameter, Output.Graph.XAxis.Left, 0
TestParameter, Output.Graph.XAxis.Right, 7
TestParameter, Output.Graph.YAxis.Data, ID
TestParameter, Output.Graph.YAxis.Scale, Linear
TestParameter, Output.Graph.YAxis.Bottom, 1E-14
TestParameter, Output.Graph.YAxis.Top, 0.01
TestParameter, Output.Graph.YAxis.Group, 
TestParameter, Output.List.Data, VG, IG, VD, ID, VS, IS, absIG
TestParameter, AutoAnalysis.Interpolation, false
TestParameter, AutoAnalysis.Line1.Enabled, false
TestParameter, AutoAnalysis.Line1.Type, 1
TestParameter, AutoAnalysis.Line1.Fix, True
TestParameter, AutoAnalysis.Line1.YAxis, 0
TestParameter, AutoAnalysis.Line1.Point1.Type, 0
TestParameter, AutoAnalysis.Line1.Point1.XY.X, 
TestParameter, AutoAnalysis.Line1.Point1.XY.Y, 
TestParameter, AutoAnalysis.Line1.Point1.Data.Var, 
TestParameter, AutoAnalysis.Line1.Point1.Data.Condition, 
TestParameter, AutoAnalysis.Line1.Point1.Data.Start, false
TestParameter, AutoAnalysis.Line1.Point1.Data.StartVar, 
TestParameter, AutoAnalysis.Line1.Point1.Data.StartCondition, 
TestParameter, AutoAnalysis.Line1.Point2.Type, 0
TestParameter, AutoAnalysis.Line1.Point2.XY.X, 
TestParameter, AutoAnalysis.Line1.Point2.XY.Y, 
TestParameter, AutoAnalysis.Line1.Point2.Data.Var, 
TestParameter, AutoAnalysis.Line1.Point2.Data.Condition, 
TestParameter, AutoAnalysis.Line1.Point2.Data.Start, false
TestParameter, AutoAnalysis.Line1.Point2.Data.StartVar, 
TestParameter, AutoAnalysis.Line1.Point2.Data.StartCondition, 
TestParameter, AutoAnalysis.Line1.GradientExpr, 0
TestParameter, AutoAnalysis.Line2.Enabled, false
TestParameter, AutoAnalysis.Line2.Type, 1
TestParameter, AutoAnalysis.Line2.Fix, True
TestParameter, AutoAnalysis.Line2.YAxis, 0
TestParameter, AutoAnalysis.Line2.Point1.Type, 0
TestParameter, AutoAnalysis.Line2.Point1.XY.X, 
TestParameter, AutoAnalysis.Line2.Point1.XY.Y, 
TestParameter, AutoAnalysis.Line2.Point1.Data.Var, 
TestParameter, AutoAnalysis.Line2.Point1.Data.Condition, 
TestParameter, AutoAnalysis.Line2.Point1.Data.Start, false
TestParameter, AutoAnalysis.Line2.Point1.Data.StartVar, 
TestParameter, AutoAnalysis.Line2.Point1.Data.StartCondition, 
TestParameter, AutoAnalysis.Line2.Point2.Type, 0
TestParameter, AutoAnalysis.Line2.Point2.XY.X, 
TestParameter, AutoAnalysis.Line2.Point2.XY.Y, 
TestParameter, AutoAnalysis.Line2.Point2.Data.Var, 
TestParameter, AutoAnalysis.Line2.Point2.Data.Condition, 
TestParameter, AutoAnalysis.Line2.Point2.Data.Start, false
TestParameter, AutoAnalysis.Line2.Point2.Data.StartVar, 
TestParameter, AutoAnalysis.Line2.Point2.Data.StartCondition, 
TestParameter, AutoAnalysis.Line2.GradientExpr, 0
TestParameter, AutoAnalysis.Marker.Enabled, false
TestParameter, AutoAnalysis.Marker.Data.Var, 
TestParameter, AutoAnalysis.Marker.Data.Condition, 
TestParameter, AutoAnalysis.Marker.Data.Start, false
TestParameter, AutoAnalysis.Marker.Data.StartVar, 
TestParameter, AutoAnalysis.Marker.Data.StartCondition, 
MetaData, TestRecord.EntryPoint, true
MetaData, TestRecord.RecordTime, 05/02/2019 17:24:30
MetaData, TestRecord.TestTarget, br-br-100-5
MetaData, TestRecord.IterationIndex, 1
MetaData, TestRecord.Preservation, true
MetaData, TestRecord.Flag, 
MetaData, TestRecord.Remarks, good
MetaData, TestRecord.LinkKey, 2eb4aa41-9886-4fb5-a9f7-264340be7df4
Dimension1, 11, 11, 11, 11, 11, 11, 11, 11
Dimension2, 7, 7, 7, 7, 7, 7, 7, 7
DataName, VD, VG, VS, ID, IS, IG, absID, absIG
DataValue, 0, -1, 0, 2.069E-12, 2.2170000000000003E-12, -3.6280000000000003E-12, 2.069E-12, 3.6280000000000003E-12
DataValue, 0.5, -1, 0, 8.9710000000000013E-12, 1.696E-12, -1.0408E-11, 8.9710000000000013E-12, 1.0408E-11
DataValue, 1, -1, 0, 2.8050000000000003E-11, 1.59E-12, -2.7063E-11, 2.8050000000000003E-11, 2.7063E-11
DataValue, 1.5, -1, 0, 5.1124E-11, 6.7300000000000006E-13, -4.9425000000000006E-11, 5.1124E-11, 4.9425000000000006E-11
DataValue, 2, -1, 0, 7.4462000000000011E-11, 7.95E-13, -6.7618E-11, 7.4462000000000011E-11, 6.7618E-11
DataValue, 2.5, -1, 0, 8.6717000000000012E-11, 4.21E-13, -7.9929000000000006E-11, 8.6717000000000012E-11, 7.9929000000000006E-11
DataValue, 3, -1, 0, 1.03572E-10, -2.1000000000000001E-13, -9.4201E-11, 1.03572E-10, 9.4201E-11
DataValue, 3.5, -1, 0, 1.25481E-10, -4.2700000000000005E-13, -1.19482E-10, 1.25481E-10, 1.19482E-10
DataValue, 4, -1, 0, 1.7050400000000001E-10, -7.6800000000000006E-13, -1.68508E-10, 1.7050400000000001E-10, 1.68508E-10
DataValue, 4.5, -1, 0, 2.2922500000000003E-10, -1.253E-12, -2.2528500000000001E-10, 2.2922500000000003E-10, 2.2528500000000001E-10
DataValue, 5, -1, 0, 2.7288999999999995E-09, -1.1060000000000001E-12, -2.40514E-09, 2.7288999999999995E-09, 2.40514E-09
DataValue, 0, 0, 0, -2.5488000000000003E-11, 2.2724000000000002E-11, 1.439E-12, 2.5488000000000003E-11, 1.439E-12
DataValue, 0.5, 0, 0, 1.2823699999999998E-08, -1.2247699999999999E-08, -4.0700000000000003E-13, 1.2823699999999998E-08, 4.0700000000000003E-13
DataValue, 1, 0, 0, 1.1402799999999999E-08, -1.1213199999999999E-08, -1.347E-12, 1.1402799999999999E-08, 1.347E-12
DataValue, 1.5, 0, 0, 1.0635199999999998E-08, -1.0650099999999998E-08, -4.988E-12, 1.0635199999999998E-08, 4.988E-12
DataValue, 2, 0, 0, 1.00099E-08, -9.9239E-09, -2.0127000000000003E-11, 1.00099E-08, 2.0127000000000003E-11
DataValue, 2.5, 0, 0, 9.35662E-09, -9.17656E-09, -4.9280000000000003E-11, 9.35662E-09, 4.9280000000000003E-11
DataValue, 3, 0, 0, 8.71068E-09, -8.50548E-09, -1.7976700000000002E-10, 8.71068E-09, 1.7976700000000002E-10
DataValue, 3.5, 0, 0, 8.14255E-09, -7.98003E-09, -2.1014E-10, 8.14255E-09, 2.1014E-10
DataValue, 4, 0, 0, 7.90046E-09, -7.57374E-09, -3.05053E-10, 7.90046E-09, 3.05053E-10
DataValue, 4.5, 0, 0, 8.23383E-09, -7.17459E-09, -9.45828E-10, 8.23383E-09, 9.45828E-10
DataValue, 5, 0, 0, 7.41498E-09, -6.8289E-09, -5.5335200000000008E-10, 7.41498E-09, 5.5335200000000008E-10
DataValue, 0, 1, 0, -6.6464900000000007E-10, 5.4573200000000005E-10, 9.3081000000000012E-11, 6.6464900000000007E-10, 9.3081000000000012E-11
DataValue, 0.5, 1, 0, 7.4294E-07, -7.15E-07, 5.3920000000000005E-12, 7.4294E-07, 5.3920000000000005E-12
DataValue, 1, 1, 0, 7.75716E-07, -7.7223E-07, 1.8450000000000003E-12, 7.75716E-07, 1.8450000000000003E-12
DataValue, 1.5, 1, 0, 7.3809E-07, -7.29E-07, 8.8500000000000007E-13, 7.3809E-07, 8.8500000000000007E-13
DataValue, 2, 1, 0, 6.94711E-07, -6.89801E-07, -4.1800000000000004E-13, 6.94711E-07, 4.1800000000000004E-13
DataValue, 2.5, 1, 0, 6.68029E-07, -6.70696E-07, -3.9660000000000007E-12, 6.68029E-07, 3.9660000000000007E-12
DataValue, 3, 1, 0, 6.47117E-07, -6.3942599999999994E-07, -1.6453000000000002E-11, 6.47117E-07, 1.6453000000000002E-11
DataValue, 3.5, 1, 0, 6.13808E-07, -6.09942E-07, -3.7348E-11, 6.13808E-07, 3.7348E-11
DataValue, 4, 1, 0, 5.99965E-07, -5.94346E-07, -1.0561800000000002E-10, 5.99965E-07, 1.0561800000000002E-10
DataValue, 4.5, 1, 0, 5.77589E-07, -5.75117E-07, -3.0449E-10, 5.77589E-07, 3.0449E-10
DataValue, 5, 1, 0, 5.61166E-07, -5.61211E-07, -2.73189E-10, 5.61166E-07, 2.73189E-10
DataValue, 0, 2, 0, -9.4804E-09, 3.59646E-09, 4.6169E-09, 9.4804E-09, 4.6169E-09
DataValue, 0.5, 2, 0, 1.23985E-05, -1.2131700000000001E-05, 1.03182E-09, 1.23985E-05, 1.03182E-09
DataValue, 1, 2, 0, 1.6376E-05, -1.6124E-05, 9.5930000000000011E-11, 1.6376E-05, 9.5930000000000011E-11
DataValue, 1.5, 2, 0, 1.66838E-05, -1.6543600000000002E-05, 2.8605E-11, 1.66838E-05, 2.8605E-11
DataValue, 2, 2, 0, 1.6569800000000002E-05, -1.6461700000000002E-05, 1.9299000000000002E-11, 1.6569800000000002E-05, 1.9299000000000002E-11
DataValue, 2.5, 2, 0, 1.62158E-05, -1.61397E-05, 1.1402E-11, 1.62158E-05, 1.1402E-11
DataValue, 3, 2, 0, 1.59081E-05, -1.5862200000000002E-05, -1.258E-12, 1.59081E-05, 1.258E-12
DataValue, 3.5, 2, 0, 1.56126E-05, -1.5556100000000002E-05, 1.4031000000000001E-11, 1.56126E-05, 1.4031000000000001E-11
DataValue, 4, 2, 0, 1.5378500000000002E-05, -1.53194E-05, -2.4621000000000003E-11, 1.5378500000000002E-05, 2.4621000000000003E-11
DataValue, 4.5, 2, 0, 1.51581E-05, -1.51281E-05, -3.5764E-11, 1.51581E-05, 3.5764E-11
DataValue, 5, 2, 0, 1.49967E-05, -1.4984900000000001E-05, -5.5190000000000005E-11, 1.49967E-05, 5.5190000000000005E-11
DataValue, 0, 3, 0, -3.84702E-08, 1.63728E-09, 3.4016299999999995E-08, 3.84702E-08, 3.4016299999999995E-08
DataValue, 0.5, 3, 0, 3.4239E-05, -3.41777E-05, 1.4828599999999998E-08, 3.4239E-05, 1.4828599999999998E-08
DataValue, 1, 3, 0, 5.85344E-05, -5.8428200000000004E-05, 4.51964E-09, 5.85344E-05, 4.51964E-09
DataValue, 1.5, 3, 0, 7.41838E-05, -7.38885E-05, 9.96107E-10, 7.41838E-05, 9.96107E-10
DataValue, 2, 3, 0, 8.2018500000000008E-05, -8.16294E-05, 3.07889E-10, 8.2018500000000008E-05, 3.07889E-10
DataValue, 2.5, 3, 0, 8.52377E-05, -8.48872E-05, 1.8879600000000003E-10, 8.52377E-05, 1.8879600000000003E-10
DataValue, 3, 3, 0, 8.58522E-05, -8.55678E-05, 1.4505400000000001E-10, 8.58522E-05, 1.4505400000000001E-10
DataValue, 3.5, 3, 0, 8.5659E-05, -8.54531E-05, 1.2893000000000001E-10, 8.5659E-05, 1.2893000000000001E-10
DataValue, 4, 3, 0, 8.51439E-05, -8.4972500000000007E-05, 1.0783100000000001E-10, 8.51439E-05, 1.0783100000000001E-10
DataValue, 4.5, 3, 0, 8.46049E-05, -8.447620000000001E-05, 9.1771E-11, 8.46049E-05, 9.1771E-11
DataValue, 5, 3, 0, 8.42167E-05, -8.41286E-05, 8.2449E-11, 8.42167E-05, 8.2449E-11
DataValue, 0, 4, 0, -9.86186E-08, -2.4406199999999998E-08, 1.19552E-07, 9.86186E-08, 1.19552E-07
DataValue, 0.5, 4, 0, 5.628E-05, -5.62669E-05, 7.0163499999999992E-08, 5.628E-05, 7.0163499999999992E-08
DataValue, 1, 4, 0, 0.0001013607, -0.0001013069, 3.48319E-08, 0.0001013607, 3.48319E-08
DataValue, 1.5, 4, 0, 0.000136394, -0.000136234, 1.4051099999999998E-08, 0.000136394, 1.4051099999999998E-08
DataValue, 2, 4, 0, 0.000163305, -0.000163253, 5.15226E-09, 0.000163305, 5.15226E-09
DataValue, 2.5, 4, 0, 0.000183327, -0.00018316800000000002, 2.32494E-09, 0.000183327, 2.32494E-09
DataValue, 3, 4, 0, 0.000197607, -0.00019756500000000002, 1.46101E-09, 0.000197607, 1.46101E-09
DataValue, 3.5, 4, 0, 0.00020751000000000002, -0.00020743200000000002, 1.11038E-09, 0.00020751000000000002, 1.11038E-09
DataValue, 4, 4, 0, 0.000214001, -0.00021398100000000002, 9.43178E-10, 0.000214001, 9.43178E-10
DataValue, 4.5, 4, 0, 0.00021813, -0.000218039, 8.857660000000001E-10, 0.00021813, 8.857660000000001E-10
DataValue, 5, 4, 0, 0.00022083200000000002, -0.00022089800000000003, 8.51734E-10, 0.00022083200000000002, 8.51734E-10
DataValue, 0, 5, 0, -1.9889699999999998E-07, -9.30281E-08, 2.85446E-07, 1.9889699999999998E-07, 2.85446E-07
DataValue, 0.5, 5, 0, 7.7306000000000008E-05, -7.73489E-05, 1.94593E-07, 7.7306000000000008E-05, 1.94593E-07
DataValue, 1, 5, 0, 0.00014254100000000002, -0.00014264100000000002, 1.18721E-07, 0.00014254100000000002, 1.18721E-07
DataValue, 1.5, 5, 0, 0.000197115, -0.000197156, 6.60718E-08, 0.000197115, 6.60718E-08
DataValue, 2, 5, 0, 0.000242243, -0.00024224200000000002, 3.4290899999999994E-08, 0.000242243, 3.4290899999999994E-08
DataValue, 2.5, 5, 0, 0.00027930100000000003, -0.00027934300000000004, 1.77968E-08, 0.00027930100000000003, 1.77968E-08
DataValue, 3, 5, 0, 0.000309198, -0.000309408, 1.0430599999999999E-08, 0.000309198, 1.0430599999999999E-08
DataValue, 3.5, 5, 0, 0.00033312500000000003, -0.00033343, 7.21478E-09, 0.00033312500000000003, 7.21478E-09
DataValue, 4, 5, 0, 0.000351949, -0.00035238, 5.85326E-09, 0.000351949, 5.85326E-09
DataValue, 4.5, 5, 0, 0.000366795, -0.000367305, 5.17419E-09, 0.000366795, 5.17419E-09
DataValue, 5, 5, 0, 0.000379414, -0.000379718, 4.74882E-09, 0.000379414, 4.74882E-09