
SetupTitle, Output
PrimitiveTest, I/V Sweep
TestParameter, Context.MainFrame, 4155C
TestParameter, Channel.UnitType, SMU, SMU, SMU
TestParameter, Channel.Unit, SMU3:MP, SMU1:MP, SMU4:MP
TestParameter, Channel.IName, ID, IS, IG
TestParameter, Channel.VName, VD, VS, VG
TestParameter, Channel.Mode, V, COMMON, V
TestParameter, Channel.Func, VAR1, CONST, VAR2
TestParameter, Channel.Index, 
TestParameter, Channel.Time, 
TestParameter, Measurement.Port.Unit, SMU3:MP, SMU1:MP, SMU4:MP
TestParameter, Measurement.Port.SeriesResistor, NONE, NONE, NONE
TestParameter, Measurement.Port.Filter, ON, ON, ON
TestParameter, Measurement.Primary.Locus, Single
TestParameter, Measurement.Primary.Scale, LINEAR
TestParameter, Measurement.Primary.Start, 0
TestParameter, Measurement.Primary.Stop, 5
TestParameter, Measurement.Primary.Step, 0.5
TestParameter, Measurement.Primary.Compliance, 0.1
TestParameter, Measurement.Primary.PowerCompliance, 0
TestParameter, Measurement.Aborting.Condition, CONTINUE AT ANY
TestParameter, Measurement.PostOutput.Value, START
TestParameter, Measurement.PostOutput.Retention, OFF
TestParameter, Measurement.Secondary.Start, -1
TestParameter, Measurement.Secondary.Count, 7
TestParameter, Measurement.Secondary.Step, 1
TestParameter, Measurement.Secondary.Compliance, 0.1
TestParameter, Measurement.Secondary.PowerCompliance, 0
TestParameter, Measurement.Bias.Source, 0, 0, -1
TestParameter, Measurement.Bias.Compliance, 0.1, 0.1, 0.1
TestParameter, Measurement.Monitor.Unit, SMU3:MP, SMU1:MP, SMU4:MP
TestParameter, Measurement.Monitor.Adc, HR ADC, HR ADC, HR ADC
TestParameter, Measurement.Monitor.RangingMode, AUTO, AUTO, AUTO
TestParameter, Measurement.Monitor.RangeBoundary, , , 
TestParameter, Measurement.Monitor.RangeRating, BY FULL RANGE, BY FULL RANGE, BY FULL RANGE
TestParameter, Measurement.Monitor.RangeRatingCoeff, 50, 50, 50
TestParameter, Measurement.Timing.Hold, 0.5
TestParameter, Measurement.Timing.Delay, 0.05
TestParameter, Measurement.Adc.HighResolution.AutoZero, OFF
TestParameter, Measurement.Adc.HighResolution.Mode, AUTO
TestParameter, Measurement.Adc.HighResolution.Coeff, 1
TestParameter, Measurement.Ag16440ASelector.SemiconductorRelay.Channel1, DEFAULT
TestParameter, Measurement.Ag16440ASelector.SemiconductorRelay.Channel3, DEFAULT
TestParameter, Function.User.Name, absID, absIG
TestParameter, Function.User.Unit, A, A
TestParameter, Function.User.Definition, abs(ID), abs(IG)
TestParameter, Output.Graph.Enabled, true
TestParameter, Output.Graph.XAxis.Data, VD
TestParameter, Output.Graph.XAxis.Scale, Linear
TestParameter, Output.Graph.XAxis.Left, 0
TestParameter, Output.Graph.XAxis.Right, 7
TestParameter, Output.Graph.YAxis.Data, ID
TestParameter, Output.Graph.YAxis.Scale, Linear
TestParameter, Output.Graph.YAxis.Bottom, 1E-14
TestParameter, Output.Graph.YAxis.Top, 0.01
TestParameter, Output.Graph.YAxis.Group, 
TestParameter, Output.List.Data, VG, IG, VD, ID, VS, IS, absIG
TestParameter, AutoAnalysis.Interpolation, false
TestParameter, AutoAnalysis.Line1.Enabled, false
TestParameter, AutoAnalysis.Line1.Type, 1
TestParameter, AutoAnalysis.Line1.Fix, True
TestParameter, AutoAnalysis.Line1.YAxis, 0
TestParameter, AutoAnalysis.Line1.Point1.Type, 0
TestParameter, AutoAnalysis.Line1.Point1.XY.X, 
TestParameter, AutoAnalysis.Line1.Point1.XY.Y, 
TestParameter, AutoAnalysis.Line1.Point1.Data.Var, 
TestParameter, AutoAnalysis.Line1.Point1.Data.Condition, 
TestParameter, AutoAnalysis.Line1.Point1.Data.Start, false
TestParameter, AutoAnalysis.Line1.Point1.Data.StartVar, 
TestParameter, AutoAnalysis.Line1.Point1.Data.StartCondition, 
TestParameter, AutoAnalysis.Line1.Point2.Type, 0
TestParameter, AutoAnalysis.Line1.Point2.XY.X, 
TestParameter, AutoAnalysis.Line1.Point2.XY.Y, 
TestParameter, AutoAnalysis.Line1.Point2.Data.Var, 
TestParameter, AutoAnalysis.Line1.Point2.Data.Condition, 
TestParameter, AutoAnalysis.Line1.Point2.Data.Start, false
TestParameter, AutoAnalysis.Line1.Point2.Data.StartVar, 
TestParameter, AutoAnalysis.Line1.Point2.Data.StartCondition, 
TestParameter, AutoAnalysis.Line1.GradientExpr, 0
TestParameter, AutoAnalysis.Line2.Enabled, false
TestParameter, AutoAnalysis.Line2.Type, 1
TestParameter, AutoAnalysis.Line2.Fix, True
TestParameter, AutoAnalysis.Line2.YAxis, 0
TestParameter, AutoAnalysis.Line2.Point1.Type, 0
TestParameter, AutoAnalysis.Line2.Point1.XY.X, 
TestParameter, AutoAnalysis.Line2.Point1.XY.Y, 
TestParameter, AutoAnalysis.Line2.Point1.Data.Var, 
TestParameter, AutoAnalysis.Line2.Point1.Data.Condition, 
TestParameter, AutoAnalysis.Line2.Point1.Data.Start, false
TestParameter, AutoAnalysis.Line2.Point1.Data.StartVar, 
TestParameter, AutoAnalysis.Line2.Point1.Data.StartCondition, 
TestParameter, AutoAnalysis.Line2.Point2.Type, 0
TestParameter, AutoAnalysis.Line2.Point2.XY.X, 
TestParameter, AutoAnalysis.Line2.Point2.XY.Y, 
TestParameter, AutoAnalysis.Line2.Point2.Data.Var, 
TestParameter, AutoAnalysis.Line2.Point2.Data.Condition, 
TestParameter, AutoAnalysis.Line2.Point2.Data.Start, false
TestParameter, AutoAnalysis.Line2.Point2.Data.StartVar, 
TestParameter, AutoAnalysis.Line2.Point2.Data.StartCondition, 
TestParameter, AutoAnalysis.Line2.GradientExpr, 0
TestParameter, AutoAnalysis.Marker.Enabled, false
TestParameter, AutoAnalysis.Marker.Data.Var, 
TestParameter, AutoAnalysis.Marker.Data.Condition, 
TestParameter, AutoAnalysis.Marker.Data.Start, false
TestParameter, AutoAnalysis.Marker.Data.StartVar, 
TestParameter, AutoAnalysis.Marker.Data.StartCondition, 
MetaData, TestRecord.EntryPoint, true
MetaData, TestRecord.RecordTime, 05/02/2019 14:59:04
MetaData, TestRecord.TestTarget, 350-300-20-20
MetaData, TestRecord.IterationIndex, 1
MetaData, TestRecord.Preservation, true
MetaData, TestRecord.Flag, 
MetaData, TestRecord.Remarks, good
MetaData, TestRecord.LinkKey, f32e33cc-aeb9-465c-8af4-a36b9c9b4583
Dimension1, 11, 11, 11, 11, 11, 11, 11, 11
Dimension2, 7, 7, 7, 7, 7, 7, 7, 7
DataName, VD, VG, VS, ID, IS, IG, absID, absIG
DataValue, 0, -1, 0, 1.569E-12, 4.3700000000000006E-13, -3.175E-12, 1.569E-12, 3.175E-12
DataValue, 0.5, -1, 0, 2.541E-12, 1.1250000000000002E-12, -2.591E-12, 2.541E-12, 2.591E-12
DataValue, 1, -1, 0, 2.712E-12, 3.4900000000000003E-13, -2.662E-12, 2.712E-12, 2.662E-12
DataValue, 1.5, -1, 0, 3.786E-12, -2.4010000000000004E-12, 8.9700000000000012E-13, 3.786E-12, 8.9700000000000012E-13
DataValue, 2, -1, 0, 6.1070000000000005E-12, -2.44E-12, -7.624E-12, 6.1070000000000005E-12, 7.624E-12
DataValue, 2.5, -1, 0, 6.4510000000000007E-12, -2.218E-12, 3.752E-12, 6.4510000000000007E-12, 3.752E-12
DataValue, 3, -1, 0, 1.1402E-11, -8.82E-12, -4.7630000000000006E-12, 1.1402E-11, 4.7630000000000006E-12
DataValue, 3.5, -1, 0, 9.76E-12, -7.3670000000000012E-12, -3.2480000000000003E-12, 9.76E-12, 3.2480000000000003E-12
DataValue, 4, -1, 0, 1.1096E-11, -4.2900000000000005E-12, 2.026E-12, 1.1096E-11, 2.026E-12
DataValue, 4.5, -1, 0, 1.1931000000000002E-11, -5.2340000000000005E-12, -7.3640000000000013E-12, 1.1931000000000002E-11, 7.3640000000000013E-12
DataValue, 5, -1, 0, 1.3352E-11, -4.1270000000000005E-12, -6.142E-12, 1.3352E-11, 6.142E-12
DataValue, 0, 0, 0, -9.3E-13, -1.9600000000000002E-13, 2.282E-12, 9.3E-13, 2.282E-12
DataValue, 0.5, 0, 0, -1.251E-12, 6.2690000000000009E-12, -8.04E-12, 1.251E-12, 8.04E-12
DataValue, 1, 0, 0, 1.901E-12, -6.13E-13, 4.385E-12, 1.901E-12, 4.385E-12
DataValue, 1.5, 0, 0, 6.952E-12, 2.0170000000000003E-11, -6.6530000000000008E-12, 6.952E-12, 6.6530000000000008E-12
DataValue, 2, 0, 0, 3.5710000000000004E-12, 2.4870000000000002E-12, -8.5680000000000015E-12, 3.5710000000000004E-12, 8.5680000000000015E-12
DataValue, 2.5, 0, 0, 8.423E-12, -2.925E-12, -3.04E-13, 8.423E-12, 3.04E-13
DataValue, 3, 0, 0, 7.981E-12, -5.3230000000000006E-12, -4.95E-13, 7.981E-12, 4.95E-13
DataValue, 3.5, 0, 0, 1.0048E-11, -7.616E-12, -8.2060000000000012E-12, 1.0048E-11, 8.2060000000000012E-12
DataValue, 4, 0, 0, 9.0220000000000009E-12, -2.862E-12, -5.3940000000000006E-12, 9.0220000000000009E-12, 5.3940000000000006E-12
DataValue, 4.5, 0, 0, 9.8330000000000014E-12, -1.1459000000000001E-11, 1.2103E-11, 9.8330000000000014E-12, 1.2103E-11
DataValue, 5, 0, 0, 1.2067E-11, -5.4990000000000007E-12, 6.266E-12, 1.2067E-11, 6.266E-12
DataValue, 0, 1, 0, -6.237E-11, 6.2339E-11, -2.8260000000000003E-12, 6.237E-11, 2.8260000000000003E-12
DataValue, 0.5, 1, 0, 3.5318799999999996E-08, -3.52268E-08, 4.527E-12, 3.5318799999999996E-08, 4.527E-12
DataValue, 1, 1, 0, 3.57401E-08, -3.56953E-08, 1.3460000000000001E-12, 3.57401E-08, 1.3460000000000001E-12
DataValue, 1.5, 1, 0, 3.5364699999999996E-08, -3.53229E-08, 1.801E-12, 3.5364699999999996E-08, 1.801E-12
DataValue, 2, 1, 0, 3.4907699999999994E-08, -3.49095E-08, 4.1E-13, 3.4907699999999994E-08, 4.1E-13
DataValue, 2.5, 1, 0, 3.4488E-08, -3.4463599999999995E-08, -9.1600000000000014E-13, 3.4488E-08, 9.1600000000000014E-13
DataValue, 3, 1, 0, 3.40843E-08, -3.4075399999999994E-08, 2.0400000000000001E-13, 3.40843E-08, 2.0400000000000001E-13
DataValue, 3.5, 1, 0, 3.3724E-08, -3.36769E-08, 1.114E-12, 3.3724E-08, 1.114E-12
DataValue, 4, 1, 0, 3.3366099999999995E-08, -3.3297099999999996E-08, -2.79E-12, 3.3366099999999995E-08, 2.79E-12
DataValue, 4.5, 1, 0, 3.31104E-08, -3.3042E-08, -2.6260000000000003E-12, 3.31104E-08, 2.6260000000000003E-12
DataValue, 5, 1, 0, 3.27603E-08, -3.27523E-08, -2.482E-12, 3.27603E-08, 2.482E-12
DataValue, 0, 2, 0, -5.00058E-10, 1.9261900000000002E-10, 2.8881200000000003E-10, 5.00058E-10, 2.8881200000000003E-10
DataValue, 0.5, 2, 0, 3.60813E-07, -3.6044399999999997E-07, 9.5875E-11, 3.60813E-07, 9.5875E-11
DataValue, 1, 2, 0, 5.17697E-07, -5.1843E-07, 5.6961000000000005E-11, 5.17697E-07, 5.6961000000000005E-11
DataValue, 1.5, 2, 0, 5.58534E-07, -5.58734E-07, 4.8806E-11, 5.58534E-07, 4.8806E-11
DataValue, 2, 2, 0, 5.63324E-07, -5.63402E-07, 5.0336E-11, 5.63324E-07, 5.0336E-11
DataValue, 2.5, 2, 0, 5.6294599999999994E-07, -5.62773E-07, 4.9046000000000006E-11, 5.6294599999999994E-07, 4.9046000000000006E-11
DataValue, 3, 2, 0, 5.62005E-07, -5.61453E-07, 4.7334E-11, 5.62005E-07, 4.7334E-11
DataValue, 3.5, 2, 0, 5.59763E-07, -5.59484E-07, 4.4765000000000006E-11, 5.59763E-07, 4.4765000000000006E-11
DataValue, 4, 2, 0, 5.58484E-07, -5.5793E-07, 4.4578000000000005E-11, 5.58484E-07, 4.4578000000000005E-11
DataValue, 4.5, 2, 0, 5.56685E-07, -5.56377E-07, 4.2824E-11, 5.56685E-07, 4.2824E-11
DataValue, 5, 2, 0, 5.55057E-07, -5.54704E-07, 4.2904000000000004E-11, 5.55057E-07, 4.2904000000000004E-11
DataValue, 0, 3, 0, -2.70319E-09, -1.09263E-09, 3.5897E-09, 2.70319E-09, 3.5897E-09
DataValue, 0.5, 3, 0, 9.10569E-07, -9.11526E-07, 1.75575E-09, 9.10569E-07, 1.75575E-09
DataValue, 1, 3, 0, 1.5197900000000002E-06, -1.52086E-06, 1.11192E-09, 1.5197900000000002E-06, 1.11192E-09
DataValue, 1.5, 3, 0, 1.8845700000000002E-06, -1.8873000000000001E-06, 8.765570000000001E-10, 1.8845700000000002E-06, 8.765570000000001E-10
DataValue, 2, 3, 0, 2.06877E-06, -2.0712200000000003E-06, 7.7619000000000009E-10, 2.06877E-06, 7.7619000000000009E-10
DataValue, 2.5, 3, 0, 2.1376400000000003E-06, -2.13947E-06, 7.3150600000000006E-10, 2.1376400000000003E-06, 7.3150600000000006E-10
DataValue, 3, 3, 0, 2.15707E-06, -2.15859E-06, 7.083930000000001E-10, 2.15707E-06, 7.083930000000001E-10
DataValue, 3.5, 3, 0, 2.1613000000000004E-06, -2.1621100000000003E-06, 6.86856E-10, 2.1613000000000004E-06, 6.86856E-10
DataValue, 4, 3, 0, 2.1613600000000003E-06, -2.1624800000000003E-06, 6.69029E-10, 2.1613600000000003E-06, 6.69029E-10
DataValue, 4.5, 3, 0, 2.1606E-06, -2.1617400000000002E-06, 6.554320000000001E-10, 2.1606E-06, 6.554320000000001E-10
DataValue, 5, 3, 0, 2.15962E-06, -2.16008E-06, 6.391240000000001E-10, 2.15962E-06, 6.391240000000001E-10
DataValue, 0, 4, 0, -1.00385E-08, -7.39605E-09, 1.6812699999999997E-08, 1.00385E-08, 1.6812699999999997E-08
DataValue, 0.5, 4, 0, 1.5932100000000001E-06, -1.6031100000000002E-06, 1.02869E-08, 1.5932100000000001E-06, 1.02869E-08
DataValue, 1, 4, 0, 2.8263500000000005E-06, -2.8338200000000004E-06, 7.01688E-09, 2.8263500000000005E-06, 7.01688E-09
DataValue, 1.5, 4, 0, 3.7279500000000004E-06, -3.7345700000000002E-06, 5.43279E-09, 3.7279500000000004E-06, 5.43279E-09
DataValue, 2, 4, 0, 4.3531200000000004E-06, -4.3593700000000006E-06, 4.64585E-09, 4.3531200000000004E-06, 4.64585E-09
DataValue, 2.5, 4, 0, 4.75454E-06, -4.7604900000000006E-06, 4.21151E-09, 4.75454E-06, 4.21151E-09
DataValue, 3, 4, 0, 4.9805200000000006E-06, -4.9868700000000009E-06, 3.96778E-09, 4.9805200000000006E-06, 3.96778E-09
DataValue, 3.5, 4, 0, 5.0874000000000006E-06, -5.0932700000000004E-06, 3.82646E-09, 5.0874000000000006E-06, 3.82646E-09
DataValue, 4, 4, 0, 5.1303700000000005E-06, -5.1351200000000007E-06, 3.73395E-09, 5.1303700000000005E-06, 3.73395E-09
DataValue, 4.5, 4, 0, 5.1444900000000006E-06, -5.1495800000000009E-06, 3.65948E-09, 5.1444900000000006E-06, 3.65948E-09
DataValue, 5, 4, 0, 5.1527500000000008E-06, -5.15664E-06, 3.59655E-09, 5.1527500000000008E-06, 3.59655E-09
DataValue, 0, 5, 0, -2.72487E-08, -2.45636E-08, 5.05807E-08, 2.72487E-08, 5.05807E-08
DataValue, 0.5, 5, 0, 2.3780800000000004E-06, -2.4128100000000003E-06, 3.5095799999999995E-08, 2.3780800000000004E-06, 3.5095799999999995E-08
DataValue, 1, 5, 0, 4.3579400000000005E-06, -4.3838300000000007E-06, 2.5867099999999998E-08, 4.3579400000000005E-06, 2.5867099999999998E-08
DataValue, 1.5, 5, 0, 5.9444400000000005E-06, -5.9653900000000007E-06, 2.0364199999999997E-08, 5.9444400000000005E-06, 2.0364199999999997E-08
DataValue, 2, 5, 0, 7.1769300000000011E-06, -7.1949800000000009E-06, 1.71483E-08, 7.1769300000000011E-06, 1.71483E-08
DataValue, 2.5, 5, 0, 8.09857E-06, -8.11526E-06, 1.5236599999999998E-08, 8.09857E-06, 1.5236599999999998E-08
DataValue, 3, 5, 0, 8.75784E-06, -8.77651E-06, 1.40215E-08, 8.75784E-06, 1.40215E-08
DataValue, 3.5, 5, 0, 9.20691E-06, -9.2242E-06, 1.3239299999999998E-08, 9.20691E-06, 1.3239299999999998E-08
DataValue, 4, 5, 0, 9.48845E-06, -9.5041800000000016E-06, 1.26787E-08, 9.48845E-06, 1.26787E-08
DataValue, 4.5, 5, 0, 9.63871E-06, -9.65213E-06, 1.2255199999999999E-08, 9.63871E-06, 1.2255199999999999E-08
DataValue, 5, 5, 0, 9.71187E-06, -9.7265E-06, 1.1964299999999999E-08, 9.71187E-06, 1.1964299999999999E-08