
SetupTitle, Output
PrimitiveTest, I/V Sweep
TestParameter, Context.MainFrame, 4155C
TestParameter, Channel.UnitType, SMU, SMU, SMU
TestParameter, Channel.Unit, SMU3:MP, SMU1:MP, SMU4:MP
TestParameter, Channel.IName, ID, IS, IG
TestParameter, Channel.VName, VD, VS, VG
TestParameter, Channel.Mode, V, COMMON, V
TestParameter, Channel.Func, VAR1, CONST, VAR2
TestParameter, Channel.Index, 
TestParameter, Channel.Time, 
TestParameter, Measurement.Port.Unit, SMU3:MP, SMU1:MP, SMU4:MP
TestParameter, Measurement.Port.SeriesResistor, NONE, NONE, NONE
TestParameter, Measurement.Port.Filter, ON, ON, ON
TestParameter, Measurement.Primary.Locus, Single
TestParameter, Measurement.Primary.Scale, LINEAR
TestParameter, Measurement.Primary.Start, 0
TestParameter, Measurement.Primary.Stop, 5
TestParameter, Measurement.Primary.Step, 0.5
TestParameter, Measurement.Primary.Compliance, 0.1
TestParameter, Measurement.Primary.PowerCompliance, 0
TestParameter, Measurement.Aborting.Condition, CONTINUE AT ANY
TestParameter, Measurement.PostOutput.Value, START
TestParameter, Measurement.PostOutput.Retention, OFF
TestParameter, Measurement.Secondary.Start, -1
TestParameter, Measurement.Secondary.Count, 7
TestParameter, Measurement.Secondary.Step, 1
TestParameter, Measurement.Secondary.Compliance, 0.1
TestParameter, Measurement.Secondary.PowerCompliance, 0
TestParameter, Measurement.Bias.Source, 0, 0, -1
TestParameter, Measurement.Bias.Compliance, 0.1, 0.1, 0.1
TestParameter, Measurement.Monitor.Unit, SMU3:MP, SMU1:MP, SMU4:MP
TestParameter, Measurement.Monitor.Adc, HR ADC, HR ADC, HR ADC
TestParameter, Measurement.Monitor.RangingMode, AUTO, AUTO, AUTO
TestParameter, Measurement.Monitor.RangeBoundary, , , 
TestParameter, Measurement.Monitor.RangeRating, BY FULL RANGE, BY FULL RANGE, BY FULL RANGE
TestParameter, Measurement.Monitor.RangeRatingCoeff, 50, 50, 50
TestParameter, Measurement.Timing.Hold, 0.5
TestParameter, Measurement.Timing.Delay, 0.05
TestParameter, Measurement.Adc.HighResolution.AutoZero, OFF
TestParameter, Measurement.Adc.HighResolution.Mode, AUTO
TestParameter, Measurement.Adc.HighResolution.Coeff, 1
TestParameter, Measurement.Ag16440ASelector.SemiconductorRelay.Channel1, DEFAULT
TestParameter, Measurement.Ag16440ASelector.SemiconductorRelay.Channel3, DEFAULT
TestParameter, Function.User.Name, absID, absIG
TestParameter, Function.User.Unit, A, A
TestParameter, Function.User.Definition, abs(ID), abs(IG)
TestParameter, Output.Graph.Enabled, true
TestParameter, Output.Graph.XAxis.Data, VD
TestParameter, Output.Graph.XAxis.Scale, Linear
TestParameter, Output.Graph.XAxis.Left, 0
TestParameter, Output.Graph.XAxis.Right, 7
TestParameter, Output.Graph.YAxis.Data, ID
TestParameter, Output.Graph.YAxis.Scale, Linear
TestParameter, Output.Graph.YAxis.Bottom, 1E-14
TestParameter, Output.Graph.YAxis.Top, 0.01
TestParameter, Output.Graph.YAxis.Group, 
TestParameter, Output.List.Data, VG, IG, VD, ID, VS, IS, absIG
TestParameter, AutoAnalysis.Interpolation, false
TestParameter, AutoAnalysis.Line1.Enabled, false
TestParameter, AutoAnalysis.Line1.Type, 1
TestParameter, AutoAnalysis.Line1.Fix, True
TestParameter, AutoAnalysis.Line1.YAxis, 0
TestParameter, AutoAnalysis.Line1.Point1.Type, 0
TestParameter, AutoAnalysis.Line1.Point1.XY.X, 
TestParameter, AutoAnalysis.Line1.Point1.XY.Y, 
TestParameter, AutoAnalysis.Line1.Point1.Data.Var, 
TestParameter, AutoAnalysis.Line1.Point1.Data.Condition, 
TestParameter, AutoAnalysis.Line1.Point1.Data.Start, false
TestParameter, AutoAnalysis.Line1.Point1.Data.StartVar, 
TestParameter, AutoAnalysis.Line1.Point1.Data.StartCondition, 
TestParameter, AutoAnalysis.Line1.Point2.Type, 0
TestParameter, AutoAnalysis.Line1.Point2.XY.X, 
TestParameter, AutoAnalysis.Line1.Point2.XY.Y, 
TestParameter, AutoAnalysis.Line1.Point2.Data.Var, 
TestParameter, AutoAnalysis.Line1.Point2.Data.Condition, 
TestParameter, AutoAnalysis.Line1.Point2.Data.Start, false
TestParameter, AutoAnalysis.Line1.Point2.Data.StartVar, 
TestParameter, AutoAnalysis.Line1.Point2.Data.StartCondition, 
TestParameter, AutoAnalysis.Line1.GradientExpr, 0
TestParameter, AutoAnalysis.Line2.Enabled, false
TestParameter, AutoAnalysis.Line2.Type, 1
TestParameter, AutoAnalysis.Line2.Fix, True
TestParameter, AutoAnalysis.Line2.YAxis, 0
TestParameter, AutoAnalysis.Line2.Point1.Type, 0
TestParameter, AutoAnalysis.Line2.Point1.XY.X, 
TestParameter, AutoAnalysis.Line2.Point1.XY.Y, 
TestParameter, AutoAnalysis.Line2.Point1.Data.Var, 
TestParameter, AutoAnalysis.Line2.Point1.Data.Condition, 
TestParameter, AutoAnalysis.Line2.Point1.Data.Start, false
TestParameter, AutoAnalysis.Line2.Point1.Data.StartVar, 
TestParameter, AutoAnalysis.Line2.Point1.Data.StartCondition, 
TestParameter, AutoAnalysis.Line2.Point2.Type, 0
TestParameter, AutoAnalysis.Line2.Point2.XY.X, 
TestParameter, AutoAnalysis.Line2.Point2.XY.Y, 
TestParameter, AutoAnalysis.Line2.Point2.Data.Var, 
TestParameter, AutoAnalysis.Line2.Point2.Data.Condition, 
TestParameter, AutoAnalysis.Line2.Point2.Data.Start, false
TestParameter, AutoAnalysis.Line2.Point2.Data.StartVar, 
TestParameter, AutoAnalysis.Line2.Point2.Data.StartCondition, 
TestParameter, AutoAnalysis.Line2.GradientExpr, 0
TestParameter, AutoAnalysis.Marker.Enabled, false
TestParameter, AutoAnalysis.Marker.Data.Var, 
TestParameter, AutoAnalysis.Marker.Data.Condition, 
TestParameter, AutoAnalysis.Marker.Data.Start, false
TestParameter, AutoAnalysis.Marker.Data.StartVar, 
TestParameter, AutoAnalysis.Marker.Data.StartCondition, 
MetaData, TestRecord.EntryPoint, true
MetaData, TestRecord.RecordTime, 05/02/2019 14:10:30
MetaData, TestRecord.TestTarget, 150-300-5-2
MetaData, TestRecord.IterationIndex, 1
MetaData, TestRecord.Preservation, true
MetaData, TestRecord.Flag, 
MetaData, TestRecord.Remarks, good
MetaData, TestRecord.LinkKey, 672e38c0-7696-445f-88e9-e4531060890d
Dimension1, 11, 11, 11, 11, 11, 11, 11, 11
Dimension2, 7, 7, 7, 7, 7, 7, 7, 7
DataName, VD, VG, VS, ID, IS, IG, absID, absIG
DataValue, 0, -1, 0, 5.21E-13, -4.0700000000000003E-13, -1.1370000000000001E-12, 5.21E-13, 1.1370000000000001E-12
DataValue, 0.5, -1, 0, 8.1400000000000007E-13, 2.7400000000000004E-13, -9.28E-13, 8.1400000000000007E-13, 9.28E-13
DataValue, 1, -1, 0, 1.061E-12, -1.6E-14, 3.5E-13, 1.061E-12, 3.5E-13
DataValue, 1.5, -1, 0, 1.4590000000000001E-12, -5.5000000000000005E-14, 1.0620000000000001E-12, 1.4590000000000001E-12, 1.0620000000000001E-12
DataValue, 2, -1, 0, 1.5140000000000002E-12, 5.59E-13, -1.888E-12, 1.5140000000000002E-12, 1.888E-12
DataValue, 2.5, -1, 0, 3.873E-12, -5.7700000000000007E-13, 8.26E-13, 3.873E-12, 8.26E-13
DataValue, 3, -1, 0, 1.504E-12, -3.4800000000000003E-13, -1.015E-12, 1.504E-12, 1.015E-12
DataValue, 3.5, -1, 0, 2.2920000000000003E-12, -4.0000000000000006E-14, -3.08E-13, 2.2920000000000003E-12, 3.08E-13
DataValue, 4, -1, 0, 3.5190000000000003E-12, 4.09E-13, -1.0410000000000001E-12, 3.5190000000000003E-12, 1.0410000000000001E-12
DataValue, 4.5, -1, 0, 2.749E-12, 2.1300000000000003E-13, -2.5180000000000004E-12, 2.749E-12, 2.5180000000000004E-12
DataValue, 5, -1, 0, 5.5100000000000006E-12, 5.23E-13, -4.044E-12, 5.5100000000000006E-12, 4.044E-12
DataValue, 0, 0, 0, -2.39056E-10, 2.3531000000000004E-10, -7.6600000000000007E-13, 2.39056E-10, 7.6600000000000007E-13
DataValue, 0.5, 0, 0, 1.04027E-07, -1.02832E-07, -2.61E-13, 1.04027E-07, 2.61E-13
DataValue, 1, 0, 0, 1.02011E-07, -1.00685E-07, -1.7000000000000002E-12, 1.02011E-07, 1.7000000000000002E-12
DataValue, 1.5, 0, 0, 9.6778899999999991E-08, -9.56771E-08, 1.8000000000000002E-14, 9.6778899999999991E-08, 1.8000000000000002E-14
DataValue, 2, 0, 0, 9.2710299999999991E-08, -9.1303699999999992E-08, -3.9300000000000004E-13, 9.2710299999999991E-08, 3.9300000000000004E-13
DataValue, 2.5, 0, 0, 9.0276E-08, -8.8505E-08, 8.49E-13, 9.0276E-08, 8.49E-13
DataValue, 3, 0, 0, 8.6629699999999986E-08, -8.43656E-08, 7.71E-13, 8.6629699999999986E-08, 7.71E-13
DataValue, 3.5, 0, 0, 8.06979E-08, -8.0998199999999993E-08, 3.5500000000000005E-13, 8.06979E-08, 3.5500000000000005E-13
DataValue, 4, 0, 0, 7.926329999999999E-08, -7.7164699999999987E-08, -1.3900000000000001E-13, 7.926329999999999E-08, 1.3900000000000001E-13
DataValue, 4.5, 0, 0, 7.6781999999999992E-08, -7.59494E-08, 6.61E-13, 7.6781999999999992E-08, 6.61E-13
DataValue, 5, 0, 0, 7.4583099999999992E-08, -7.4536499999999987E-08, 4.12E-13, 7.4583099999999992E-08, 4.12E-13
DataValue, 0, 1, 0, -1.84318E-09, 1.85509E-09, 1.8240000000000003E-12, 1.84318E-09, 1.8240000000000003E-12
DataValue, 0.5, 1, 0, 1.6837500000000002E-06, -1.6461200000000001E-06, 8.8800000000000005E-13, 1.6837500000000002E-06, 8.8800000000000005E-13
DataValue, 1, 1, 0, 2.1724800000000002E-06, -2.1572300000000003E-06, 1.22E-13, 2.1724800000000002E-06, 1.22E-13
DataValue, 1.5, 1, 0, 2.2333000000000003E-06, -2.1993200000000004E-06, -1.7300000000000002E-13, 2.2333000000000003E-06, 1.7300000000000002E-13
DataValue, 2, 1, 0, 2.1700400000000002E-06, -2.1557900000000003E-06, 1.24E-13, 2.1700400000000002E-06, 1.24E-13
DataValue, 2.5, 1, 0, 2.07603E-06, -2.0520100000000003E-06, 6.57E-13, 2.07603E-06, 6.57E-13
DataValue, 3, 1, 0, 2.0107E-06, -1.9929400000000003E-06, 5.88E-13, 2.0107E-06, 5.88E-13
DataValue, 3.5, 1, 0, 1.9502900000000003E-06, -1.9714600000000003E-06, 1.1E-14, 1.9502900000000003E-06, 1.1E-14
DataValue, 4, 1, 0, 1.92332E-06, -1.9196800000000003E-06, 1.09E-13, 1.92332E-06, 1.09E-13
DataValue, 4.5, 1, 0, 1.8972300000000002E-06, -1.8977300000000003E-06, -2.7500000000000004E-13, 1.8972300000000002E-06, 2.7500000000000004E-13
DataValue, 5, 1, 0, 1.84404E-06, -1.8480900000000003E-06, 9.75E-13, 1.84404E-06, 9.75E-13
DataValue, 0, 2, 0, -3.89529E-09, 3.81005E-09, 1.389E-12, 3.89529E-09, 1.389E-12
DataValue, 0.5, 2, 0, 4.76895E-06, -4.7571100000000004E-06, 1.6600000000000002E-12, 4.76895E-06, 1.6600000000000002E-12
DataValue, 1, 2, 0, 8.0586800000000016E-06, -8.03978E-06, -9.92E-13, 8.0586800000000016E-06, 9.92E-13
DataValue, 1.5, 2, 0, 1.00955E-05, -1.006967E-05, -8.290000000000001E-13, 1.00955E-05, 8.290000000000001E-13
DataValue, 2, 2, 0, 1.1097E-05, -1.106494E-05, 1.017E-12, 1.1097E-05, 1.017E-12
DataValue, 2.5, 2, 0, 1.1552E-05, -1.15359E-05, 1.067E-12, 1.1552E-05, 1.067E-12
DataValue, 3, 2, 0, 1.16092E-05, -1.1597100000000001E-05, -8.68E-13, 1.16092E-05, 8.68E-13
DataValue, 3.5, 2, 0, 1.1611700000000001E-05, -1.16096E-05, -7.110000000000001E-13, 1.1611700000000001E-05, 7.110000000000001E-13
DataValue, 4, 2, 0, 1.1502000000000001E-05, -1.14759E-05, 2.3000000000000003E-13, 1.1502000000000001E-05, 2.3000000000000003E-13
DataValue, 4.5, 2, 0, 1.1471200000000001E-05, -1.1451800000000001E-05, -8.8300000000000007E-13, 1.1471200000000001E-05, 8.8300000000000007E-13
DataValue, 5, 2, 0, 1.13432E-05, -1.13256E-05, 1.0020000000000002E-12, 1.13432E-05, 1.0020000000000002E-12
DataValue, 0, 3, 0, -5.63629E-09, 5.5532E-09, 4.4610000000000005E-12, 5.63629E-09, 4.4610000000000005E-12
DataValue, 0.5, 3, 0, 8.1589500000000009E-06, -8.1555400000000012E-06, 2.6350000000000004E-12, 8.1589500000000009E-06, 2.6350000000000004E-12
DataValue, 1, 3, 0, 1.4748400000000001E-05, -1.47383E-05, 1.318E-12, 1.4748400000000001E-05, 1.318E-12
DataValue, 1.5, 3, 0, 1.9966200000000002E-05, -1.9960100000000002E-05, 7.9E-14, 1.9966200000000002E-05, 7.9E-14
DataValue, 2, 3, 0, 2.39734E-05, -2.39818E-05, 1.3050000000000002E-12, 2.39734E-05, 1.3050000000000002E-12
DataValue, 2.5, 3, 0, 2.69741E-05, -2.69531E-05, 1.197E-12, 2.69741E-05, 1.197E-12
DataValue, 3, 3, 0, 2.9031600000000002E-05, -2.9016E-05, 9.1400000000000014E-13, 2.9031600000000002E-05, 9.1400000000000014E-13
DataValue, 3.5, 3, 0, 3.03827E-05, -3.03603E-05, 9.3700000000000015E-13, 3.03827E-05, 9.3700000000000015E-13
DataValue, 4, 3, 0, 3.12502E-05, -3.12141E-05, 1.31E-12, 3.12502E-05, 1.31E-12
DataValue, 4.5, 3, 0, 3.1749000000000004E-05, -3.17688E-05, 1.3590000000000002E-12, 3.1749000000000004E-05, 1.3590000000000002E-12
DataValue, 5, 3, 0, 3.21772E-05, -3.2147500000000003E-05, 1.3170000000000001E-12, 3.21772E-05, 1.3170000000000001E-12
DataValue, 0, 4, 0, -9.450099999999999E-09, 9.4044999999999983E-09, 1.242E-11, 9.450099999999999E-09, 1.242E-11
DataValue, 0.5, 4, 0, 1.18948E-05, -1.1891400000000001E-05, 9.786E-12, 1.18948E-05, 9.786E-12
DataValue, 1, 4, 0, 2.20901E-05, -2.2089400000000002E-05, 6.7690000000000007E-12, 2.20901E-05, 6.7690000000000007E-12
DataValue, 1.5, 4, 0, 3.0799E-05, -3.07947E-05, 4.998E-12, 3.0799E-05, 4.998E-12
DataValue, 2, 4, 0, 3.8198900000000005E-05, -3.8195500000000004E-05, 7.989E-12, 3.8198900000000005E-05, 7.989E-12
DataValue, 2.5, 4, 0, 4.44338E-05, -4.44269E-05, 4.673E-12, 4.44338E-05, 4.673E-12
DataValue, 3, 4, 0, 4.9577100000000003E-05, -4.95632E-05, 6.055E-12, 4.9577100000000003E-05, 6.055E-12
DataValue, 3.5, 4, 0, 5.38154E-05, -5.3829700000000004E-05, 6.2960000000000006E-12, 5.38154E-05, 6.2960000000000006E-12
DataValue, 4, 4, 0, 5.70739E-05, -5.71572E-05, 5.245E-12, 5.70739E-05, 5.245E-12
DataValue, 4.5, 4, 0, 5.96266E-05, -5.96631E-05, 3.589E-12, 5.96266E-05, 3.589E-12
DataValue, 5, 4, 0, 6.15991E-05, -6.16368E-05, 3.955E-12, 6.15991E-05, 3.955E-12
DataValue, 0, 5, 0, -1.22907E-08, 1.21879E-08, 3.4219000000000004E-11, 1.22907E-08, 3.4219000000000004E-11
DataValue, 0.5, 5, 0, 1.58624E-05, -1.58547E-05, 2.5327E-11, 1.58624E-05, 2.5327E-11
DataValue, 1, 5, 0, 2.9926500000000002E-05, -2.9915500000000002E-05, 1.9518000000000003E-11, 2.9926500000000002E-05, 1.9518000000000003E-11
DataValue, 1.5, 5, 0, 4.24052E-05, -4.24026E-05, 1.7690000000000002E-11, 4.24052E-05, 1.7690000000000002E-11
DataValue, 2, 5, 0, 5.35066E-05, -5.35265E-05, 1.6752E-11, 5.35066E-05, 1.6752E-11
DataValue, 2.5, 5, 0, 6.33919E-05, -6.34208E-05, 1.7122000000000002E-11, 6.33919E-05, 1.7122000000000002E-11
DataValue, 3, 5, 0, 7.21517E-05, -7.21858E-05, 2.0277E-11, 7.21517E-05, 2.0277E-11
DataValue, 3.5, 5, 0, 7.99289E-05, -7.99569E-05, 1.6611E-11, 7.99289E-05, 1.6611E-11
DataValue, 4, 5, 0, 8.66813E-05, -8.66709E-05, 1.7494E-11, 8.66813E-05, 1.7494E-11
DataValue, 4.5, 5, 0, 9.23788E-05, -9.2415100000000009E-05, 1.9545000000000002E-11, 9.23788E-05, 1.9545000000000002E-11
DataValue, 5, 5, 0, 9.7145800000000008E-05, -9.72217E-05, 1.6488000000000002E-11, 9.7145800000000008E-05, 1.6488000000000002E-11