
SetupTitle, Output
PrimitiveTest, I/V Sweep
TestParameter, Context.MainFrame, 4155C
TestParameter, Channel.UnitType, SMU, SMU, SMU
TestParameter, Channel.Unit, SMU3:MP, SMU1:MP, SMU4:MP
TestParameter, Channel.IName, ID, IS, IG
TestParameter, Channel.VName, VD, VS, VG
TestParameter, Channel.Mode, V, COMMON, V
TestParameter, Channel.Func, VAR1, CONST, VAR2
TestParameter, Channel.Index, 
TestParameter, Channel.Time, 
TestParameter, Measurement.Port.Unit, SMU3:MP, SMU1:MP, SMU4:MP
TestParameter, Measurement.Port.SeriesResistor, NONE, NONE, NONE
TestParameter, Measurement.Port.Filter, ON, ON, ON
TestParameter, Measurement.Primary.Locus, Single
TestParameter, Measurement.Primary.Scale, LINEAR
TestParameter, Measurement.Primary.Start, 0
TestParameter, Measurement.Primary.Stop, 5
TestParameter, Measurement.Primary.Step, 0.5
TestParameter, Measurement.Primary.Compliance, 0.1
TestParameter, Measurement.Primary.PowerCompliance, 0
TestParameter, Measurement.Aborting.Condition, CONTINUE AT ANY
TestParameter, Measurement.PostOutput.Value, START
TestParameter, Measurement.PostOutput.Retention, OFF
TestParameter, Measurement.Secondary.Start, -1
TestParameter, Measurement.Secondary.Count, 7
TestParameter, Measurement.Secondary.Step, 1
TestParameter, Measurement.Secondary.Compliance, 0.1
TestParameter, Measurement.Secondary.PowerCompliance, 0
TestParameter, Measurement.Bias.Source, 0, 0, -1
TestParameter, Measurement.Bias.Compliance, 0.1, 0.1, 0.1
TestParameter, Measurement.Monitor.Unit, SMU3:MP, SMU1:MP, SMU4:MP
TestParameter, Measurement.Monitor.Adc, HR ADC, HR ADC, HR ADC
TestParameter, Measurement.Monitor.RangingMode, AUTO, AUTO, AUTO
TestParameter, Measurement.Monitor.RangeBoundary, , , 
TestParameter, Measurement.Monitor.RangeRating, BY FULL RANGE, BY FULL RANGE, BY FULL RANGE
TestParameter, Measurement.Monitor.RangeRatingCoeff, 50, 50, 50
TestParameter, Measurement.Timing.Hold, 0.5
TestParameter, Measurement.Timing.Delay, 0.05
TestParameter, Measurement.Adc.HighResolution.AutoZero, OFF
TestParameter, Measurement.Adc.HighResolution.Mode, AUTO
TestParameter, Measurement.Adc.HighResolution.Coeff, 1
TestParameter, Measurement.Ag16440ASelector.SemiconductorRelay.Channel1, DEFAULT
TestParameter, Measurement.Ag16440ASelector.SemiconductorRelay.Channel3, DEFAULT
TestParameter, Function.User.Name, absID, absIG
TestParameter, Function.User.Unit, A, A
TestParameter, Function.User.Definition, abs(ID), abs(IG)
TestParameter, Output.Graph.Enabled, true
TestParameter, Output.Graph.XAxis.Data, VD
TestParameter, Output.Graph.XAxis.Scale, Linear
TestParameter, Output.Graph.XAxis.Left, 0
TestParameter, Output.Graph.XAxis.Right, 7
TestParameter, Output.Graph.YAxis.Data, ID
TestParameter, Output.Graph.YAxis.Scale, Linear
TestParameter, Output.Graph.YAxis.Bottom, 1E-14
TestParameter, Output.Graph.YAxis.Top, 0.01
TestParameter, Output.Graph.YAxis.Group, 
TestParameter, Output.List.Data, VG, IG, VD, ID, VS, IS, absIG
TestParameter, AutoAnalysis.Interpolation, false
TestParameter, AutoAnalysis.Line1.Enabled, false
TestParameter, AutoAnalysis.Line1.Type, 1
TestParameter, AutoAnalysis.Line1.Fix, True
TestParameter, AutoAnalysis.Line1.YAxis, 0
TestParameter, AutoAnalysis.Line1.Point1.Type, 0
TestParameter, AutoAnalysis.Line1.Point1.XY.X, 
TestParameter, AutoAnalysis.Line1.Point1.XY.Y, 
TestParameter, AutoAnalysis.Line1.Point1.Data.Var, 
TestParameter, AutoAnalysis.Line1.Point1.Data.Condition, 
TestParameter, AutoAnalysis.Line1.Point1.Data.Start, false
TestParameter, AutoAnalysis.Line1.Point1.Data.StartVar, 
TestParameter, AutoAnalysis.Line1.Point1.Data.StartCondition, 
TestParameter, AutoAnalysis.Line1.Point2.Type, 0
TestParameter, AutoAnalysis.Line1.Point2.XY.X, 
TestParameter, AutoAnalysis.Line1.Point2.XY.Y, 
TestParameter, AutoAnalysis.Line1.Point2.Data.Var, 
TestParameter, AutoAnalysis.Line1.Point2.Data.Condition, 
TestParameter, AutoAnalysis.Line1.Point2.Data.Start, false
TestParameter, AutoAnalysis.Line1.Point2.Data.StartVar, 
TestParameter, AutoAnalysis.Line1.Point2.Data.StartCondition, 
TestParameter, AutoAnalysis.Line1.GradientExpr, 0
TestParameter, AutoAnalysis.Line2.Enabled, false
TestParameter, AutoAnalysis.Line2.Type, 1
TestParameter, AutoAnalysis.Line2.Fix, True
TestParameter, AutoAnalysis.Line2.YAxis, 0
TestParameter, AutoAnalysis.Line2.Point1.Type, 0
TestParameter, AutoAnalysis.Line2.Point1.XY.X, 
TestParameter, AutoAnalysis.Line2.Point1.XY.Y, 
TestParameter, AutoAnalysis.Line2.Point1.Data.Var, 
TestParameter, AutoAnalysis.Line2.Point1.Data.Condition, 
TestParameter, AutoAnalysis.Line2.Point1.Data.Start, false
TestParameter, AutoAnalysis.Line2.Point1.Data.StartVar, 
TestParameter, AutoAnalysis.Line2.Point1.Data.StartCondition, 
TestParameter, AutoAnalysis.Line2.Point2.Type, 0
TestParameter, AutoAnalysis.Line2.Point2.XY.X, 
TestParameter, AutoAnalysis.Line2.Point2.XY.Y, 
TestParameter, AutoAnalysis.Line2.Point2.Data.Var, 
TestParameter, AutoAnalysis.Line2.Point2.Data.Condition, 
TestParameter, AutoAnalysis.Line2.Point2.Data.Start, false
TestParameter, AutoAnalysis.Line2.Point2.Data.StartVar, 
TestParameter, AutoAnalysis.Line2.Point2.Data.StartCondition, 
TestParameter, AutoAnalysis.Line2.GradientExpr, 0
TestParameter, AutoAnalysis.Marker.Enabled, false
TestParameter, AutoAnalysis.Marker.Data.Var, 
TestParameter, AutoAnalysis.Marker.Data.Condition, 
TestParameter, AutoAnalysis.Marker.Data.Start, false
TestParameter, AutoAnalysis.Marker.Data.StartVar, 
TestParameter, AutoAnalysis.Marker.Data.StartCondition, 
MetaData, TestRecord.EntryPoint, true
MetaData, TestRecord.RecordTime, 05/02/2019 16:41:19
MetaData, TestRecord.TestTarget, br-br-10-0.75
MetaData, TestRecord.IterationIndex, 1
MetaData, TestRecord.Preservation, true
MetaData, TestRecord.Flag, 
MetaData, TestRecord.Remarks, bad
MetaData, TestRecord.LinkKey, af5694ba-5d3c-46ad-b671-f7e14a04c849
Dimension1, 11, 11, 11, 11, 11, 11, 11, 11
Dimension2, 7, 7, 7, 7, 7, 7, 7, 7
DataName, VD, VG, VS, ID, IS, IG, absID, absIG
DataValue, 0, -1, 0, 7.79E-13, -5.7400000000000008E-13, -3.0480000000000003E-12, 7.79E-13, 3.0480000000000003E-12
DataValue, 0.5, -1, 0, 5.9400000000000009E-13, 7.06E-13, 2.161E-12, 5.9400000000000009E-13, 2.161E-12
DataValue, 1, -1, 0, 7.4300000000000007E-13, -1.4950000000000002E-12, 3.62E-13, 7.4300000000000007E-13, 3.62E-13
DataValue, 1.5, -1, 0, 1.1900000000000002E-12, 5.7E-13, -4.151E-12, 1.1900000000000002E-12, 4.151E-12
DataValue, 2, -1, 0, 5.42E-13, 2.8E-13, 8.8500000000000007E-13, 5.42E-13, 8.8500000000000007E-13
DataValue, 2.5, -1, 0, 3.325E-12, -2E-15, -2E-13, 3.325E-12, 2E-13
DataValue, 3, -1, 0, 3.6000000000000004E-14, -8.8E-14, 1.9370000000000003E-12, 3.6000000000000004E-14, 1.9370000000000003E-12
DataValue, 3.5, -1, 0, 4.98E-13, -9.61E-13, 6.81E-13, 4.98E-13, 6.81E-13
DataValue, 4, -1, 0, -1.0700000000000001E-13, -3.86E-13, 4.31E-12, 1.0700000000000001E-13, 4.31E-12
DataValue, 4.5, -1, 0, 1.0080000000000002E-12, -1.558E-12, -4.72E-13, 1.0080000000000002E-12, 4.72E-13
DataValue, 5, -1, 0, 1.0890000000000001E-12, -5.2000000000000006E-14, 4.34E-13, 1.0890000000000001E-12, 4.34E-13
DataValue, 0, 0, 0, -9.010000000000001E-13, 1.1900000000000002E-12, 3.4600000000000004E-13, 9.010000000000001E-13, 3.4600000000000004E-13
DataValue, 0.5, 0, 0, 2.03325E-09, -2.06981E-09, -1.155E-12, 2.03325E-09, 1.155E-12
DataValue, 1, 0, 0, 2.68001E-09, -2.63928E-09, 3.3600000000000003E-13, 2.68001E-09, 3.3600000000000003E-13
DataValue, 1.5, 0, 0, 2.78029E-09, -2.81575E-09, 7.98E-13, 2.78029E-09, 7.98E-13
DataValue, 2, 0, 0, 2.87384E-09, -2.90131E-09, -1.5100000000000001E-13, 2.87384E-09, 1.5100000000000001E-13
DataValue, 2.5, 0, 0, 2.94802E-09, -2.95894E-09, 1.3000000000000001E-12, 2.94802E-09, 1.3000000000000001E-12
DataValue, 3, 0, 0, 2.96097E-09, -2.98729E-09, 3.78E-13, 2.96097E-09, 3.78E-13
DataValue, 3.5, 0, 0, 3.13929E-09, -3.14235E-09, -2.177E-12, 3.13929E-09, 2.177E-12
DataValue, 4, 0, 0, 3.19491E-09, -3.2140399999999998E-09, -7.78E-13, 3.19491E-09, 7.78E-13
DataValue, 4.5, 0, 0, 3.26206E-09, -3.23981E-09, 5.62E-13, 3.26206E-09, 5.62E-13
DataValue, 5, 0, 0, 3.36467E-09, -3.28407E-09, -1.3960000000000001E-12, 3.36467E-09, 1.3960000000000001E-12
DataValue, 0, 1, 0, -3.2930000000000002E-12, 4.1530000000000006E-12, -2.307E-12, 3.2930000000000002E-12, 2.307E-12
DataValue, 0.5, 1, 0, 8.5268E-09, -8.48466E-09, 6.8900000000000009E-13, 8.5268E-09, 6.8900000000000009E-13
DataValue, 1, 1, 0, 2.07422E-08, -2.0866199999999997E-08, -1.2630000000000002E-12, 2.07422E-08, 1.2630000000000002E-12
DataValue, 1.5, 1, 0, 2.9975499999999996E-08, -3.0163199999999994E-08, -8.300000000000001E-13, 2.9975499999999996E-08, 8.300000000000001E-13
DataValue, 2, 1, 0, 3.36496E-08, -3.38208E-08, -3.104E-12, 3.36496E-08, 3.104E-12
DataValue, 2.5, 1, 0, 3.47374E-08, -3.49183E-08, -3.9E-12, 3.47374E-08, 3.9E-12
DataValue, 3, 1, 0, 3.49785E-08, -3.50409E-08, -2.566E-12, 3.49785E-08, 2.566E-12
DataValue, 3.5, 1, 0, 3.37212E-08, -3.35172E-08, -1.289E-12, 3.37212E-08, 1.289E-12
DataValue, 4, 1, 0, 3.40515E-08, -3.3282899999999996E-08, 1.9800000000000002E-13, 3.40515E-08, 1.9800000000000002E-13
DataValue, 4.5, 1, 0, 3.37793E-08, -3.34167E-08, 6.1E-14, 3.37793E-08, 6.1E-14
DataValue, 5, 1, 0, 3.1768699999999995E-08, -3.2268099999999994E-08, 3.858E-12, 3.1768699999999995E-08, 3.858E-12
DataValue, 0, 2, 0, -6.623E-12, 8.592E-12, -1.086E-12, 6.623E-12, 1.086E-12
DataValue, 0.5, 2, 0, 1.8408599999999998E-08, -1.8905499999999997E-08, -2.1000000000000003E-12, 1.8408599999999998E-08, 2.1000000000000003E-12
DataValue, 1, 2, 0, 4.3926799999999996E-08, -4.3997399999999995E-08, 6.59E-13, 4.3926799999999996E-08, 6.59E-13
DataValue, 1.5, 2, 0, 6.893379999999999E-08, -6.9302199999999992E-08, 5.345E-12, 6.893379999999999E-08, 5.345E-12
DataValue, 2, 2, 0, 8.7072799999999991E-08, -8.6746999999999989E-08, 2.758E-12, 8.7072799999999991E-08, 2.758E-12
DataValue, 2.5, 2, 0, 9.84715E-08, -9.7725599999999989E-08, 3.8350000000000005E-12, 9.84715E-08, 3.8350000000000005E-12
DataValue, 3, 2, 0, 1.00888E-07, -1.0061999999999998E-07, -2.946E-12, 1.00888E-07, 2.946E-12
DataValue, 3.5, 2, 0, 1.03572E-07, -1.0370449999999999E-07, 6.863E-12, 1.03572E-07, 6.863E-12
DataValue, 4, 2, 0, 1.0146799999999999E-07, -1.0102859999999999E-07, -3.13E-12, 1.0146799999999999E-07, 3.13E-12
DataValue, 4.5, 2, 0, 1.0424E-07, -1.034244E-07, 2.7E-13, 1.0424E-07, 2.7E-13
DataValue, 5, 2, 0, 1.01539E-07, -1.0206589999999999E-07, 7.028E-12, 1.01539E-07, 7.028E-12
DataValue, 0, 3, 0, -9.799E-12, 1.0861E-11, 1.46E-13, 9.799E-12, 1.46E-13
DataValue, 0.5, 3, 0, 2.9697899999999997E-08, -3.0010599999999995E-08, 4.0500000000000004E-13, 2.9697899999999997E-08, 4.0500000000000004E-13
DataValue, 1, 3, 0, 7.1084699999999988E-08, -7.1153499999999989E-08, 6.0400000000000005E-13, 7.1084699999999988E-08, 6.0400000000000005E-13
DataValue, 1.5, 3, 0, 1.1261E-07, -1.1252799999999999E-07, 9.8500000000000014E-13, 1.1261E-07, 9.8500000000000014E-13
DataValue, 2, 3, 0, 1.4845299999999999E-07, -1.46736E-07, -7.4400000000000006E-13, 1.4845299999999999E-07, 7.4400000000000006E-13
DataValue, 2.5, 3, 0, 1.7179599999999999E-07, -1.71707E-07, 4.3200000000000003E-13, 1.7179599999999999E-07, 4.3200000000000003E-13
DataValue, 3, 3, 0, 1.85203E-07, -1.87397E-07, -9.74E-13, 1.85203E-07, 9.74E-13
DataValue, 3.5, 3, 0, 1.95557E-07, -1.94131E-07, -5.14E-13, 1.95557E-07, 5.14E-13
DataValue, 4, 3, 0, 1.96771E-07, -1.9734E-07, -6.07E-13, 1.96771E-07, 6.07E-13
DataValue, 4.5, 3, 0, 1.95464E-07, -1.97536E-07, -1.8600000000000002E-13, 1.95464E-07, 1.8600000000000002E-13
DataValue, 5, 3, 0, 1.9904E-07, -1.9854699999999998E-07, 1.4900000000000002E-13, 1.9904E-07, 1.4900000000000002E-13
DataValue, 0, 4, 0, -1.4918E-11, 1.2271E-11, 5.175E-12, 1.4918E-11, 5.175E-12
DataValue, 0.5, 4, 0, 4.11841E-08, -4.1846699999999994E-08, -1.843E-12, 4.11841E-08, 1.843E-12
DataValue, 1, 4, 0, 9.7972599999999992E-08, -9.78033E-08, 1.176E-12, 9.7972599999999992E-08, 1.176E-12
DataValue, 1.5, 4, 0, 1.55041E-07, -1.54963E-07, 1.061E-12, 1.55041E-07, 1.061E-12
DataValue, 2, 4, 0, 2.05647E-07, -2.05919E-07, 3.1930000000000002E-12, 2.05647E-07, 3.1930000000000002E-12
DataValue, 2.5, 4, 0, 2.48497E-07, -2.4930899999999997E-07, -4.1900000000000005E-12, 2.48497E-07, 4.1900000000000005E-12
DataValue, 3, 4, 0, 2.73887E-07, -2.75086E-07, -1.3590000000000002E-12, 2.73887E-07, 1.3590000000000002E-12
DataValue, 3.5, 4, 0, 2.97878E-07, -2.99282E-07, 2.5760000000000003E-12, 2.97878E-07, 2.5760000000000003E-12
DataValue, 4, 4, 0, 3.06161E-07, -3.09651E-07, -1.2920000000000002E-12, 3.06161E-07, 1.2920000000000002E-12
DataValue, 4.5, 4, 0, 3.17193E-07, -3.1774E-07, -1.2150000000000002E-12, 3.17193E-07, 1.2150000000000002E-12
DataValue, 5, 4, 0, 3.18695E-07, -3.1791399999999997E-07, 1.7810000000000002E-12, 3.18695E-07, 1.7810000000000002E-12
DataValue, 0, 5, 0, -1.4776E-11, 1.3969E-11, 6.6600000000000009E-13, 1.4776E-11, 6.6600000000000009E-13
DataValue, 0.5, 5, 0, 5.2977199999999996E-08, -5.3372299999999993E-08, -9.0400000000000009E-13, 5.2977199999999996E-08, 9.0400000000000009E-13
DataValue, 1, 5, 0, 1.24704E-07, -1.24187E-07, -2.602E-12, 1.24704E-07, 2.602E-12
DataValue, 1.5, 5, 0, 1.93945E-07, -1.93935E-07, 2.6500000000000002E-12, 1.93945E-07, 2.6500000000000002E-12
DataValue, 2, 5, 0, 2.61853E-07, -2.64069E-07, 1.1920000000000002E-12, 2.61853E-07, 1.1920000000000002E-12
DataValue, 2.5, 5, 0, 3.21801E-07, -3.19749E-07, -6.08E-13, 3.21801E-07, 6.08E-13
DataValue, 3, 5, 0, 3.68469E-07, -3.69388E-07, 1.617E-12, 3.68469E-07, 1.617E-12
DataValue, 3.5, 5, 0, 4.02736E-07, -4.05442E-07, -1.2360000000000002E-12, 4.02736E-07, 1.2360000000000002E-12
DataValue, 4, 5, 0, 4.26451E-07, -4.2669E-07, 8.8500000000000007E-13, 4.26451E-07, 8.8500000000000007E-13
DataValue, 4.5, 5, 0, 4.3292299999999997E-07, -4.33383E-07, -2.335E-12, 4.3292299999999997E-07, 2.335E-12
DataValue, 5, 5, 0, 4.48171E-07, -4.45392E-07, -9.59E-13, 4.48171E-07, 9.59E-13