
SetupTitle, Output
PrimitiveTest, I/V Sweep
TestParameter, Context.MainFrame, 4155C
TestParameter, Channel.UnitType, SMU, SMU, SMU
TestParameter, Channel.Unit, SMU3:MP, SMU1:MP, SMU4:MP
TestParameter, Channel.IName, ID, IS, IG
TestParameter, Channel.VName, VD, VS, VG
TestParameter, Channel.Mode, V, COMMON, V
TestParameter, Channel.Func, VAR1, CONST, VAR2
TestParameter, Channel.Index, 
TestParameter, Channel.Time, 
TestParameter, Measurement.Port.Unit, SMU3:MP, SMU1:MP, SMU4:MP
TestParameter, Measurement.Port.SeriesResistor, NONE, NONE, NONE
TestParameter, Measurement.Port.Filter, ON, ON, ON
TestParameter, Measurement.Primary.Locus, Single
TestParameter, Measurement.Primary.Scale, LINEAR
TestParameter, Measurement.Primary.Start, 0
TestParameter, Measurement.Primary.Stop, 5
TestParameter, Measurement.Primary.Step, 0.5
TestParameter, Measurement.Primary.Compliance, 0.1
TestParameter, Measurement.Primary.PowerCompliance, 0
TestParameter, Measurement.Aborting.Condition, CONTINUE AT ANY
TestParameter, Measurement.PostOutput.Value, START
TestParameter, Measurement.PostOutput.Retention, OFF
TestParameter, Measurement.Secondary.Start, -1
TestParameter, Measurement.Secondary.Count, 7
TestParameter, Measurement.Secondary.Step, 1
TestParameter, Measurement.Secondary.Compliance, 0.1
TestParameter, Measurement.Secondary.PowerCompliance, 0
TestParameter, Measurement.Bias.Source, 0, 0, -1
TestParameter, Measurement.Bias.Compliance, 0.1, 0.1, 0.1
TestParameter, Measurement.Monitor.Unit, SMU3:MP, SMU1:MP, SMU4:MP
TestParameter, Measurement.Monitor.Adc, HR ADC, HR ADC, HR ADC
TestParameter, Measurement.Monitor.RangingMode, AUTO, AUTO, AUTO
TestParameter, Measurement.Monitor.RangeBoundary, , , 
TestParameter, Measurement.Monitor.RangeRating, BY FULL RANGE, BY FULL RANGE, BY FULL RANGE
TestParameter, Measurement.Monitor.RangeRatingCoeff, 50, 50, 50
TestParameter, Measurement.Timing.Hold, 0.5
TestParameter, Measurement.Timing.Delay, 0.05
TestParameter, Measurement.Adc.HighResolution.AutoZero, OFF
TestParameter, Measurement.Adc.HighResolution.Mode, AUTO
TestParameter, Measurement.Adc.HighResolution.Coeff, 1
TestParameter, Measurement.Ag16440ASelector.SemiconductorRelay.Channel1, DEFAULT
TestParameter, Measurement.Ag16440ASelector.SemiconductorRelay.Channel3, DEFAULT
TestParameter, Function.User.Name, absID, absIG
TestParameter, Function.User.Unit, A, A
TestParameter, Function.User.Definition, abs(ID), abs(IG)
TestParameter, Output.Graph.Enabled, true
TestParameter, Output.Graph.XAxis.Data, VD
TestParameter, Output.Graph.XAxis.Scale, Linear
TestParameter, Output.Graph.XAxis.Left, 0
TestParameter, Output.Graph.XAxis.Right, 7
TestParameter, Output.Graph.YAxis.Data, ID
TestParameter, Output.Graph.YAxis.Scale, Linear
TestParameter, Output.Graph.YAxis.Bottom, 1E-14
TestParameter, Output.Graph.YAxis.Top, 0.01
TestParameter, Output.Graph.YAxis.Group, 
TestParameter, Output.List.Data, VG, IG, VD, ID, VS, IS, absIG
TestParameter, AutoAnalysis.Interpolation, false
TestParameter, AutoAnalysis.Line1.Enabled, false
TestParameter, AutoAnalysis.Line1.Type, 1
TestParameter, AutoAnalysis.Line1.Fix, True
TestParameter, AutoAnalysis.Line1.YAxis, 0
TestParameter, AutoAnalysis.Line1.Point1.Type, 0
TestParameter, AutoAnalysis.Line1.Point1.XY.X, 
TestParameter, AutoAnalysis.Line1.Point1.XY.Y, 
TestParameter, AutoAnalysis.Line1.Point1.Data.Var, 
TestParameter, AutoAnalysis.Line1.Point1.Data.Condition, 
TestParameter, AutoAnalysis.Line1.Point1.Data.Start, false
TestParameter, AutoAnalysis.Line1.Point1.Data.StartVar, 
TestParameter, AutoAnalysis.Line1.Point1.Data.StartCondition, 
TestParameter, AutoAnalysis.Line1.Point2.Type, 0
TestParameter, AutoAnalysis.Line1.Point2.XY.X, 
TestParameter, AutoAnalysis.Line1.Point2.XY.Y, 
TestParameter, AutoAnalysis.Line1.Point2.Data.Var, 
TestParameter, AutoAnalysis.Line1.Point2.Data.Condition, 
TestParameter, AutoAnalysis.Line1.Point2.Data.Start, false
TestParameter, AutoAnalysis.Line1.Point2.Data.StartVar, 
TestParameter, AutoAnalysis.Line1.Point2.Data.StartCondition, 
TestParameter, AutoAnalysis.Line1.GradientExpr, 0
TestParameter, AutoAnalysis.Line2.Enabled, false
TestParameter, AutoAnalysis.Line2.Type, 1
TestParameter, AutoAnalysis.Line2.Fix, True
TestParameter, AutoAnalysis.Line2.YAxis, 0
TestParameter, AutoAnalysis.Line2.Point1.Type, 0
TestParameter, AutoAnalysis.Line2.Point1.XY.X, 
TestParameter, AutoAnalysis.Line2.Point1.XY.Y, 
TestParameter, AutoAnalysis.Line2.Point1.Data.Var, 
TestParameter, AutoAnalysis.Line2.Point1.Data.Condition, 
TestParameter, AutoAnalysis.Line2.Point1.Data.Start, false
TestParameter, AutoAnalysis.Line2.Point1.Data.StartVar, 
TestParameter, AutoAnalysis.Line2.Point1.Data.StartCondition, 
TestParameter, AutoAnalysis.Line2.Point2.Type, 0
TestParameter, AutoAnalysis.Line2.Point2.XY.X, 
TestParameter, AutoAnalysis.Line2.Point2.XY.Y, 
TestParameter, AutoAnalysis.Line2.Point2.Data.Var, 
TestParameter, AutoAnalysis.Line2.Point2.Data.Condition, 
TestParameter, AutoAnalysis.Line2.Point2.Data.Start, false
TestParameter, AutoAnalysis.Line2.Point2.Data.StartVar, 
TestParameter, AutoAnalysis.Line2.Point2.Data.StartCondition, 
TestParameter, AutoAnalysis.Line2.GradientExpr, 0
TestParameter, AutoAnalysis.Marker.Enabled, false
TestParameter, AutoAnalysis.Marker.Data.Var, 
TestParameter, AutoAnalysis.Marker.Data.Condition, 
TestParameter, AutoAnalysis.Marker.Data.Start, false
TestParameter, AutoAnalysis.Marker.Data.StartVar, 
TestParameter, AutoAnalysis.Marker.Data.StartCondition, 
MetaData, TestRecord.EntryPoint, true
MetaData, TestRecord.RecordTime, 05/02/2019 18:04:14
MetaData, TestRecord.TestTarget, 150-180-10-2
MetaData, TestRecord.IterationIndex, 1
MetaData, TestRecord.Preservation, true
MetaData, TestRecord.Flag, 
MetaData, TestRecord.Remarks, good
MetaData, TestRecord.LinkKey, 0548e1dc-7582-41d3-9257-543638bf54e8
Dimension1, 11, 11, 11, 11, 11, 11, 11, 11
Dimension2, 7, 7, 7, 7, 7, 7, 7, 7
DataName, VD, VG, VS, ID, IS, IG, absID, absIG
DataValue, 0, -1, 0, -1.3250000000000001E-12, -1.2460000000000001E-12, 9.0000000000000011E-15, 1.3250000000000001E-12, 9.0000000000000011E-15
DataValue, 0.5, -1, 0, 1.556E-12, 1.1210000000000002E-12, -2.79E-12, 1.556E-12, 2.79E-12
DataValue, 1, -1, 0, 2.138E-12, -1.5500000000000002E-13, -4.8500000000000005E-13, 2.138E-12, 4.8500000000000005E-13
DataValue, 1.5, -1, 0, 3.783E-12, -2.048E-12, 9.4100000000000013E-13, 3.783E-12, 9.4100000000000013E-13
DataValue, 2, -1, 0, 5.9750000000000007E-12, -2.33E-13, -1.0684000000000001E-11, 5.9750000000000007E-12, 1.0684000000000001E-11
DataValue, 2.5, -1, 0, 8.6250000000000009E-12, -1.2960000000000001E-12, -1.2420000000000002E-12, 8.6250000000000009E-12, 1.2420000000000002E-12
DataValue, 3, -1, 0, 1.6184E-11, -1.3883000000000001E-11, -9.2260000000000013E-12, 1.6184E-11, 9.2260000000000013E-12
DataValue, 3.5, -1, 0, 2.5766000000000003E-11, -1.8189000000000002E-11, -9.0390000000000014E-12, 2.5766000000000003E-11, 9.0390000000000014E-12
DataValue, 4, -1, 0, 3.5581000000000004E-11, -3.0117E-11, -4.5160000000000005E-12, 3.5581000000000004E-11, 4.5160000000000005E-12
DataValue, 4.5, -1, 0, 5.4156E-11, -5.1994E-11, -9.569E-12, 5.4156E-11, 9.569E-12
DataValue, 5, -1, 0, 7.983000000000001E-11, -7.4450000000000012E-11, -9.586E-12, 7.983000000000001E-11, 9.586E-12
DataValue, 0, 0, 0, -2.1916E-11, 2.1110000000000002E-11, 8.24E-13, 2.1916E-11, 8.24E-13
DataValue, 0.5, 0, 0, 5.1314399999999994E-08, -4.8161899999999993E-08, -6.57E-13, 5.1314399999999994E-08, 6.57E-13
DataValue, 1, 0, 0, 4.6238999999999995E-08, -4.7380199999999996E-08, -8.050000000000001E-13, 4.6238999999999995E-08, 8.050000000000001E-13
DataValue, 1.5, 0, 0, 4.33896E-08, -4.3847499999999996E-08, -9.74E-13, 4.33896E-08, 9.74E-13
DataValue, 2, 0, 0, 4.2450299999999996E-08, -4.27171E-08, -1.038E-12, 4.2450299999999996E-08, 1.038E-12
DataValue, 2.5, 0, 0, 4.12612E-08, -4.13958E-08, -1.2500000000000001E-12, 4.12612E-08, 1.2500000000000001E-12
DataValue, 3, 0, 0, 4.10217E-08, -4.0556099999999995E-08, -1.5610000000000001E-12, 4.10217E-08, 1.5610000000000001E-12
DataValue, 3.5, 0, 0, 3.8387799999999995E-08, -3.8322799999999994E-08, -2.253E-12, 3.8387799999999995E-08, 2.253E-12
DataValue, 4, 0, 0, 3.7939899999999996E-08, -3.83027E-08, -3.0640000000000003E-12, 3.7939899999999996E-08, 3.0640000000000003E-12
DataValue, 4.5, 0, 0, 3.7285799999999996E-08, -3.7163899999999996E-08, -4.98E-12, 3.7285799999999996E-08, 4.98E-12
DataValue, 5, 0, 0, 3.8550899999999994E-08, -3.7512299999999995E-08, -8.3350000000000011E-12, 3.8550899999999994E-08, 8.3350000000000011E-12
DataValue, 0, 1, 0, -3.03809E-10, 3.1171300000000003E-10, 1.4874E-11, 3.03809E-10, 1.4874E-11
DataValue, 0.5, 1, 0, 1.5655900000000002E-06, -1.5513100000000001E-06, 1.337E-12, 1.5655900000000002E-06, 1.337E-12
DataValue, 1, 1, 0, 2.28072E-06, -2.2513100000000002E-06, 9.74E-13, 2.28072E-06, 9.74E-13
DataValue, 1.5, 1, 0, 2.43014E-06, -2.42465E-06, 6.82E-13, 2.43014E-06, 6.82E-13
DataValue, 2, 1, 0, 2.41968E-06, -2.4239700000000004E-06, 6.400000000000001E-13, 2.41968E-06, 6.400000000000001E-13
DataValue, 2.5, 1, 0, 2.3640200000000003E-06, -2.3555800000000002E-06, 3.0000000000000003E-13, 2.3640200000000003E-06, 3.0000000000000003E-13
DataValue, 3, 1, 0, 2.3336700000000002E-06, -2.33374E-06, -4.9000000000000006E-14, 2.3336700000000002E-06, 4.9000000000000006E-14
DataValue, 3.5, 1, 0, 2.3035100000000003E-06, -2.2991800000000002E-06, 5.3E-14, 2.3035100000000003E-06, 5.3E-14
DataValue, 4, 1, 0, 2.27205E-06, -2.2638500000000004E-06, -3.9200000000000005E-13, 2.27205E-06, 3.9200000000000005E-13
DataValue, 4.5, 1, 0, 2.2554400000000003E-06, -2.23641E-06, -1.218E-12, 2.2554400000000003E-06, 1.218E-12
DataValue, 5, 1, 0, 2.20979E-06, -2.2219900000000002E-06, -2.134E-12, 2.20979E-06, 2.134E-12
DataValue, 0, 2, 0, -3.21039E-09, 2.43524E-09, 8.282730000000001E-10, 3.21039E-09, 8.282730000000001E-10
DataValue, 0.5, 2, 0, 6.7222500000000007E-06, -6.739290000000001E-06, 1.1016500000000002E-10, 6.7222500000000007E-06, 1.1016500000000002E-10
DataValue, 1, 2, 0, 1.1999600000000001E-05, -1.19706E-05, 1.055E-11, 1.1999600000000001E-05, 1.055E-11
DataValue, 1.5, 2, 0, 1.53474E-05, -1.53216E-05, 6.3510000000000007E-12, 1.53474E-05, 6.3510000000000007E-12
DataValue, 2, 2, 0, 1.72716E-05, -1.72271E-05, 4.941E-12, 1.72716E-05, 4.941E-12
DataValue, 2.5, 2, 0, 1.82373E-05, -1.82287E-05, 4.743E-12, 1.82373E-05, 4.743E-12
DataValue, 3, 2, 0, 1.87234E-05, -1.8726800000000002E-05, 3.965E-12, 1.87234E-05, 3.965E-12
DataValue, 3.5, 2, 0, 1.89423E-05, -1.8928E-05, 4.154E-12, 1.89423E-05, 4.154E-12
DataValue, 4, 2, 0, 1.91384E-05, -1.9102400000000002E-05, 3.284E-12, 1.91384E-05, 3.284E-12
DataValue, 4.5, 2, 0, 1.92358E-05, -1.92035E-05, 3.3070000000000003E-12, 1.92358E-05, 3.3070000000000003E-12
DataValue, 5, 2, 0, 1.9261500000000002E-05, -1.92474E-05, 2.983E-12, 1.9261500000000002E-05, 2.983E-12
DataValue, 0, 3, 0, -1.1368499999999999E-08, 3.20787E-09, 6.94721E-09, 1.1368499999999999E-08, 6.94721E-09
DataValue, 0.5, 3, 0, 1.3696100000000001E-05, -1.37003E-05, 2.14604E-09, 1.3696100000000001E-05, 2.14604E-09
DataValue, 1, 3, 0, 2.5070100000000002E-05, -2.50796E-05, 4.0686300000000006E-10, 2.5070100000000002E-05, 4.0686300000000006E-10
DataValue, 1.5, 3, 0, 3.42779E-05, -3.42995E-05, 7.8113E-11, 3.42779E-05, 7.8113E-11
DataValue, 2, 3, 0, 4.15049E-05, -4.14895E-05, 4.8581000000000004E-11, 4.15049E-05, 4.8581000000000004E-11
DataValue, 2.5, 3, 0, 4.69327E-05, -4.69468E-05, 4.2052000000000004E-11, 4.69327E-05, 4.2052000000000004E-11
DataValue, 3, 3, 0, 5.09193E-05, -5.09454E-05, 3.8848E-11, 5.09193E-05, 3.8848E-11
DataValue, 3.5, 3, 0, 5.38632E-05, -5.3851600000000005E-05, 2.9549E-11, 5.38632E-05, 2.9549E-11
DataValue, 4, 3, 0, 5.59799E-05, -5.60072E-05, 2.4378000000000003E-11, 5.59799E-05, 2.4378000000000003E-11
DataValue, 4.5, 3, 0, 5.76141E-05, -5.76367E-05, 2.7448000000000002E-11, 5.76141E-05, 2.7448000000000002E-11
DataValue, 5, 3, 0, 5.9032E-05, -5.9045E-05, 3.8441E-11, 5.9032E-05, 3.8441E-11
DataValue, 0, 4, 0, -3.00334E-08, 1.44694E-09, 2.7043999999999997E-08, 3.00334E-08, 2.7043999999999997E-08
DataValue, 0.5, 4, 0, 2.1318100000000002E-05, -2.1321500000000002E-05, 1.2434199999999998E-08, 2.1318100000000002E-05, 1.2434199999999998E-08
DataValue, 1, 4, 0, 3.98788E-05, -3.98803E-05, 4.54363E-09, 3.98788E-05, 4.54363E-09
DataValue, 1.5, 4, 0, 5.58441E-05, -5.5847800000000004E-05, 1.50244E-09, 5.58441E-05, 1.50244E-09
DataValue, 2, 4, 0, 6.9503100000000009E-05, -6.95237E-05, 5.5738E-10, 6.9503100000000009E-05, 5.5738E-10
DataValue, 2.5, 4, 0, 8.1241E-05, -8.1228100000000009E-05, 3.31967E-10, 8.1241E-05, 3.31967E-10
DataValue, 3, 4, 0, 9.10176E-05, -9.1129300000000009E-05, 3.3034900000000004E-10, 9.10176E-05, 3.3034900000000004E-10
DataValue, 3.5, 4, 0, 9.9182500000000008E-05, -9.9250700000000008E-05, 2.9418400000000005E-10, 9.9182500000000008E-05, 2.9418400000000005E-10
DataValue, 4, 4, 0, 0.0001061038, -0.00010622540000000001, 2.99049E-10, 0.0001061038, 2.99049E-10
DataValue, 4.5, 4, 0, 0.00011205650000000001, -0.0001122426, 3.3077600000000004E-10, 0.00011205650000000001, 3.3077600000000004E-10
DataValue, 5, 4, 0, 0.00011764900000000001, -0.00011792100000000001, 2.48987E-10, 0.00011764900000000001, 2.48987E-10
DataValue, 0, 5, 0, -6.41034E-08, -3.10026E-09, 6.9421599999999989E-08, 6.41034E-08, 6.9421599999999989E-08
DataValue, 0.5, 5, 0, 2.9455100000000002E-05, -2.94607E-05, 4.0033999999999993E-08, 2.9455100000000002E-05, 4.0033999999999993E-08
DataValue, 1, 5, 0, 5.5993200000000005E-05, -5.59913E-05, 2.1211499999999998E-08, 5.5993200000000005E-05, 2.1211499999999998E-08
DataValue, 1.5, 5, 0, 7.97522E-05, -7.97413E-05, 1.0757099999999999E-08, 7.97522E-05, 1.0757099999999999E-08
DataValue, 2, 5, 0, 0.0001010008, -0.0001009872, 5.17216E-09, 0.0001010008, 5.17216E-09
DataValue, 2.5, 5, 0, 0.00011999200000000001, -0.00012010300000000001, 2.78853E-09, 0.00011999200000000001, 2.78853E-09
DataValue, 3, 5, 0, 0.000137119, -0.000137269, 1.82538E-09, 0.000137119, 1.82538E-09
DataValue, 3.5, 5, 0, 0.000152713, -0.000153036, 1.77116E-09, 0.000152713, 1.77116E-09
DataValue, 4, 5, 0, 0.00016747700000000002, -0.000167917, 2.14333E-09, 0.00016747700000000002, 2.14333E-09
DataValue, 4.5, 5, 0, 0.00018176700000000002, -0.00018243800000000002, 2.17377E-09, 0.00018176700000000002, 2.17377E-09
DataValue, 5, 5, 0, 0.000196748, -0.00019817900000000002, 2.2078E-09, 0.000196748, 2.2078E-09