
SetupTitle, Output
PrimitiveTest, I/V Sweep
TestParameter, Context.MainFrame, 4155C
TestParameter, Channel.UnitType, SMU, SMU, SMU
TestParameter, Channel.Unit, SMU3:MP, SMU1:MP, SMU4:MP
TestParameter, Channel.IName, ID, IS, IG
TestParameter, Channel.VName, VD, VS, VG
TestParameter, Channel.Mode, V, COMMON, V
TestParameter, Channel.Func, VAR1, CONST, VAR2
TestParameter, Channel.Index, 
TestParameter, Channel.Time, 
TestParameter, Measurement.Port.Unit, SMU3:MP, SMU1:MP, SMU4:MP
TestParameter, Measurement.Port.SeriesResistor, NONE, NONE, NONE
TestParameter, Measurement.Port.Filter, ON, ON, ON
TestParameter, Measurement.Primary.Locus, Single
TestParameter, Measurement.Primary.Scale, LINEAR
TestParameter, Measurement.Primary.Start, 0
TestParameter, Measurement.Primary.Stop, 5
TestParameter, Measurement.Primary.Step, 0.5
TestParameter, Measurement.Primary.Compliance, 0.1
TestParameter, Measurement.Primary.PowerCompliance, 0
TestParameter, Measurement.Aborting.Condition, CONTINUE AT ANY
TestParameter, Measurement.PostOutput.Value, START
TestParameter, Measurement.PostOutput.Retention, OFF
TestParameter, Measurement.Secondary.Start, -1
TestParameter, Measurement.Secondary.Count, 7
TestParameter, Measurement.Secondary.Step, 1
TestParameter, Measurement.Secondary.Compliance, 0.1
TestParameter, Measurement.Secondary.PowerCompliance, 0
TestParameter, Measurement.Bias.Source, 0, 0, -1
TestParameter, Measurement.Bias.Compliance, 0.1, 0.1, 0.1
TestParameter, Measurement.Monitor.Unit, SMU3:MP, SMU1:MP, SMU4:MP
TestParameter, Measurement.Monitor.Adc, HR ADC, HR ADC, HR ADC
TestParameter, Measurement.Monitor.RangingMode, AUTO, AUTO, AUTO
TestParameter, Measurement.Monitor.RangeBoundary, , , 
TestParameter, Measurement.Monitor.RangeRating, BY FULL RANGE, BY FULL RANGE, BY FULL RANGE
TestParameter, Measurement.Monitor.RangeRatingCoeff, 50, 50, 50
TestParameter, Measurement.Timing.Hold, 0.5
TestParameter, Measurement.Timing.Delay, 0.05
TestParameter, Measurement.Adc.HighResolution.AutoZero, OFF
TestParameter, Measurement.Adc.HighResolution.Mode, AUTO
TestParameter, Measurement.Adc.HighResolution.Coeff, 1
TestParameter, Measurement.Ag16440ASelector.SemiconductorRelay.Channel1, DEFAULT
TestParameter, Measurement.Ag16440ASelector.SemiconductorRelay.Channel3, DEFAULT
TestParameter, Function.User.Name, absID, absIG
TestParameter, Function.User.Unit, A, A
TestParameter, Function.User.Definition, abs(ID), abs(IG)
TestParameter, Output.Graph.Enabled, true
TestParameter, Output.Graph.XAxis.Data, VD
TestParameter, Output.Graph.XAxis.Scale, Linear
TestParameter, Output.Graph.XAxis.Left, 0
TestParameter, Output.Graph.XAxis.Right, 7
TestParameter, Output.Graph.YAxis.Data, ID
TestParameter, Output.Graph.YAxis.Scale, Linear
TestParameter, Output.Graph.YAxis.Bottom, 1E-14
TestParameter, Output.Graph.YAxis.Top, 0.01
TestParameter, Output.Graph.YAxis.Group, 
TestParameter, Output.List.Data, VG, IG, VD, ID, VS, IS, absIG
TestParameter, AutoAnalysis.Interpolation, false
TestParameter, AutoAnalysis.Line1.Enabled, false
TestParameter, AutoAnalysis.Line1.Type, 1
TestParameter, AutoAnalysis.Line1.Fix, True
TestParameter, AutoAnalysis.Line1.YAxis, 0
TestParameter, AutoAnalysis.Line1.Point1.Type, 0
TestParameter, AutoAnalysis.Line1.Point1.XY.X, 
TestParameter, AutoAnalysis.Line1.Point1.XY.Y, 
TestParameter, AutoAnalysis.Line1.Point1.Data.Var, 
TestParameter, AutoAnalysis.Line1.Point1.Data.Condition, 
TestParameter, AutoAnalysis.Line1.Point1.Data.Start, false
TestParameter, AutoAnalysis.Line1.Point1.Data.StartVar, 
TestParameter, AutoAnalysis.Line1.Point1.Data.StartCondition, 
TestParameter, AutoAnalysis.Line1.Point2.Type, 0
TestParameter, AutoAnalysis.Line1.Point2.XY.X, 
TestParameter, AutoAnalysis.Line1.Point2.XY.Y, 
TestParameter, AutoAnalysis.Line1.Point2.Data.Var, 
TestParameter, AutoAnalysis.Line1.Point2.Data.Condition, 
TestParameter, AutoAnalysis.Line1.Point2.Data.Start, false
TestParameter, AutoAnalysis.Line1.Point2.Data.StartVar, 
TestParameter, AutoAnalysis.Line1.Point2.Data.StartCondition, 
TestParameter, AutoAnalysis.Line1.GradientExpr, 0
TestParameter, AutoAnalysis.Line2.Enabled, false
TestParameter, AutoAnalysis.Line2.Type, 1
TestParameter, AutoAnalysis.Line2.Fix, True
TestParameter, AutoAnalysis.Line2.YAxis, 0
TestParameter, AutoAnalysis.Line2.Point1.Type, 0
TestParameter, AutoAnalysis.Line2.Point1.XY.X, 
TestParameter, AutoAnalysis.Line2.Point1.XY.Y, 
TestParameter, AutoAnalysis.Line2.Point1.Data.Var, 
TestParameter, AutoAnalysis.Line2.Point1.Data.Condition, 
TestParameter, AutoAnalysis.Line2.Point1.Data.Start, false
TestParameter, AutoAnalysis.Line2.Point1.Data.StartVar, 
TestParameter, AutoAnalysis.Line2.Point1.Data.StartCondition, 
TestParameter, AutoAnalysis.Line2.Point2.Type, 0
TestParameter, AutoAnalysis.Line2.Point2.XY.X, 
TestParameter, AutoAnalysis.Line2.Point2.XY.Y, 
TestParameter, AutoAnalysis.Line2.Point2.Data.Var, 
TestParameter, AutoAnalysis.Line2.Point2.Data.Condition, 
TestParameter, AutoAnalysis.Line2.Point2.Data.Start, false
TestParameter, AutoAnalysis.Line2.Point2.Data.StartVar, 
TestParameter, AutoAnalysis.Line2.Point2.Data.StartCondition, 
TestParameter, AutoAnalysis.Line2.GradientExpr, 0
TestParameter, AutoAnalysis.Marker.Enabled, false
TestParameter, AutoAnalysis.Marker.Data.Var, 
TestParameter, AutoAnalysis.Marker.Data.Condition, 
TestParameter, AutoAnalysis.Marker.Data.Start, false
TestParameter, AutoAnalysis.Marker.Data.StartVar, 
TestParameter, AutoAnalysis.Marker.Data.StartCondition, 
MetaData, TestRecord.EntryPoint, true
MetaData, TestRecord.RecordTime, 05/02/2019 14:44:37
MetaData, TestRecord.TestTarget, 350-300-20-10
MetaData, TestRecord.IterationIndex, 1
MetaData, TestRecord.Preservation, true
MetaData, TestRecord.Flag, 
MetaData, TestRecord.Remarks, good
MetaData, TestRecord.LinkKey, ce58e156-5219-4485-ba2d-3a20df4e7063
Dimension1, 11, 11, 11, 11, 11, 11, 11, 11
Dimension2, 7, 7, 7, 7, 7, 7, 7, 7
DataName, VD, VG, VS, ID, IS, IG, absID, absIG
DataValue, 0, -1, 0, -1.03E-12, 2.1250000000000003E-12, 9.86E-13, 1.03E-12, 9.86E-13
DataValue, 0.5, -1, 0, 2.849E-12, 2.6000000000000003E-14, -4.706E-12, 2.849E-12, 4.706E-12
DataValue, 1, -1, 0, 4.351E-12, 1.6390000000000002E-12, -5.9570000000000006E-12, 4.351E-12, 5.9570000000000006E-12
DataValue, 1.5, -1, 0, 8.93E-12, -3.03E-13, -3.652E-12, 8.93E-12, 3.652E-12
DataValue, 2, -1, 0, 7.943E-12, -2.729E-12, -4.5710000000000006E-12, 7.943E-12, 4.5710000000000006E-12
DataValue, 2.5, -1, 0, 1.0319E-11, -3.839E-12, -6.0810000000000004E-12, 1.0319E-11, 6.0810000000000004E-12
DataValue, 3, -1, 0, 1.4290000000000002E-11, -3.762E-12, -4.714E-12, 1.4290000000000002E-11, 4.714E-12
DataValue, 3.5, -1, 0, 1.3355E-11, -4.7160000000000005E-12, -5.719E-12, 1.3355E-11, 5.719E-12
DataValue, 4, -1, 0, 1.5081E-11, -5.782E-12, -7.1140000000000006E-12, 1.5081E-11, 7.1140000000000006E-12
DataValue, 4.5, -1, 0, 1.6342000000000003E-11, -6.232E-12, -7.588E-12, 1.6342000000000003E-11, 7.588E-12
DataValue, 5, -1, 0, 1.9982000000000003E-11, -7.6310000000000009E-12, -8.728E-12, 1.9982000000000003E-11, 8.728E-12
DataValue, 0, 0, 0, -7.75E-13, -3.4900000000000003E-13, -4.77E-13, 7.75E-13, 4.77E-13
DataValue, 0.5, 0, 0, 2.511E-12, -1.3960000000000001E-12, -8.5900000000000008E-13, 2.511E-12, 8.5900000000000008E-13
DataValue, 1, 0, 0, 4.052E-12, -2.4880000000000003E-12, -1.74E-12, 4.052E-12, 1.74E-12
DataValue, 1.5, 0, 0, 6.3690000000000008E-12, -3.4980000000000002E-12, -2.2590000000000004E-12, 6.3690000000000008E-12, 2.2590000000000004E-12
DataValue, 2, 0, 0, 9.392E-12, -4.84E-12, -2.5960000000000002E-12, 9.392E-12, 2.5960000000000002E-12
DataValue, 2.5, 0, 0, 9.715E-12, -5.819E-12, -3.321E-12, 9.715E-12, 3.321E-12
DataValue, 3, 0, 0, 1.0844E-11, -8.556E-12, -4.057E-12, 1.0844E-11, 4.057E-12
DataValue, 3.5, 0, 0, 1.3929000000000002E-11, -7.9310000000000008E-12, -3.912E-12, 1.3929000000000002E-11, 3.912E-12
DataValue, 4, 0, 0, 1.5619E-11, -1.1116E-11, -2.787E-12, 1.5619E-11, 2.787E-12
DataValue, 4.5, 0, 0, 1.6459000000000002E-11, -9.1550000000000013E-12, -6.679E-12, 1.6459000000000002E-11, 6.679E-12
DataValue, 5, 0, 0, 1.8496000000000002E-11, -8.392E-12, -5.856E-12, 1.8496000000000002E-11, 5.856E-12
DataValue, 0, 1, 0, -1.6184800000000002E-10, 1.53408E-10, 3.125E-12, 1.6184800000000002E-10, 3.125E-12
DataValue, 0.5, 1, 0, 9.85914E-08, -9.7757599999999986E-08, 3.208E-12, 9.85914E-08, 3.208E-12
DataValue, 1, 1, 0, 1.00093E-07, -9.97582E-08, 2.4050000000000004E-12, 1.00093E-07, 2.4050000000000004E-12
DataValue, 1.5, 1, 0, 9.8853999999999993E-08, -9.8647899999999992E-08, 5.2700000000000008E-13, 9.8853999999999993E-08, 5.2700000000000008E-13
DataValue, 2, 1, 0, 9.7468099999999989E-08, -9.7175899999999991E-08, 5.9700000000000008E-13, 9.7468099999999989E-08, 5.9700000000000008E-13
DataValue, 2.5, 1, 0, 9.4971499999999985E-08, -9.4859699999999987E-08, 6.1900000000000009E-13, 9.4971499999999985E-08, 6.1900000000000009E-13
DataValue, 3, 1, 0, 9.338849999999999E-08, -9.3162499999999985E-08, -6.15E-13, 9.338849999999999E-08, 6.15E-13
DataValue, 3.5, 1, 0, 9.201589999999999E-08, -9.2046799999999993E-08, -6.6500000000000009E-13, 9.201589999999999E-08, 6.6500000000000009E-13
DataValue, 4, 1, 0, 9.1020499999999991E-08, -9.0705899999999986E-08, -1.345E-12, 9.1020499999999991E-08, 1.345E-12
DataValue, 4.5, 1, 0, 8.9063699999999993E-08, -8.8997099999999992E-08, -7.8700000000000008E-13, 8.9063699999999993E-08, 7.8700000000000008E-13
DataValue, 5, 1, 0, 8.78194E-08, -8.7210399999999993E-08, -2.2870000000000003E-12, 8.78194E-08, 2.2870000000000003E-12
DataValue, 0, 2, 0, -9.03212E-10, 6.0244600000000009E-10, 2.72742E-10, 9.03212E-10, 2.72742E-10
DataValue, 0.5, 2, 0, 7.94436E-07, -7.9225099999999994E-07, 7.5666E-11, 7.94436E-07, 7.5666E-11
DataValue, 1, 2, 0, 1.16061E-06, -1.1585300000000002E-06, 3.7389000000000004E-11, 1.16061E-06, 3.7389000000000004E-11
DataValue, 1.5, 2, 0, 1.2703000000000002E-06, -1.27026E-06, 3.0905E-11, 1.2703000000000002E-06, 3.0905E-11
DataValue, 2, 2, 0, 1.28653E-06, -1.2839800000000002E-06, 2.7593000000000002E-11, 1.28653E-06, 2.7593000000000002E-11
DataValue, 2.5, 2, 0, 1.28E-06, -1.27747E-06, 2.7251000000000002E-11, 1.28E-06, 2.7251000000000002E-11
DataValue, 3, 2, 0, 1.2711600000000002E-06, -1.26732E-06, 2.4383E-11, 1.2711600000000002E-06, 2.4383E-11
DataValue, 3.5, 2, 0, 1.25876E-06, -1.25859E-06, 2.3465000000000003E-11, 1.25876E-06, 2.3465000000000003E-11
DataValue, 4, 2, 0, 1.2501400000000002E-06, -1.2506300000000001E-06, 2.2472000000000002E-11, 1.2501400000000002E-06, 2.2472000000000002E-11
DataValue, 4.5, 2, 0, 1.2416800000000002E-06, -1.24077E-06, 2.183E-11, 1.2416800000000002E-06, 2.183E-11
DataValue, 5, 2, 0, 1.2304500000000002E-06, -1.22934E-06, 2.0539000000000002E-11, 1.2304500000000002E-06, 2.0539000000000002E-11
DataValue, 0, 3, 0, -3.35744E-09, -1.4399000000000001E-11, 3.09618E-09, 3.35744E-09, 3.09618E-09
DataValue, 0.5, 3, 0, 1.9512700000000003E-06, -1.9508400000000003E-06, 1.47802E-09, 1.9512700000000003E-06, 1.47802E-09
DataValue, 1, 3, 0, 3.29759E-06, -3.2997000000000004E-06, 8.55963E-10, 3.29759E-06, 8.55963E-10
DataValue, 1.5, 3, 0, 4.1544500000000005E-06, -4.1562800000000006E-06, 6.2112800000000009E-10, 4.1544500000000005E-06, 6.2112800000000009E-10
DataValue, 2, 3, 0, 4.63852E-06, -4.63841E-06, 5.2441100000000006E-10, 4.63852E-06, 5.2441100000000006E-10
DataValue, 2.5, 3, 0, 4.86143E-06, -4.86256E-06, 4.79124E-10, 4.86143E-06, 4.79124E-10
DataValue, 3, 3, 0, 4.9464000000000006E-06, -4.94683E-06, 4.5497600000000003E-10, 4.9464000000000006E-06, 4.5497600000000003E-10
DataValue, 3.5, 3, 0, 4.97014E-06, -4.9715500000000007E-06, 4.3822E-10, 4.97014E-06, 4.3822E-10
DataValue, 4, 3, 0, 4.9753300000000009E-06, -4.9754700000000005E-06, 4.2919700000000005E-10, 4.9753300000000009E-06, 4.2919700000000005E-10
DataValue, 4.5, 3, 0, 4.97279E-06, -4.9741E-06, 4.15326E-10, 4.97279E-06, 4.15326E-10
DataValue, 5, 3, 0, 4.96887E-06, -4.9688400000000009E-06, 4.07431E-10, 4.96887E-06, 4.07431E-10
DataValue, 0, 4, 0, -1.0198499999999999E-08, -4.79135E-09, 1.4540899999999999E-08, 1.0198499999999999E-08, 1.4540899999999999E-08
DataValue, 0.5, 4, 0, 3.3533500000000003E-06, -3.3615800000000004E-06, 8.70491E-09, 3.3533500000000003E-06, 8.70491E-09
DataValue, 1, 4, 0, 5.9891600000000008E-06, -5.99379E-06, 5.71022E-09, 5.9891600000000008E-06, 5.71022E-09
DataValue, 1.5, 4, 0, 7.97543E-06, -7.98177E-06, 4.19021E-09, 7.97543E-06, 4.19021E-09
DataValue, 2, 4, 0, 9.41887E-06, -9.4249700000000017E-06, 3.41748E-09, 9.41887E-06, 3.41748E-09
DataValue, 2.5, 4, 0, 1.0426E-05, -1.0428080000000001E-05, 2.98363E-09, 1.0426E-05, 2.98363E-09
DataValue, 3, 4, 0, 1.10496E-05, -1.1056770000000002E-05, 2.7582E-09, 1.10496E-05, 2.7582E-09
DataValue, 3.5, 4, 0, 1.14088E-05, -1.1415E-05, 2.61598E-09, 1.14088E-05, 2.61598E-09
DataValue, 4, 4, 0, 1.15972E-05, -1.16003E-05, 2.52188E-09, 1.15972E-05, 2.52188E-09
DataValue, 4.5, 4, 0, 1.16863E-05, -1.16911E-05, 2.46582E-09, 1.16863E-05, 2.46582E-09
DataValue, 5, 4, 0, 1.17325E-05, -1.17321E-05, 2.41045E-09, 1.17325E-05, 2.41045E-09
DataValue, 0, 5, 0, -2.51039E-08, -1.9052799999999998E-08, 4.30195E-08, 2.51039E-08, 4.30195E-08
DataValue, 0.5, 5, 0, 4.93809E-06, -4.9661400000000009E-06, 2.9715899999999997E-08, 4.93809E-06, 2.9715899999999997E-08
DataValue, 1, 5, 0, 9.0823300000000015E-06, -9.1029E-06, 2.15272E-08, 9.0823300000000015E-06, 2.15272E-08
DataValue, 1.5, 5, 0, 1.24695E-05, -1.2480200000000001E-05, 1.6327899999999997E-08, 1.24695E-05, 1.6327899999999997E-08
DataValue, 2, 5, 0, 1.51666E-05, -1.5178000000000001E-05, 1.3231E-08, 1.51666E-05, 1.3231E-08
DataValue, 2.5, 5, 0, 1.7269E-05, -1.72839E-05, 1.13687E-08, 1.7269E-05, 1.13687E-08
DataValue, 3, 5, 0, 1.88589E-05, -1.88757E-05, 1.01995E-08, 1.88589E-05, 1.01995E-08
DataValue, 3.5, 5, 0, 2.0023300000000002E-05, -2.00398E-05, 9.43003E-09, 2.0023300000000002E-05, 9.43003E-09
DataValue, 4, 5, 0, 2.08279E-05, -2.0843900000000002E-05, 8.95561E-09, 2.08279E-05, 8.95561E-09
DataValue, 4.5, 5, 0, 2.13417E-05, -2.13574E-05, 8.59467E-09, 2.13417E-05, 8.59467E-09
DataValue, 5, 5, 0, 2.16572E-05, -2.16656E-05, 8.36157E-09, 2.16572E-05, 8.36157E-09