
SetupTitle, Output
PrimitiveTest, I/V Sweep
TestParameter, Context.MainFrame, 4155C
TestParameter, Channel.UnitType, SMU, SMU, SMU
TestParameter, Channel.Unit, SMU3:MP, SMU1:MP, SMU4:MP
TestParameter, Channel.IName, ID, IS, IG
TestParameter, Channel.VName, VD, VS, VG
TestParameter, Channel.Mode, V, COMMON, V
TestParameter, Channel.Func, VAR1, CONST, VAR2
TestParameter, Channel.Index, 
TestParameter, Channel.Time, 
TestParameter, Measurement.Port.Unit, SMU3:MP, SMU1:MP, SMU4:MP
TestParameter, Measurement.Port.SeriesResistor, NONE, NONE, NONE
TestParameter, Measurement.Port.Filter, ON, ON, ON
TestParameter, Measurement.Primary.Locus, Single
TestParameter, Measurement.Primary.Scale, LINEAR
TestParameter, Measurement.Primary.Start, 0
TestParameter, Measurement.Primary.Stop, 5
TestParameter, Measurement.Primary.Step, 0.5
TestParameter, Measurement.Primary.Compliance, 0.1
TestParameter, Measurement.Primary.PowerCompliance, 0
TestParameter, Measurement.Aborting.Condition, CONTINUE AT ANY
TestParameter, Measurement.PostOutput.Value, START
TestParameter, Measurement.PostOutput.Retention, OFF
TestParameter, Measurement.Secondary.Start, -1
TestParameter, Measurement.Secondary.Count, 7
TestParameter, Measurement.Secondary.Step, 1
TestParameter, Measurement.Secondary.Compliance, 0.1
TestParameter, Measurement.Secondary.PowerCompliance, 0
TestParameter, Measurement.Bias.Source, 0, 0, -1
TestParameter, Measurement.Bias.Compliance, 0.1, 0.1, 0.1
TestParameter, Measurement.Monitor.Unit, SMU3:MP, SMU1:MP, SMU4:MP
TestParameter, Measurement.Monitor.Adc, HR ADC, HR ADC, HR ADC
TestParameter, Measurement.Monitor.RangingMode, AUTO, AUTO, AUTO
TestParameter, Measurement.Monitor.RangeBoundary, , , 
TestParameter, Measurement.Monitor.RangeRating, BY FULL RANGE, BY FULL RANGE, BY FULL RANGE
TestParameter, Measurement.Monitor.RangeRatingCoeff, 50, 50, 50
TestParameter, Measurement.Timing.Hold, 0.5
TestParameter, Measurement.Timing.Delay, 0.05
TestParameter, Measurement.Adc.HighResolution.AutoZero, OFF
TestParameter, Measurement.Adc.HighResolution.Mode, AUTO
TestParameter, Measurement.Adc.HighResolution.Coeff, 1
TestParameter, Measurement.Ag16440ASelector.SemiconductorRelay.Channel1, DEFAULT
TestParameter, Measurement.Ag16440ASelector.SemiconductorRelay.Channel3, DEFAULT
TestParameter, Function.User.Name, absID, absIG
TestParameter, Function.User.Unit, A, A
TestParameter, Function.User.Definition, abs(ID), abs(IG)
TestParameter, Output.Graph.Enabled, true
TestParameter, Output.Graph.XAxis.Data, VD
TestParameter, Output.Graph.XAxis.Scale, Linear
TestParameter, Output.Graph.XAxis.Left, 0
TestParameter, Output.Graph.XAxis.Right, 7
TestParameter, Output.Graph.YAxis.Data, ID
TestParameter, Output.Graph.YAxis.Scale, Linear
TestParameter, Output.Graph.YAxis.Bottom, 1E-14
TestParameter, Output.Graph.YAxis.Top, 0.01
TestParameter, Output.Graph.YAxis.Group, 
TestParameter, Output.List.Data, VG, IG, VD, ID, VS, IS, absIG
TestParameter, AutoAnalysis.Interpolation, false
TestParameter, AutoAnalysis.Line1.Enabled, false
TestParameter, AutoAnalysis.Line1.Type, 1
TestParameter, AutoAnalysis.Line1.Fix, True
TestParameter, AutoAnalysis.Line1.YAxis, 0
TestParameter, AutoAnalysis.Line1.Point1.Type, 0
TestParameter, AutoAnalysis.Line1.Point1.XY.X, 
TestParameter, AutoAnalysis.Line1.Point1.XY.Y, 
TestParameter, AutoAnalysis.Line1.Point1.Data.Var, 
TestParameter, AutoAnalysis.Line1.Point1.Data.Condition, 
TestParameter, AutoAnalysis.Line1.Point1.Data.Start, false
TestParameter, AutoAnalysis.Line1.Point1.Data.StartVar, 
TestParameter, AutoAnalysis.Line1.Point1.Data.StartCondition, 
TestParameter, AutoAnalysis.Line1.Point2.Type, 0
TestParameter, AutoAnalysis.Line1.Point2.XY.X, 
TestParameter, AutoAnalysis.Line1.Point2.XY.Y, 
TestParameter, AutoAnalysis.Line1.Point2.Data.Var, 
TestParameter, AutoAnalysis.Line1.Point2.Data.Condition, 
TestParameter, AutoAnalysis.Line1.Point2.Data.Start, false
TestParameter, AutoAnalysis.Line1.Point2.Data.StartVar, 
TestParameter, AutoAnalysis.Line1.Point2.Data.StartCondition, 
TestParameter, AutoAnalysis.Line1.GradientExpr, 0
TestParameter, AutoAnalysis.Line2.Enabled, false
TestParameter, AutoAnalysis.Line2.Type, 1
TestParameter, AutoAnalysis.Line2.Fix, True
TestParameter, AutoAnalysis.Line2.YAxis, 0
TestParameter, AutoAnalysis.Line2.Point1.Type, 0
TestParameter, AutoAnalysis.Line2.Point1.XY.X, 
TestParameter, AutoAnalysis.Line2.Point1.XY.Y, 
TestParameter, AutoAnalysis.Line2.Point1.Data.Var, 
TestParameter, AutoAnalysis.Line2.Point1.Data.Condition, 
TestParameter, AutoAnalysis.Line2.Point1.Data.Start, false
TestParameter, AutoAnalysis.Line2.Point1.Data.StartVar, 
TestParameter, AutoAnalysis.Line2.Point1.Data.StartCondition, 
TestParameter, AutoAnalysis.Line2.Point2.Type, 0
TestParameter, AutoAnalysis.Line2.Point2.XY.X, 
TestParameter, AutoAnalysis.Line2.Point2.XY.Y, 
TestParameter, AutoAnalysis.Line2.Point2.Data.Var, 
TestParameter, AutoAnalysis.Line2.Point2.Data.Condition, 
TestParameter, AutoAnalysis.Line2.Point2.Data.Start, false
TestParameter, AutoAnalysis.Line2.Point2.Data.StartVar, 
TestParameter, AutoAnalysis.Line2.Point2.Data.StartCondition, 
TestParameter, AutoAnalysis.Line2.GradientExpr, 0
TestParameter, AutoAnalysis.Marker.Enabled, false
TestParameter, AutoAnalysis.Marker.Data.Var, 
TestParameter, AutoAnalysis.Marker.Data.Condition, 
TestParameter, AutoAnalysis.Marker.Data.Start, false
TestParameter, AutoAnalysis.Marker.Data.StartVar, 
TestParameter, AutoAnalysis.Marker.Data.StartCondition, 
MetaData, TestRecord.EntryPoint, true
MetaData, TestRecord.RecordTime, 05/02/2019 15:59:50
MetaData, TestRecord.TestTarget, br-br-50-20
MetaData, TestRecord.IterationIndex, 1
MetaData, TestRecord.Preservation, true
MetaData, TestRecord.Flag, 
MetaData, TestRecord.Remarks, good
MetaData, TestRecord.LinkKey, a570cae6-ab8d-4319-9995-d3b232d8e218
Dimension1, 11, 11, 11, 11, 11, 11, 11, 11
Dimension2, 7, 7, 7, 7, 7, 7, 7, 7
DataName, VD, VG, VS, ID, IS, IG, absID, absIG
DataValue, 0, -1, 0, -3.6000000000000004E-12, -3.3600000000000003E-13, -1.06E-13, 3.6000000000000004E-12, 1.06E-13
DataValue, 0.5, -1, 0, 6.6900000000000008E-13, -3.5E-14, -1.088E-12, 6.6900000000000008E-13, 1.088E-12
DataValue, 1, -1, 0, 3.08E-13, 2.9E-14, -6.54E-13, 3.08E-13, 6.54E-13
DataValue, 1.5, -1, 0, 7.580000000000001E-13, -2.3000000000000003E-13, -1.044E-12, 7.580000000000001E-13, 1.044E-12
DataValue, 2, -1, 0, 1.4050000000000002E-12, -1.94E-13, -6.9900000000000005E-13, 1.4050000000000002E-12, 6.9900000000000005E-13
DataValue, 2.5, -1, 0, 2.3340000000000004E-12, 3.74E-13, -1.3840000000000002E-12, 2.3340000000000004E-12, 1.3840000000000002E-12
DataValue, 3, -1, 0, 8.94E-13, -3.5600000000000005E-13, -5.16E-13, 8.94E-13, 5.16E-13
DataValue, 3.5, -1, 0, 5.2900000000000007E-13, -2.7500000000000004E-13, -7.5E-13, 5.2900000000000007E-13, 7.5E-13
DataValue, 4, -1, 0, 4.2000000000000003E-13, 3.3E-13, -1.3800000000000002E-12, 4.2000000000000003E-13, 1.3800000000000002E-12
DataValue, 4.5, -1, 0, -3.4400000000000005E-13, 6.8E-14, -1.097E-12, 3.4400000000000005E-13, 1.097E-12
DataValue, 5, -1, 0, 2.963E-12, 1.295E-12, -1.7000000000000002E-12, 2.963E-12, 1.7000000000000002E-12
DataValue, 0, 0, 0, -2.3910000000000002E-12, -2.155E-12, -1.4670000000000001E-12, 2.3910000000000002E-12, 1.4670000000000001E-12
DataValue, 0.5, 0, 0, 2.2395E-11, -2.2583E-11, -1.82E-13, 2.2395E-11, 1.82E-13
DataValue, 1, 0, 0, 2.4069000000000002E-11, -2.307E-11, -1.58E-13, 2.4069000000000002E-11, 1.58E-13
DataValue, 1.5, 0, 0, 2.5961000000000002E-11, -2.3428000000000002E-11, 3.9500000000000003E-13, 2.5961000000000002E-11, 3.9500000000000003E-13
DataValue, 2, 0, 0, 2.4461E-11, -2.3515000000000002E-11, 1.2310000000000001E-12, 2.4461E-11, 1.2310000000000001E-12
DataValue, 2.5, 0, 0, 2.4645000000000003E-11, -2.5151E-11, 1.3970000000000002E-12, 2.4645000000000003E-11, 1.3970000000000002E-12
DataValue, 3, 0, 0, 2.4095000000000002E-11, -2.5624000000000003E-11, -4.3200000000000003E-13, 2.4095000000000002E-11, 4.3200000000000003E-13
DataValue, 3.5, 0, 0, 2.4432E-11, -2.4917000000000003E-11, -1.255E-12, 2.4432E-11, 1.255E-12
DataValue, 4, 0, 0, 2.5597E-11, -2.4574E-11, -2.469E-12, 2.5597E-11, 2.469E-12
DataValue, 4.5, 0, 0, 2.6638000000000003E-11, -2.5975000000000003E-11, -4.1400000000000005E-13, 2.6638000000000003E-11, 4.1400000000000005E-13
DataValue, 5, 0, 0, 2.6205E-11, -2.5610000000000003E-11, 6.9000000000000009E-14, 2.6205E-11, 6.9000000000000009E-14
DataValue, 0, 1, 0, -9.6858000000000011E-11, 9.5979E-11, 1.909E-12, 9.6858000000000011E-11, 1.909E-12
DataValue, 0.5, 1, 0, 7.8614499999999992E-08, -7.88603E-08, 5.37E-13, 7.8614499999999992E-08, 5.37E-13
DataValue, 1, 1, 0, 8.7502299999999988E-08, -8.7566899999999987E-08, -7.04E-13, 8.7502299999999988E-08, 7.04E-13
DataValue, 1.5, 1, 0, 8.77394E-08, -8.782809999999999E-08, 1.2380000000000002E-12, 8.77394E-08, 1.2380000000000002E-12
DataValue, 2, 1, 0, 8.7587199999999986E-08, -8.757209999999999E-08, 1.0040000000000002E-12, 8.7587199999999986E-08, 1.0040000000000002E-12
DataValue, 2.5, 1, 0, 8.69596E-08, -8.6892599999999988E-08, -1.0100000000000001E-13, 8.69596E-08, 1.0100000000000001E-13
DataValue, 3, 1, 0, 8.6416999999999986E-08, -8.6416299999999987E-08, 1.326E-12, 8.6416999999999986E-08, 1.326E-12
DataValue, 3.5, 1, 0, 8.5866899999999992E-08, -8.5798299999999988E-08, 4.1500000000000005E-13, 8.5866899999999992E-08, 4.1500000000000005E-13
DataValue, 4, 1, 0, 8.54088E-08, -8.5290499999999992E-08, -5.67E-13, 8.54088E-08, 5.67E-13
DataValue, 4.5, 1, 0, 8.4774299999999992E-08, -8.4724599999999991E-08, 8.540000000000001E-13, 8.4774299999999992E-08, 8.540000000000001E-13
DataValue, 5, 1, 0, 8.4337899999999992E-08, -8.428059999999999E-08, 3.179E-12, 8.4337899999999992E-08, 3.179E-12
DataValue, 0, 2, 0, -4.2094100000000006E-10, 4.1801200000000006E-10, -1.312E-12, 4.2094100000000006E-10, 1.312E-12
DataValue, 0.5, 2, 0, 4.85226E-07, -4.85459E-07, 2.7600000000000004E-13, 4.85226E-07, 2.7600000000000004E-13
DataValue, 1, 2, 0, 7.18609E-07, -7.19668E-07, -2.3000000000000003E-13, 7.18609E-07, 2.3000000000000003E-13
DataValue, 1.5, 2, 0, 8.0800399999999993E-07, -8.08492E-07, 7.3E-14, 8.0800399999999993E-07, 7.3E-14
DataValue, 2, 2, 0, 8.30947E-07, -8.31502E-07, -4.1400000000000005E-13, 8.30947E-07, 4.1400000000000005E-13
DataValue, 2.5, 2, 0, 8.35661E-07, -8.35919E-07, 3.841E-12, 8.35661E-07, 3.841E-12
DataValue, 3, 2, 0, 8.36233E-07, -8.3621199999999994E-07, -2.6850000000000004E-12, 8.36233E-07, 2.6850000000000004E-12
DataValue, 3.5, 2, 0, 8.36054E-07, -8.35804E-07, -3.4310000000000002E-12, 8.36054E-07, 3.4310000000000002E-12
DataValue, 4, 2, 0, 8.34918E-07, -8.3450499999999994E-07, 2.73E-13, 8.34918E-07, 2.73E-13
DataValue, 4.5, 2, 0, 8.33791E-07, -8.3363399999999993E-07, 9.7900000000000017E-13, 8.33791E-07, 9.7900000000000017E-13
DataValue, 5, 2, 0, 8.3181599999999994E-07, -8.3176599999999993E-07, -1.99E-13, 8.3181599999999994E-07, 1.99E-13
DataValue, 0, 3, 0, -8.49223E-10, 8.6711E-10, 6.4600000000000007E-13, 8.49223E-10, 6.4600000000000007E-13
DataValue, 0.5, 3, 0, 1.09028E-06, -1.09028E-06, 1.1310000000000001E-12, 1.09028E-06, 1.1310000000000001E-12
DataValue, 1, 3, 0, 1.8077100000000001E-06, -1.80945E-06, 3.7200000000000003E-13, 1.8077100000000001E-06, 3.7200000000000003E-13
DataValue, 1.5, 3, 0, 2.24322E-06, -2.24557E-06, -7.110000000000001E-13, 2.24322E-06, 7.110000000000001E-13
DataValue, 2, 3, 0, 2.4808600000000004E-06, -2.4825100000000002E-06, 3.279E-12, 2.4808600000000004E-06, 3.279E-12
DataValue, 2.5, 3, 0, 2.59026E-06, -2.59178E-06, -6.4500000000000008E-13, 2.59026E-06, 6.4500000000000008E-13
DataValue, 3, 3, 0, 2.6298500000000003E-06, -2.63032E-06, -2.924E-12, 2.6298500000000003E-06, 2.924E-12
DataValue, 3.5, 3, 0, 2.6441200000000004E-06, -2.6436400000000002E-06, -1.9160000000000003E-12, 2.6441200000000004E-06, 1.9160000000000003E-12
DataValue, 4, 3, 0, 2.6457900000000003E-06, -2.64592E-06, -8.8200000000000008E-13, 2.6457900000000003E-06, 8.8200000000000008E-13
DataValue, 4.5, 3, 0, 2.6447000000000003E-06, -2.6445200000000004E-06, 2.3290000000000003E-12, 2.6447000000000003E-06, 2.3290000000000003E-12
DataValue, 5, 3, 0, 2.6397200000000005E-06, -2.6403100000000002E-06, -1.7770000000000002E-12, 2.6397200000000005E-06, 1.7770000000000002E-12
DataValue, 0, 4, 0, -1.35289E-09, 1.36368E-09, -3.31E-13, 1.35289E-09, 3.31E-13
DataValue, 0.5, 4, 0, 1.7844800000000001E-06, -1.7819800000000001E-06, 6.4500000000000008E-13, 1.7844800000000001E-06, 6.4500000000000008E-13
DataValue, 1, 4, 0, 3.1053800000000002E-06, -3.1048000000000003E-06, 4E-13, 3.1053800000000002E-06, 4E-13
DataValue, 1.5, 4, 0, 4.0424500000000006E-06, -4.04329E-06, -1.5180000000000002E-12, 4.0424500000000006E-06, 1.5180000000000002E-12
DataValue, 2, 4, 0, 4.6773100000000008E-06, -4.67969E-06, -2.678E-12, 4.6773100000000008E-06, 2.678E-12
DataValue, 2.5, 4, 0, 5.0762600000000006E-06, -5.0772E-06, 4.8420000000000006E-12, 5.0762600000000006E-06, 4.8420000000000006E-12
DataValue, 3, 4, 0, 5.30424E-06, -5.3049500000000008E-06, -1.535E-12, 5.30424E-06, 1.535E-12
DataValue, 3.5, 4, 0, 5.4157500000000006E-06, -5.4161900000000009E-06, -1.7770000000000002E-12, 5.4157500000000006E-06, 1.7770000000000002E-12
DataValue, 4, 4, 0, 5.46637E-06, -5.4651500000000005E-06, 4.5500000000000006E-12, 5.46637E-06, 4.5500000000000006E-12
DataValue, 4.5, 4, 0, 5.4789100000000009E-06, -5.4768500000000008E-06, 8.5600000000000009E-13, 5.4789100000000009E-06, 8.5600000000000009E-13
DataValue, 5, 4, 0, 5.4815200000000005E-06, -5.4804700000000007E-06, -3.0140000000000003E-12, 5.4815200000000005E-06, 3.0140000000000003E-12
DataValue, 0, 5, 0, -1.82626E-09, 1.8098E-09, -4.6000000000000006E-14, 1.82626E-09, 4.6000000000000006E-14
DataValue, 0.5, 5, 0, 2.47571E-06, -2.47048E-06, -4.0800000000000003E-13, 2.47571E-06, 4.0800000000000003E-13
DataValue, 1, 5, 0, 4.42068E-06, -4.4200800000000005E-06, 1.863E-12, 4.42068E-06, 1.863E-12
DataValue, 1.5, 5, 0, 5.9142600000000009E-06, -5.9153700000000006E-06, 9.4E-14, 5.9142600000000009E-06, 9.4E-14
DataValue, 2, 5, 0, 7.0233200000000007E-06, -7.0264300000000006E-06, 1.291E-12, 7.0233200000000007E-06, 1.291E-12
DataValue, 2.5, 5, 0, 7.8208000000000014E-06, -7.8214300000000014E-06, 1.6800000000000002E-13, 7.8208000000000014E-06, 1.6800000000000002E-13
DataValue, 3, 5, 0, 8.3555200000000013E-06, -8.3556200000000015E-06, -7.1E-14, 8.3555200000000013E-06, 7.1E-14
DataValue, 3.5, 5, 0, 8.6964600000000011E-06, -8.6958E-06, 7.4500000000000006E-13, 8.6964600000000011E-06, 7.4500000000000006E-13
DataValue, 4, 5, 0, 8.89057E-06, -8.89018E-06, -4.1E-14, 8.89057E-06, 4.1E-14
DataValue, 4.5, 5, 0, 8.98501E-06, -8.98479E-06, -7.7000000000000005E-13, 8.98501E-06, 7.7000000000000005E-13
DataValue, 5, 5, 0, 9.03098E-06, -9.02923E-06, -1.5E-12, 9.03098E-06, 1.5E-12