
SetupTitle, Output
PrimitiveTest, I/V Sweep
TestParameter, Context.MainFrame, 4155C
TestParameter, Channel.UnitType, SMU, SMU, SMU
TestParameter, Channel.Unit, SMU3:MP, SMU1:MP, SMU4:MP
TestParameter, Channel.IName, ID, IS, IG
TestParameter, Channel.VName, VD, VS, VG
TestParameter, Channel.Mode, V, COMMON, V
TestParameter, Channel.Func, VAR1, CONST, VAR2
TestParameter, Channel.Index, 
TestParameter, Channel.Time, 
TestParameter, Measurement.Port.Unit, SMU3:MP, SMU1:MP, SMU4:MP
TestParameter, Measurement.Port.SeriesResistor, NONE, NONE, NONE
TestParameter, Measurement.Port.Filter, ON, ON, ON
TestParameter, Measurement.Primary.Locus, Single
TestParameter, Measurement.Primary.Scale, LINEAR
TestParameter, Measurement.Primary.Start, 0
TestParameter, Measurement.Primary.Stop, 5
TestParameter, Measurement.Primary.Step, 0.5
TestParameter, Measurement.Primary.Compliance, 0.1
TestParameter, Measurement.Primary.PowerCompliance, 0
TestParameter, Measurement.Aborting.Condition, CONTINUE AT ANY
TestParameter, Measurement.PostOutput.Value, START
TestParameter, Measurement.PostOutput.Retention, OFF
TestParameter, Measurement.Secondary.Start, -1
TestParameter, Measurement.Secondary.Count, 7
TestParameter, Measurement.Secondary.Step, 1
TestParameter, Measurement.Secondary.Compliance, 0.1
TestParameter, Measurement.Secondary.PowerCompliance, 0
TestParameter, Measurement.Bias.Source, 0, 0, -1
TestParameter, Measurement.Bias.Compliance, 0.1, 0.1, 0.1
TestParameter, Measurement.Monitor.Unit, SMU3:MP, SMU1:MP, SMU4:MP
TestParameter, Measurement.Monitor.Adc, HR ADC, HR ADC, HR ADC
TestParameter, Measurement.Monitor.RangingMode, AUTO, AUTO, AUTO
TestParameter, Measurement.Monitor.RangeBoundary, , , 
TestParameter, Measurement.Monitor.RangeRating, BY FULL RANGE, BY FULL RANGE, BY FULL RANGE
TestParameter, Measurement.Monitor.RangeRatingCoeff, 50, 50, 50
TestParameter, Measurement.Timing.Hold, 0.5
TestParameter, Measurement.Timing.Delay, 0.05
TestParameter, Measurement.Adc.HighResolution.AutoZero, OFF
TestParameter, Measurement.Adc.HighResolution.Mode, AUTO
TestParameter, Measurement.Adc.HighResolution.Coeff, 1
TestParameter, Measurement.Ag16440ASelector.SemiconductorRelay.Channel1, DEFAULT
TestParameter, Measurement.Ag16440ASelector.SemiconductorRelay.Channel3, DEFAULT
TestParameter, Function.User.Name, absID, absIG
TestParameter, Function.User.Unit, A, A
TestParameter, Function.User.Definition, abs(ID), abs(IG)
TestParameter, Output.Graph.Enabled, true
TestParameter, Output.Graph.XAxis.Data, VD
TestParameter, Output.Graph.XAxis.Scale, Linear
TestParameter, Output.Graph.XAxis.Left, 0
TestParameter, Output.Graph.XAxis.Right, 7
TestParameter, Output.Graph.YAxis.Data, ID
TestParameter, Output.Graph.YAxis.Scale, Linear
TestParameter, Output.Graph.YAxis.Bottom, 1E-14
TestParameter, Output.Graph.YAxis.Top, 0.01
TestParameter, Output.Graph.YAxis.Group, 
TestParameter, Output.List.Data, VG, IG, VD, ID, VS, IS, absIG
TestParameter, AutoAnalysis.Interpolation, false
TestParameter, AutoAnalysis.Line1.Enabled, false
TestParameter, AutoAnalysis.Line1.Type, 1
TestParameter, AutoAnalysis.Line1.Fix, True
TestParameter, AutoAnalysis.Line1.YAxis, 0
TestParameter, AutoAnalysis.Line1.Point1.Type, 0
TestParameter, AutoAnalysis.Line1.Point1.XY.X, 
TestParameter, AutoAnalysis.Line1.Point1.XY.Y, 
TestParameter, AutoAnalysis.Line1.Point1.Data.Var, 
TestParameter, AutoAnalysis.Line1.Point1.Data.Condition, 
TestParameter, AutoAnalysis.Line1.Point1.Data.Start, false
TestParameter, AutoAnalysis.Line1.Point1.Data.StartVar, 
TestParameter, AutoAnalysis.Line1.Point1.Data.StartCondition, 
TestParameter, AutoAnalysis.Line1.Point2.Type, 0
TestParameter, AutoAnalysis.Line1.Point2.XY.X, 
TestParameter, AutoAnalysis.Line1.Point2.XY.Y, 
TestParameter, AutoAnalysis.Line1.Point2.Data.Var, 
TestParameter, AutoAnalysis.Line1.Point2.Data.Condition, 
TestParameter, AutoAnalysis.Line1.Point2.Data.Start, false
TestParameter, AutoAnalysis.Line1.Point2.Data.StartVar, 
TestParameter, AutoAnalysis.Line1.Point2.Data.StartCondition, 
TestParameter, AutoAnalysis.Line1.GradientExpr, 0
TestParameter, AutoAnalysis.Line2.Enabled, false
TestParameter, AutoAnalysis.Line2.Type, 1
TestParameter, AutoAnalysis.Line2.Fix, True
TestParameter, AutoAnalysis.Line2.YAxis, 0
TestParameter, AutoAnalysis.Line2.Point1.Type, 0
TestParameter, AutoAnalysis.Line2.Point1.XY.X, 
TestParameter, AutoAnalysis.Line2.Point1.XY.Y, 
TestParameter, AutoAnalysis.Line2.Point1.Data.Var, 
TestParameter, AutoAnalysis.Line2.Point1.Data.Condition, 
TestParameter, AutoAnalysis.Line2.Point1.Data.Start, false
TestParameter, AutoAnalysis.Line2.Point1.Data.StartVar, 
TestParameter, AutoAnalysis.Line2.Point1.Data.StartCondition, 
TestParameter, AutoAnalysis.Line2.Point2.Type, 0
TestParameter, AutoAnalysis.Line2.Point2.XY.X, 
TestParameter, AutoAnalysis.Line2.Point2.XY.Y, 
TestParameter, AutoAnalysis.Line2.Point2.Data.Var, 
TestParameter, AutoAnalysis.Line2.Point2.Data.Condition, 
TestParameter, AutoAnalysis.Line2.Point2.Data.Start, false
TestParameter, AutoAnalysis.Line2.Point2.Data.StartVar, 
TestParameter, AutoAnalysis.Line2.Point2.Data.StartCondition, 
TestParameter, AutoAnalysis.Line2.GradientExpr, 0
TestParameter, AutoAnalysis.Marker.Enabled, false
TestParameter, AutoAnalysis.Marker.Data.Var, 
TestParameter, AutoAnalysis.Marker.Data.Condition, 
TestParameter, AutoAnalysis.Marker.Data.Start, false
TestParameter, AutoAnalysis.Marker.Data.StartVar, 
TestParameter, AutoAnalysis.Marker.Data.StartCondition, 
MetaData, TestRecord.EntryPoint, true
MetaData, TestRecord.RecordTime, 05/02/2019 16:19:35
MetaData, TestRecord.TestTarget, br-br-20-5
MetaData, TestRecord.IterationIndex, 1
MetaData, TestRecord.Preservation, true
MetaData, TestRecord.Flag, 
MetaData, TestRecord.Remarks, good
MetaData, TestRecord.LinkKey, f1e56c79-f299-4299-8bf5-c0a2a988a549
Dimension1, 11, 11, 11, 11, 11, 11, 11, 11
Dimension2, 7, 7, 7, 7, 7, 7, 7, 7
DataName, VD, VG, VS, ID, IS, IG, absID, absIG
DataValue, 0, -1, 0, -1.03E-13, -1.65E-12, 1.483E-12, 1.03E-13, 1.483E-12
DataValue, 0.5, -1, 0, 1.026E-12, -8.1000000000000008E-14, -5.5300000000000007E-13, 1.026E-12, 5.5300000000000007E-13
DataValue, 1, -1, 0, 1.2650000000000002E-12, -1.636E-12, -1.5260000000000002E-12, 1.2650000000000002E-12, 1.5260000000000002E-12
DataValue, 1.5, -1, 0, 1.73E-12, -1.4800000000000002E-12, 7.75E-13, 1.73E-12, 7.75E-13
DataValue, 2, -1, 0, 2.4050000000000004E-12, -1.9990000000000003E-12, 5.61E-13, 2.4050000000000004E-12, 5.61E-13
DataValue, 2.5, -1, 0, 3.0030000000000004E-12, -2.7140000000000004E-12, -2.9800000000000004E-13, 3.0030000000000004E-12, 2.9800000000000004E-13
DataValue, 3, -1, 0, 5.821E-12, -2.1210000000000004E-12, -2.6400000000000004E-13, 5.821E-12, 2.6400000000000004E-13
DataValue, 3.5, -1, 0, 3.718E-12, -3.229E-12, 1.1500000000000002E-12, 3.718E-12, 1.1500000000000002E-12
DataValue, 4, -1, 0, 4.6160000000000005E-12, -3.414E-12, 1.544E-12, 4.6160000000000005E-12, 1.544E-12
DataValue, 4.5, -1, 0, 5.185E-12, -4.067E-12, -9.42E-13, 5.185E-12, 9.42E-13
DataValue, 5, -1, 0, 6.0560000000000009E-12, -4.541E-12, 4.5000000000000005E-13, 6.0560000000000009E-12, 4.5000000000000005E-13
DataValue, 0, 0, 0, -1.0025E-10, 9.8573E-11, 1.249E-12, 1.0025E-10, 1.249E-12
DataValue, 0.5, 0, 0, 5.16958E-08, -5.1932899999999994E-08, -8.5900000000000008E-13, 5.16958E-08, 8.5900000000000008E-13
DataValue, 1, 0, 0, 5.4893599999999993E-08, -5.4943899999999993E-08, -4.6000000000000006E-14, 5.4893599999999993E-08, 4.6000000000000006E-14
DataValue, 1.5, 0, 0, 5.56014E-08, -5.5652699999999992E-08, -2.6800000000000003E-12, 5.56014E-08, 2.6800000000000003E-12
DataValue, 2, 0, 0, 5.5457999999999993E-08, -5.5397899999999992E-08, -2.603E-12, 5.5457999999999993E-08, 2.603E-12
DataValue, 2.5, 0, 0, 5.5236499999999993E-08, -5.4961999999999993E-08, -2.4370000000000002E-12, 5.5236499999999993E-08, 2.4370000000000002E-12
DataValue, 3, 0, 0, 5.50628E-08, -5.4732799999999994E-08, -2.14E-12, 5.50628E-08, 2.14E-12
DataValue, 3.5, 0, 0, 5.4810899999999995E-08, -5.48572E-08, -5.87E-13, 5.4810899999999995E-08, 5.87E-13
DataValue, 4, 0, 0, 5.4317099999999995E-08, -5.4116099999999992E-08, -1.1750000000000001E-12, 5.4317099999999995E-08, 1.1750000000000001E-12
DataValue, 4.5, 0, 0, 5.4322999999999996E-08, -5.4137799999999994E-08, 1.08E-12, 5.4322999999999996E-08, 1.08E-12
DataValue, 5, 0, 0, 5.3903299999999993E-08, -5.3803599999999995E-08, 5.42E-13, 5.3903299999999993E-08, 5.42E-13
DataValue, 0, 1, 0, -8.99762E-10, 9.1522500000000011E-10, 9.78E-13, 8.99762E-10, 9.78E-13
DataValue, 0.5, 1, 0, 1.0891400000000001E-06, -1.0867100000000002E-06, 1.3800000000000002E-13, 1.0891400000000001E-06, 1.3800000000000002E-13
DataValue, 1, 1, 0, 1.5834300000000001E-06, -1.58316E-06, 3.28E-13, 1.5834300000000001E-06, 3.28E-13
DataValue, 1.5, 1, 0, 1.7456300000000003E-06, -1.7433200000000002E-06, -6.6900000000000008E-13, 1.7456300000000003E-06, 6.6900000000000008E-13
DataValue, 2, 1, 0, 1.7749700000000002E-06, -1.7686900000000003E-06, 8.8700000000000006E-13, 1.7749700000000002E-06, 8.8700000000000006E-13
DataValue, 2.5, 1, 0, 1.7582900000000001E-06, -1.7600700000000001E-06, 1.879E-12, 1.7582900000000001E-06, 1.879E-12
DataValue, 3, 1, 0, 1.7362900000000002E-06, -1.7406800000000002E-06, -4.46E-13, 1.7362900000000002E-06, 4.46E-13
DataValue, 3.5, 1, 0, 1.7141700000000003E-06, -1.7121100000000002E-06, -1.2820000000000002E-12, 1.7141700000000003E-06, 1.2820000000000002E-12
DataValue, 4, 1, 0, 1.69362E-06, -1.6924E-06, -1.5600000000000002E-12, 1.69362E-06, 1.5600000000000002E-12
DataValue, 4.5, 1, 0, 1.6776600000000002E-06, -1.6732200000000003E-06, -3.4120000000000004E-12, 1.6776600000000002E-06, 3.4120000000000004E-12
DataValue, 5, 1, 0, 1.6507700000000002E-06, -1.6457600000000002E-06, -2.2080000000000003E-12, 1.6507700000000002E-06, 2.2080000000000003E-12
DataValue, 0, 2, 0, -2.12076E-09, 2.12607E-09, 8.794E-12, 2.12076E-09, 8.794E-12
DataValue, 0.5, 2, 0, 2.92177E-06, -2.9200600000000004E-06, 8.8290000000000013E-12, 2.92177E-06, 8.8290000000000013E-12
DataValue, 1, 2, 0, 4.9505800000000008E-06, -4.9538700000000006E-06, 2.318E-12, 4.9505800000000008E-06, 2.318E-12
DataValue, 1.5, 2, 0, 6.289580000000001E-06, -6.291250000000001E-06, -5.0300000000000008E-13, 6.289580000000001E-06, 5.0300000000000008E-13
DataValue, 2, 2, 0, 7.1015200000000011E-06, -7.1036300000000005E-06, 9.59E-13, 7.1015200000000011E-06, 9.59E-13
DataValue, 2.5, 2, 0, 7.541240000000001E-06, -7.5400800000000012E-06, -4.9000000000000006E-14, 7.541240000000001E-06, 4.9000000000000006E-14
DataValue, 3, 2, 0, 7.73283E-06, -7.73634E-06, -6.2480000000000008E-12, 7.73283E-06, 6.2480000000000008E-12
DataValue, 3.5, 2, 0, 7.80384E-06, -7.7912800000000014E-06, 2.917E-12, 7.80384E-06, 2.917E-12
DataValue, 4, 2, 0, 7.8287400000000012E-06, -7.8216200000000012E-06, 8.65E-13, 7.8287400000000012E-06, 8.65E-13
DataValue, 4.5, 2, 0, 7.8066300000000012E-06, -7.8046500000000016E-06, -8.760000000000001E-13, 7.8066300000000012E-06, 8.760000000000001E-13
DataValue, 5, 2, 0, 7.8020300000000013E-06, -7.79991E-06, -2.536E-12, 7.8020300000000013E-06, 2.536E-12
DataValue, 0, 3, 0, -3.37239E-09, 3.29856E-09, 3.4622000000000003E-11, 3.37239E-09, 3.4622000000000003E-11
DataValue, 0.5, 3, 0, 5.15353E-06, -5.1512500000000009E-06, 9.225E-12, 5.15353E-06, 9.225E-12
DataValue, 1, 3, 0, 9.2454500000000014E-06, -9.2481600000000013E-06, -1.6110000000000001E-12, 9.2454500000000014E-06, 1.6110000000000001E-12
DataValue, 1.5, 3, 0, 1.24189E-05, -1.2417E-05, -3.7100000000000003E-13, 1.24189E-05, 3.7100000000000003E-13
DataValue, 2, 3, 0, 1.47922E-05, -1.4797200000000001E-05, -7.7E-14, 1.47922E-05, 7.7E-14
DataValue, 2.5, 3, 0, 1.65323E-05, -1.65334E-05, 5.0500000000000007E-13, 1.65323E-05, 5.0500000000000007E-13
DataValue, 3, 3, 0, 1.77538E-05, -1.77603E-05, -3.984E-12, 1.77538E-05, 3.984E-12
DataValue, 3.5, 3, 0, 1.85515E-05, -1.8558400000000002E-05, -5.5470000000000005E-12, 1.85515E-05, 5.5470000000000005E-12
DataValue, 4, 3, 0, 1.90873E-05, -1.90835E-05, 2.8470000000000003E-12, 1.90873E-05, 2.8470000000000003E-12
DataValue, 4.5, 3, 0, 1.94046E-05, -1.9403600000000002E-05, -4.7520000000000008E-12, 1.94046E-05, 4.7520000000000008E-12
DataValue, 5, 3, 0, 1.9623100000000002E-05, -1.9616900000000002E-05, -5.303E-12, 1.9623100000000002E-05, 5.303E-12
DataValue, 0, 4, 0, -4.54354E-09, 4.3972E-09, 7.2259000000000009E-11, 4.54354E-09, 7.2259000000000009E-11
DataValue, 0.5, 4, 0, 7.72361E-06, -7.7230800000000009E-06, 2.9726E-11, 7.72361E-06, 2.9726E-11
DataValue, 1, 4, 0, 1.42668E-05, -1.4265500000000001E-05, 1.2597E-11, 1.42668E-05, 1.2597E-11
DataValue, 1.5, 4, 0, 1.97349E-05, -1.97351E-05, 2.4930000000000004E-12, 1.97349E-05, 2.4930000000000004E-12
DataValue, 2, 4, 0, 2.42226E-05, -2.4218700000000002E-05, 1.7200000000000002E-13, 2.42226E-05, 1.7200000000000002E-13
DataValue, 2.5, 4, 0, 2.78643E-05, -2.78686E-05, 1.7760000000000001E-12, 2.78643E-05, 1.7760000000000001E-12
DataValue, 3, 4, 0, 3.07807E-05, -3.07969E-05, -2.152E-12, 3.07807E-05, 2.152E-12
DataValue, 3.5, 4, 0, 3.3090100000000004E-05, -3.3099800000000005E-05, -1.1770000000000001E-12, 3.3090100000000004E-05, 1.1770000000000001E-12
DataValue, 4, 4, 0, 3.48546E-05, -3.48804E-05, 7.97E-13, 3.48546E-05, 7.97E-13
DataValue, 4.5, 4, 0, 3.6199500000000005E-05, -3.62067E-05, -1.068E-12, 3.6199500000000005E-05, 1.068E-12
DataValue, 5, 4, 0, 3.71774E-05, -3.71933E-05, 5.9900000000000007E-13, 3.71774E-05, 5.9900000000000007E-13
DataValue, 0, 5, 0, -5.60067E-09, 5.52139E-09, 5.6633E-11, 5.60067E-09, 5.6633E-11
DataValue, 0.5, 5, 0, 1.05452E-05, -1.0542500000000001E-05, 4.0718000000000005E-11, 1.05452E-05, 4.0718000000000005E-11
DataValue, 1, 5, 0, 1.98098E-05, -1.9810100000000002E-05, 3.1073E-11, 1.98098E-05, 3.1073E-11
DataValue, 1.5, 5, 0, 2.78739E-05, -2.7874300000000002E-05, 2.5101E-11, 2.78739E-05, 2.5101E-11
DataValue, 2, 5, 0, 3.48497E-05, -3.48565E-05, 1.6387E-11, 3.48497E-05, 1.6387E-11
DataValue, 2.5, 5, 0, 4.08509E-05, -4.08508E-05, 7.9310000000000008E-12, 4.08509E-05, 7.9310000000000008E-12
DataValue, 3, 5, 0, 4.5926E-05, -4.59397E-05, 4.825E-12, 4.5926E-05, 4.825E-12
DataValue, 3.5, 5, 0, 5.02414E-05, -5.02627E-05, 3.7320000000000007E-12, 5.02414E-05, 3.7320000000000007E-12
DataValue, 4, 5, 0, 5.38741E-05, -5.39024E-05, -9.6000000000000015E-13, 5.38741E-05, 9.6000000000000015E-13
DataValue, 4.5, 5, 0, 5.68726E-05, -5.68934E-05, -9.36E-13, 5.68726E-05, 9.36E-13
DataValue, 5, 5, 0, 5.93455E-05, -5.93755E-05, -5.4700000000000009E-13, 5.93455E-05, 5.4700000000000009E-13