
SetupTitle, Output
PrimitiveTest, I/V Sweep
TestParameter, Context.MainFrame, 4155C
TestParameter, Channel.UnitType, SMU, SMU, SMU
TestParameter, Channel.Unit, SMU3:MP, SMU1:MP, SMU4:MP
TestParameter, Channel.IName, ID, IS, IG
TestParameter, Channel.VName, VD, VS, VG
TestParameter, Channel.Mode, V, COMMON, V
TestParameter, Channel.Func, VAR1, CONST, VAR2
TestParameter, Channel.Index, 
TestParameter, Channel.Time, 
TestParameter, Measurement.Port.Unit, SMU3:MP, SMU1:MP, SMU4:MP
TestParameter, Measurement.Port.SeriesResistor, NONE, NONE, NONE
TestParameter, Measurement.Port.Filter, ON, ON, ON
TestParameter, Measurement.Primary.Locus, Single
TestParameter, Measurement.Primary.Scale, LINEAR
TestParameter, Measurement.Primary.Start, 0
TestParameter, Measurement.Primary.Stop, 5
TestParameter, Measurement.Primary.Step, 0.5
TestParameter, Measurement.Primary.Compliance, 0.1
TestParameter, Measurement.Primary.PowerCompliance, 0
TestParameter, Measurement.Aborting.Condition, CONTINUE AT ANY
TestParameter, Measurement.PostOutput.Value, START
TestParameter, Measurement.PostOutput.Retention, OFF
TestParameter, Measurement.Secondary.Start, -1
TestParameter, Measurement.Secondary.Count, 7
TestParameter, Measurement.Secondary.Step, 1
TestParameter, Measurement.Secondary.Compliance, 0.1
TestParameter, Measurement.Secondary.PowerCompliance, 0
TestParameter, Measurement.Bias.Source, 0, 0, -1
TestParameter, Measurement.Bias.Compliance, 0.1, 0.1, 0.1
TestParameter, Measurement.Monitor.Unit, SMU3:MP, SMU1:MP, SMU4:MP
TestParameter, Measurement.Monitor.Adc, HR ADC, HR ADC, HR ADC
TestParameter, Measurement.Monitor.RangingMode, AUTO, AUTO, AUTO
TestParameter, Measurement.Monitor.RangeBoundary, , , 
TestParameter, Measurement.Monitor.RangeRating, BY FULL RANGE, BY FULL RANGE, BY FULL RANGE
TestParameter, Measurement.Monitor.RangeRatingCoeff, 50, 50, 50
TestParameter, Measurement.Timing.Hold, 0.5
TestParameter, Measurement.Timing.Delay, 0.05
TestParameter, Measurement.Adc.HighResolution.AutoZero, OFF
TestParameter, Measurement.Adc.HighResolution.Mode, AUTO
TestParameter, Measurement.Adc.HighResolution.Coeff, 1
TestParameter, Measurement.Ag16440ASelector.SemiconductorRelay.Channel1, DEFAULT
TestParameter, Measurement.Ag16440ASelector.SemiconductorRelay.Channel3, DEFAULT
TestParameter, Function.User.Name, absID, absIG
TestParameter, Function.User.Unit, A, A
TestParameter, Function.User.Definition, abs(ID), abs(IG)
TestParameter, Output.Graph.Enabled, true
TestParameter, Output.Graph.XAxis.Data, VD
TestParameter, Output.Graph.XAxis.Scale, Linear
TestParameter, Output.Graph.XAxis.Left, 0
TestParameter, Output.Graph.XAxis.Right, 7
TestParameter, Output.Graph.YAxis.Data, ID
TestParameter, Output.Graph.YAxis.Scale, Linear
TestParameter, Output.Graph.YAxis.Bottom, 1E-14
TestParameter, Output.Graph.YAxis.Top, 0.01
TestParameter, Output.Graph.YAxis.Group, 
TestParameter, Output.List.Data, VG, IG, VD, ID, VS, IS, absIG
TestParameter, AutoAnalysis.Interpolation, false
TestParameter, AutoAnalysis.Line1.Enabled, false
TestParameter, AutoAnalysis.Line1.Type, 1
TestParameter, AutoAnalysis.Line1.Fix, True
TestParameter, AutoAnalysis.Line1.YAxis, 0
TestParameter, AutoAnalysis.Line1.Point1.Type, 0
TestParameter, AutoAnalysis.Line1.Point1.XY.X, 
TestParameter, AutoAnalysis.Line1.Point1.XY.Y, 
TestParameter, AutoAnalysis.Line1.Point1.Data.Var, 
TestParameter, AutoAnalysis.Line1.Point1.Data.Condition, 
TestParameter, AutoAnalysis.Line1.Point1.Data.Start, false
TestParameter, AutoAnalysis.Line1.Point1.Data.StartVar, 
TestParameter, AutoAnalysis.Line1.Point1.Data.StartCondition, 
TestParameter, AutoAnalysis.Line1.Point2.Type, 0
TestParameter, AutoAnalysis.Line1.Point2.XY.X, 
TestParameter, AutoAnalysis.Line1.Point2.XY.Y, 
TestParameter, AutoAnalysis.Line1.Point2.Data.Var, 
TestParameter, AutoAnalysis.Line1.Point2.Data.Condition, 
TestParameter, AutoAnalysis.Line1.Point2.Data.Start, false
TestParameter, AutoAnalysis.Line1.Point2.Data.StartVar, 
TestParameter, AutoAnalysis.Line1.Point2.Data.StartCondition, 
TestParameter, AutoAnalysis.Line1.GradientExpr, 0
TestParameter, AutoAnalysis.Line2.Enabled, false
TestParameter, AutoAnalysis.Line2.Type, 1
TestParameter, AutoAnalysis.Line2.Fix, True
TestParameter, AutoAnalysis.Line2.YAxis, 0
TestParameter, AutoAnalysis.Line2.Point1.Type, 0
TestParameter, AutoAnalysis.Line2.Point1.XY.X, 
TestParameter, AutoAnalysis.Line2.Point1.XY.Y, 
TestParameter, AutoAnalysis.Line2.Point1.Data.Var, 
TestParameter, AutoAnalysis.Line2.Point1.Data.Condition, 
TestParameter, AutoAnalysis.Line2.Point1.Data.Start, false
TestParameter, AutoAnalysis.Line2.Point1.Data.StartVar, 
TestParameter, AutoAnalysis.Line2.Point1.Data.StartCondition, 
TestParameter, AutoAnalysis.Line2.Point2.Type, 0
TestParameter, AutoAnalysis.Line2.Point2.XY.X, 
TestParameter, AutoAnalysis.Line2.Point2.XY.Y, 
TestParameter, AutoAnalysis.Line2.Point2.Data.Var, 
TestParameter, AutoAnalysis.Line2.Point2.Data.Condition, 
TestParameter, AutoAnalysis.Line2.Point2.Data.Start, false
TestParameter, AutoAnalysis.Line2.Point2.Data.StartVar, 
TestParameter, AutoAnalysis.Line2.Point2.Data.StartCondition, 
TestParameter, AutoAnalysis.Line2.GradientExpr, 0
TestParameter, AutoAnalysis.Marker.Enabled, false
TestParameter, AutoAnalysis.Marker.Data.Var, 
TestParameter, AutoAnalysis.Marker.Data.Condition, 
TestParameter, AutoAnalysis.Marker.Data.Start, false
TestParameter, AutoAnalysis.Marker.Data.StartVar, 
TestParameter, AutoAnalysis.Marker.Data.StartCondition, 
MetaData, TestRecord.EntryPoint, true
MetaData, TestRecord.RecordTime, 05/02/2019 10:15:46
MetaData, TestRecord.TestTarget, 250-300-20-10
MetaData, TestRecord.IterationIndex, 1
MetaData, TestRecord.Preservation, true
MetaData, TestRecord.Flag, 
MetaData, TestRecord.Remarks, good
MetaData, TestRecord.LinkKey, a58d92c6-2158-408d-a8fe-78aad4b01a7c
Dimension1, 11, 11, 11, 11, 11, 11, 11, 11
Dimension2, 7, 7, 7, 7, 7, 7, 7, 7
DataName, VD, VG, VS, ID, IS, IG, absID, absIG
DataValue, 0, -1, 0, 7.34E-12, 5.167E-12, -1.6083E-11, 7.34E-12, 1.6083E-11
DataValue, 0.5, -1, 0, 1.4832E-11, 5.9170000000000007E-12, -2.165E-11, 1.4832E-11, 2.165E-11
DataValue, 1, -1, 0, 2.1329E-11, 2.4840000000000003E-12, -2.3930000000000002E-11, 2.1329E-11, 2.3930000000000002E-11
DataValue, 1.5, -1, 0, 3.2400000000000006E-11, 5.43E-13, -2.804E-11, 3.2400000000000006E-11, 2.804E-11
DataValue, 2, -1, 0, 3.9214E-11, -1.5200000000000002E-12, -3.2432E-11, 3.9214E-11, 3.2432E-11
DataValue, 2.5, -1, 0, 4.4229E-11, -4.009E-12, -3.6132E-11, 4.4229E-11, 3.6132E-11
DataValue, 3, -1, 0, 5.1374E-11, -6.8900000000000007E-12, -3.8421000000000004E-11, 5.1374E-11, 3.8421000000000004E-11
DataValue, 3.5, -1, 0, 5.8231000000000011E-11, -9.569E-12, -4.3658E-11, 5.8231000000000011E-11, 4.3658E-11
DataValue, 4, -1, 0, 6.4992E-11, -1.1320000000000001E-11, -4.6755000000000004E-11, 6.4992E-11, 4.6755000000000004E-11
DataValue, 4.5, -1, 0, 7.257400000000001E-11, -1.4619E-11, -5.0826000000000005E-11, 7.257400000000001E-11, 5.0826000000000005E-11
DataValue, 5, -1, 0, 8.1456E-11, -1.6958E-11, -5.4847000000000003E-11, 8.1456E-11, 5.4847000000000003E-11
DataValue, 0, 0, 0, -1.5450000000000002E-12, -3.8400000000000003E-13, -3.38E-13, 1.5450000000000002E-12, 3.38E-13
DataValue, 0.5, 0, 0, 1.4852300000000002E-10, -1.49323E-10, -5.424E-12, 1.4852300000000002E-10, 5.424E-12
DataValue, 1, 0, 0, 1.6353800000000002E-10, -1.56046E-10, -7.133E-12, 1.6353800000000002E-10, 7.133E-12
DataValue, 1.5, 0, 0, 1.7173100000000002E-10, -1.58556E-10, -1.0121E-11, 1.7173100000000002E-10, 1.0121E-11
DataValue, 2, 0, 0, 1.8139800000000002E-10, -1.63916E-10, -1.544E-11, 1.8139800000000002E-10, 1.544E-11
DataValue, 2.5, 0, 0, 1.88318E-10, -1.6566300000000003E-10, -1.8027E-11, 1.88318E-10, 1.8027E-11
DataValue, 3, 0, 0, 1.98262E-10, -1.67975E-10, -2.5573000000000002E-11, 1.98262E-10, 2.5573000000000002E-11
DataValue, 3.5, 0, 0, 2.0444100000000003E-10, -1.69693E-10, -3.2236E-11, 2.0444100000000003E-10, 3.2236E-11
DataValue, 4, 0, 0, 2.10971E-10, -1.7173400000000002E-10, -3.1707E-11, 2.10971E-10, 3.1707E-11
DataValue, 4.5, 0, 0, 2.17661E-10, -1.75402E-10, -3.3238E-11, 2.17661E-10, 3.3238E-11
DataValue, 5, 0, 0, 2.2607600000000003E-10, -1.8062900000000002E-10, -3.8669000000000005E-11, 2.2607600000000003E-10, 3.8669000000000005E-11
DataValue, 0, 1, 0, -1.1345500000000001E-10, 8.2192000000000007E-11, 3.1496000000000006E-11, 1.1345500000000001E-10, 3.1496000000000006E-11
DataValue, 0.5, 1, 0, 1.75411E-07, -1.75193E-07, 1.5373E-11, 1.75411E-07, 1.5373E-11
DataValue, 1, 1, 0, 1.99164E-07, -1.9963E-07, 1.1473E-11, 1.99164E-07, 1.1473E-11
DataValue, 1.5, 1, 0, 2.01008E-07, -2.00166E-07, 7.617E-12, 2.01008E-07, 7.617E-12
DataValue, 2, 1, 0, 1.98807E-07, -1.9786999999999998E-07, 2.427E-12, 1.98807E-07, 2.427E-12
DataValue, 2.5, 1, 0, 1.96775E-07, -1.96647E-07, -4.7E-14, 1.96775E-07, 4.7E-14
DataValue, 3, 1, 0, 1.94506E-07, -1.94432E-07, -3.996E-12, 1.94506E-07, 3.996E-12
DataValue, 3.5, 1, 0, 1.9216E-07, -1.9214999999999998E-07, -7.574E-12, 1.9216E-07, 7.574E-12
DataValue, 4, 1, 0, 1.89362E-07, -1.8937399999999999E-07, -1.2586000000000002E-11, 1.89362E-07, 1.2586000000000002E-11
DataValue, 4.5, 1, 0, 1.86092E-07, -1.8570999999999999E-07, -1.9341E-11, 1.86092E-07, 1.9341E-11
DataValue, 5, 1, 0, 1.84319E-07, -1.84359E-07, -2.3237000000000002E-11, 1.84319E-07, 2.3237000000000002E-11
DataValue, 0, 2, 0, -7.1101E-10, 8.8782000000000007E-11, 5.6235E-10, 7.1101E-10, 5.6235E-10
DataValue, 0.5, 2, 0, 7.56594E-07, -7.53906E-07, 2.12656E-10, 7.56594E-07, 2.12656E-10
DataValue, 1, 2, 0, 1.14217E-06, -1.1401700000000001E-06, 1.36676E-10, 1.14217E-06, 1.36676E-10
DataValue, 1.5, 2, 0, 1.2877700000000002E-06, -1.2860800000000001E-06, 1.08419E-10, 1.2877700000000002E-06, 1.08419E-10
DataValue, 2, 2, 0, 1.31493E-06, -1.3110800000000001E-06, 1.0088500000000001E-10, 1.31493E-06, 1.0088500000000001E-10
DataValue, 2.5, 2, 0, 1.3054E-06, -1.3026900000000002E-06, 8.6636E-11, 1.3054E-06, 8.6636E-11
DataValue, 3, 2, 0, 1.2816300000000001E-06, -1.2778E-06, 7.9608E-11, 1.2816300000000001E-06, 7.9608E-11
DataValue, 3.5, 2, 0, 1.2524500000000002E-06, -1.2469100000000002E-06, 6.5228E-11, 1.2524500000000002E-06, 6.5228E-11
DataValue, 4, 2, 0, 1.2317500000000001E-06, -1.2310700000000002E-06, 5.961400000000001E-11, 1.2317500000000001E-06, 5.961400000000001E-11
DataValue, 4.5, 2, 0, 1.2205600000000002E-06, -1.21537E-06, 5.4587E-11, 1.2205600000000002E-06, 5.4587E-11
DataValue, 5, 2, 0, 1.19913E-06, -1.1993800000000002E-06, 4.4172000000000005E-11, 1.19913E-06, 4.4172000000000005E-11
DataValue, 0, 3, 0, -3.02994E-09, -1.0868E-09, 3.91374E-09, 3.02994E-09, 3.91374E-09
DataValue, 0.5, 3, 0, 1.59729E-06, -1.5973800000000002E-06, 2.03351E-09, 1.59729E-06, 2.03351E-09
DataValue, 1, 3, 0, 2.7446300000000004E-06, -2.7451800000000003E-06, 1.3041E-09, 2.7446300000000004E-06, 1.3041E-09
DataValue, 1.5, 3, 0, 3.5157700000000003E-06, -3.5135900000000003E-06, 1.03246E-09, 3.5157700000000003E-06, 1.03246E-09
DataValue, 2, 3, 0, 3.97219E-06, -3.9690000000000005E-06, 8.92434E-10, 3.97219E-06, 8.92434E-10
DataValue, 2.5, 3, 0, 4.1806300000000007E-06, -4.1764E-06, 8.0456300000000009E-10, 4.1806300000000007E-06, 8.0456300000000009E-10
DataValue, 3, 3, 0, 4.26079E-06, -4.25763E-06, 7.4199800000000011E-10, 4.26079E-06, 7.4199800000000011E-10
DataValue, 3.5, 3, 0, 4.27743E-06, -4.2741900000000007E-06, 7.00334E-10, 4.27743E-06, 7.00334E-10
DataValue, 4, 3, 0, 4.25769E-06, -4.2544200000000008E-06, 6.51735E-10, 4.25769E-06, 6.51735E-10
DataValue, 4.5, 3, 0, 4.23316E-06, -4.22815E-06, 6.2495900000000007E-10, 4.23316E-06, 6.2495900000000007E-10
DataValue, 5, 3, 0, 4.2000400000000007E-06, -4.19777E-06, 5.90927E-10, 4.2000400000000007E-06, 5.90927E-10
DataValue, 0, 4, 0, -8.93172E-09, -5.24278E-09, 1.3999599999999998E-08, 8.93172E-09, 1.3999599999999998E-08
DataValue, 0.5, 4, 0, 2.58524E-06, -2.5913600000000005E-06, 8.80206E-09, 2.58524E-06, 8.80206E-09
DataValue, 1, 4, 0, 4.66069E-06, -4.66656E-06, 6.09511E-09, 4.66069E-06, 6.09511E-09
DataValue, 1.5, 4, 0, 6.2824200000000007E-06, -6.2901900000000005E-06, 4.74953E-09, 6.2824200000000007E-06, 4.74953E-09
DataValue, 2, 4, 0, 7.5032700000000011E-06, -7.5086500000000005E-06, 4.04533E-09, 7.5032700000000011E-06, 4.04533E-09
DataValue, 2.5, 4, 0, 8.38178E-06, -8.38587E-06, 3.65921E-09, 8.38178E-06, 3.65921E-09
DataValue, 3, 4, 0, 8.96566E-06, -8.9694000000000009E-06, 3.38422E-09, 8.96566E-06, 3.38422E-09
DataValue, 3.5, 4, 0, 9.3230400000000015E-06, -9.3232E-06, 3.18384E-09, 9.3230400000000015E-06, 3.18384E-09
DataValue, 4, 4, 0, 9.5069900000000016E-06, -9.5092800000000009E-06, 3.03351E-09, 9.5069900000000016E-06, 3.03351E-09
DataValue, 4.5, 4, 0, 9.60428E-06, -9.6046500000000013E-06, 2.89305E-09, 9.60428E-06, 2.89305E-09
DataValue, 5, 4, 0, 9.63983E-06, -9.640850000000001E-06, 2.79231E-09, 9.63983E-06, 2.79231E-09
DataValue, 0, 5, 0, -2.0866399999999998E-08, -1.59028E-08, 3.59895E-08, 2.0866399999999998E-08, 3.59895E-08
DataValue, 0.5, 5, 0, 3.6830700000000004E-06, -3.7064400000000005E-06, 2.5551999999999996E-08, 3.6830700000000004E-06, 2.5551999999999996E-08
DataValue, 1, 5, 0, 6.8219000000000007E-06, -6.8411700000000011E-06, 1.9103E-08, 6.8219000000000007E-06, 1.9103E-08
DataValue, 1.5, 5, 0, 9.4365100000000009E-06, -9.45174E-06, 1.51282E-08, 9.4365100000000009E-06, 1.51282E-08
DataValue, 2, 5, 0, 1.15897E-05, -1.16012E-05, 1.2731299999999998E-08, 1.15897E-05, 1.2731299999999998E-08
DataValue, 2.5, 5, 0, 1.33163E-05, -1.33258E-05, 1.13464E-08, 1.33163E-05, 1.13464E-08
DataValue, 3, 5, 0, 1.46568E-05, -1.46695E-05, 1.0456199999999999E-08, 1.46568E-05, 1.0456199999999999E-08
DataValue, 3.5, 5, 0, 1.56661E-05, -1.56774E-05, 9.75809E-09, 1.56661E-05, 9.75809E-09
DataValue, 4, 5, 0, 1.63843E-05, -1.6390600000000002E-05, 9.28144E-09, 1.63843E-05, 9.28144E-09
DataValue, 4.5, 5, 0, 1.6860300000000002E-05, -1.68675E-05, 8.96443E-09, 1.6860300000000002E-05, 8.96443E-09
DataValue, 5, 5, 0, 1.71674E-05, -1.7172400000000002E-05, 8.68766E-09, 1.71674E-05, 8.68766E-09