
SetupTitle, Output
PrimitiveTest, I/V Sweep
TestParameter, Context.MainFrame, 4155C
TestParameter, Channel.UnitType, SMU, SMU, SMU
TestParameter, Channel.Unit, SMU3:MP, SMU1:MP, SMU4:MP
TestParameter, Channel.IName, ID, IS, IG
TestParameter, Channel.VName, VD, VS, VG
TestParameter, Channel.Mode, V, COMMON, V
TestParameter, Channel.Func, VAR1, CONST, VAR2
TestParameter, Channel.Index, 
TestParameter, Channel.Time, 
TestParameter, Measurement.Port.Unit, SMU3:MP, SMU1:MP, SMU4:MP
TestParameter, Measurement.Port.SeriesResistor, NONE, NONE, NONE
TestParameter, Measurement.Port.Filter, ON, ON, ON
TestParameter, Measurement.Primary.Locus, Single
TestParameter, Measurement.Primary.Scale, LINEAR
TestParameter, Measurement.Primary.Start, 0
TestParameter, Measurement.Primary.Stop, 5
TestParameter, Measurement.Primary.Step, 0.5
TestParameter, Measurement.Primary.Compliance, 0.1
TestParameter, Measurement.Primary.PowerCompliance, 0
TestParameter, Measurement.Aborting.Condition, CONTINUE AT ANY
TestParameter, Measurement.PostOutput.Value, START
TestParameter, Measurement.PostOutput.Retention, OFF
TestParameter, Measurement.Secondary.Start, -1
TestParameter, Measurement.Secondary.Count, 7
TestParameter, Measurement.Secondary.Step, 1
TestParameter, Measurement.Secondary.Compliance, 0.1
TestParameter, Measurement.Secondary.PowerCompliance, 0
TestParameter, Measurement.Bias.Source, 0, 0, -1
TestParameter, Measurement.Bias.Compliance, 0.1, 0.1, 0.1
TestParameter, Measurement.Monitor.Unit, SMU3:MP, SMU1:MP, SMU4:MP
TestParameter, Measurement.Monitor.Adc, HR ADC, HR ADC, HR ADC
TestParameter, Measurement.Monitor.RangingMode, AUTO, AUTO, AUTO
TestParameter, Measurement.Monitor.RangeBoundary, , , 
TestParameter, Measurement.Monitor.RangeRating, BY FULL RANGE, BY FULL RANGE, BY FULL RANGE
TestParameter, Measurement.Monitor.RangeRatingCoeff, 50, 50, 50
TestParameter, Measurement.Timing.Hold, 0.5
TestParameter, Measurement.Timing.Delay, 0.05
TestParameter, Measurement.Adc.HighResolution.AutoZero, OFF
TestParameter, Measurement.Adc.HighResolution.Mode, AUTO
TestParameter, Measurement.Adc.HighResolution.Coeff, 1
TestParameter, Measurement.Ag16440ASelector.SemiconductorRelay.Channel1, DEFAULT
TestParameter, Measurement.Ag16440ASelector.SemiconductorRelay.Channel3, DEFAULT
TestParameter, Function.User.Name, absID, absIG
TestParameter, Function.User.Unit, A, A
TestParameter, Function.User.Definition, abs(ID), abs(IG)
TestParameter, Output.Graph.Enabled, true
TestParameter, Output.Graph.XAxis.Data, VD
TestParameter, Output.Graph.XAxis.Scale, Linear
TestParameter, Output.Graph.XAxis.Left, 0
TestParameter, Output.Graph.XAxis.Right, 7
TestParameter, Output.Graph.YAxis.Data, ID
TestParameter, Output.Graph.YAxis.Scale, Linear
TestParameter, Output.Graph.YAxis.Bottom, 1E-14
TestParameter, Output.Graph.YAxis.Top, 0.01
TestParameter, Output.Graph.YAxis.Group, 
TestParameter, Output.List.Data, VG, IG, VD, ID, VS, IS, absIG
TestParameter, AutoAnalysis.Interpolation, false
TestParameter, AutoAnalysis.Line1.Enabled, false
TestParameter, AutoAnalysis.Line1.Type, 1
TestParameter, AutoAnalysis.Line1.Fix, True
TestParameter, AutoAnalysis.Line1.YAxis, 0
TestParameter, AutoAnalysis.Line1.Point1.Type, 0
TestParameter, AutoAnalysis.Line1.Point1.XY.X, 
TestParameter, AutoAnalysis.Line1.Point1.XY.Y, 
TestParameter, AutoAnalysis.Line1.Point1.Data.Var, 
TestParameter, AutoAnalysis.Line1.Point1.Data.Condition, 
TestParameter, AutoAnalysis.Line1.Point1.Data.Start, false
TestParameter, AutoAnalysis.Line1.Point1.Data.StartVar, 
TestParameter, AutoAnalysis.Line1.Point1.Data.StartCondition, 
TestParameter, AutoAnalysis.Line1.Point2.Type, 0
TestParameter, AutoAnalysis.Line1.Point2.XY.X, 
TestParameter, AutoAnalysis.Line1.Point2.XY.Y, 
TestParameter, AutoAnalysis.Line1.Point2.Data.Var, 
TestParameter, AutoAnalysis.Line1.Point2.Data.Condition, 
TestParameter, AutoAnalysis.Line1.Point2.Data.Start, false
TestParameter, AutoAnalysis.Line1.Point2.Data.StartVar, 
TestParameter, AutoAnalysis.Line1.Point2.Data.StartCondition, 
TestParameter, AutoAnalysis.Line1.GradientExpr, 0
TestParameter, AutoAnalysis.Line2.Enabled, false
TestParameter, AutoAnalysis.Line2.Type, 1
TestParameter, AutoAnalysis.Line2.Fix, True
TestParameter, AutoAnalysis.Line2.YAxis, 0
TestParameter, AutoAnalysis.Line2.Point1.Type, 0
TestParameter, AutoAnalysis.Line2.Point1.XY.X, 
TestParameter, AutoAnalysis.Line2.Point1.XY.Y, 
TestParameter, AutoAnalysis.Line2.Point1.Data.Var, 
TestParameter, AutoAnalysis.Line2.Point1.Data.Condition, 
TestParameter, AutoAnalysis.Line2.Point1.Data.Start, false
TestParameter, AutoAnalysis.Line2.Point1.Data.StartVar, 
TestParameter, AutoAnalysis.Line2.Point1.Data.StartCondition, 
TestParameter, AutoAnalysis.Line2.Point2.Type, 0
TestParameter, AutoAnalysis.Line2.Point2.XY.X, 
TestParameter, AutoAnalysis.Line2.Point2.XY.Y, 
TestParameter, AutoAnalysis.Line2.Point2.Data.Var, 
TestParameter, AutoAnalysis.Line2.Point2.Data.Condition, 
TestParameter, AutoAnalysis.Line2.Point2.Data.Start, false
TestParameter, AutoAnalysis.Line2.Point2.Data.StartVar, 
TestParameter, AutoAnalysis.Line2.Point2.Data.StartCondition, 
TestParameter, AutoAnalysis.Line2.GradientExpr, 0
TestParameter, AutoAnalysis.Marker.Enabled, false
TestParameter, AutoAnalysis.Marker.Data.Var, 
TestParameter, AutoAnalysis.Marker.Data.Condition, 
TestParameter, AutoAnalysis.Marker.Data.Start, false
TestParameter, AutoAnalysis.Marker.Data.StartVar, 
TestParameter, AutoAnalysis.Marker.Data.StartCondition, 
MetaData, TestRecord.EntryPoint, true
MetaData, TestRecord.RecordTime, 05/02/2019 19:15:27
MetaData, TestRecord.TestTarget, 350-300-20-10b
MetaData, TestRecord.IterationIndex, 1
MetaData, TestRecord.Preservation, true
MetaData, TestRecord.Flag, 
MetaData, TestRecord.Remarks, good
MetaData, TestRecord.LinkKey, 01bc986f-e538-444a-a611-651701b0f9bb
Dimension1, 11, 11, 11, 11, 11, 11, 11, 11
Dimension2, 7, 7, 7, 7, 7, 7, 7, 7
DataName, VD, VG, VS, ID, IS, IG, absID, absIG
DataValue, 0, -1, 0, -4.1400000000000005E-13, 7.350000000000001E-13, -6.0400000000000005E-13, 4.1400000000000005E-13, 6.0400000000000005E-13
DataValue, 0.5, -1, 0, 1.473E-12, -3.2830000000000005E-12, 3.1300000000000003E-13, 1.473E-12, 3.1300000000000003E-13
DataValue, 1, -1, 0, -3.066E-12, 1.8480000000000002E-12, -1.0020000000000002E-12, 3.066E-12, 1.0020000000000002E-12
DataValue, 1.5, -1, 0, 2.094E-12, 3.5600000000000005E-13, -7.2200000000000005E-13, 2.094E-12, 7.2200000000000005E-13
DataValue, 2, -1, 0, 5.4700000000000009E-13, 1.9910000000000003E-12, -2.937E-12, 5.4700000000000009E-13, 2.937E-12
DataValue, 2.5, -1, 0, 8.0900000000000009E-13, 8.5800000000000008E-13, 2.069E-12, 8.0900000000000009E-13, 2.069E-12
DataValue, 3, -1, 0, 1.617E-12, -1.0500000000000001E-13, -1.7450000000000001E-12, 1.617E-12, 1.7450000000000001E-12
DataValue, 3.5, -1, 0, 1.581E-12, 6.0400000000000005E-13, 2.0740000000000003E-12, 1.581E-12, 2.0740000000000003E-12
DataValue, 4, -1, 0, 1.047E-12, -8.5600000000000009E-13, 6.4900000000000006E-13, 1.047E-12, 6.4900000000000006E-13
DataValue, 4.5, -1, 0, 8.66E-13, 2.374E-12, -8.65E-13, 8.66E-13, 8.65E-13
DataValue, 5, -1, 0, 8.300000000000001E-13, 4.347E-12, 3.3400000000000004E-13, 8.300000000000001E-13, 3.3400000000000004E-13
DataValue, 0, 0, 0, 8.2700000000000011E-13, -1.926E-12, 7.549E-12, 8.2700000000000011E-13, 7.549E-12
DataValue, 0.5, 0, 0, 2.14E-12, 7.2100000000000006E-13, -2.9110000000000004E-12, 2.14E-12, 2.9110000000000004E-12
DataValue, 1, 0, 0, 3.9100000000000005E-13, -2.11E-13, -2.778E-12, 3.9100000000000005E-13, 2.778E-12
DataValue, 1.5, 0, 0, 2.495E-12, 3.4270000000000002E-12, 9.63E-13, 2.495E-12, 9.63E-13
DataValue, 2, 0, 0, 4.7790000000000005E-12, -1.393E-12, -8.792E-12, 4.7790000000000005E-12, 8.792E-12
DataValue, 2.5, 0, 0, 4.118E-12, -9.599E-12, -4.7160000000000005E-12, 4.118E-12, 4.7160000000000005E-12
DataValue, 3, 0, 0, 4.007E-12, 2.5300000000000003E-13, -7.4640000000000013E-12, 4.007E-12, 7.4640000000000013E-12
DataValue, 3.5, 0, 0, 1.665E-12, -4.075E-12, 2.281E-12, 1.665E-12, 2.281E-12
DataValue, 4, 0, 0, 3.888E-12, -3.5040000000000004E-12, 6.1E-14, 3.888E-12, 6.1E-14
DataValue, 4.5, 0, 0, 3.0800000000000002E-12, -2.3290000000000003E-12, -8.45E-13, 3.0800000000000002E-12, 8.45E-13
DataValue, 5, 0, 0, 3.4920000000000005E-12, -1.8610000000000002E-12, 1.387E-12, 3.4920000000000005E-12, 1.387E-12
DataValue, 0, 1, 0, -5.5422000000000005E-11, 5.3018000000000004E-11, 1.011E-12, 5.5422000000000005E-11, 1.011E-12
DataValue, 0.5, 1, 0, 6.7428499999999987E-08, -6.6481299999999988E-08, 3.8100000000000004E-13, 6.7428499999999987E-08, 3.8100000000000004E-13
DataValue, 1, 1, 0, 6.7148999999999988E-08, -6.70268E-08, 8.3000000000000012E-14, 6.7148999999999988E-08, 8.3000000000000012E-14
DataValue, 1.5, 1, 0, 6.6513599999999988E-08, -6.63498E-08, 4.23E-13, 6.6513599999999988E-08, 4.23E-13
DataValue, 2, 1, 0, 6.5091E-08, -6.49206E-08, 1.16E-13, 6.5091E-08, 1.16E-13
DataValue, 2.5, 1, 0, 6.37639E-08, -6.3710699999999991E-08, -9.4E-14, 6.37639E-08, 9.4E-14
DataValue, 3, 1, 0, 6.28661E-08, -6.29839E-08, -1E-15, 6.28661E-08, 1E-15
DataValue, 3.5, 1, 0, 6.22183E-08, -6.1991799999999993E-08, 5.8E-14, 6.22183E-08, 5.8E-14
DataValue, 4, 1, 0, 6.14585E-08, -6.1171299999999989E-08, -3.9100000000000005E-13, 6.14585E-08, 3.9100000000000005E-13
DataValue, 4.5, 1, 0, 6.05366E-08, -6.00762E-08, -1.0700000000000001E-13, 6.05366E-08, 1.0700000000000001E-13
DataValue, 5, 1, 0, 5.9318899999999991E-08, -5.9204499999999993E-08, -4.7E-13, 5.9318899999999991E-08, 4.7E-13
DataValue, 0, 2, 0, -3.6802700000000005E-10, 3.39686E-10, 3.2827000000000005E-11, 3.6802700000000005E-10, 3.2827000000000005E-11
DataValue, 0.5, 2, 0, 7.698E-07, -7.68784E-07, 8.718E-12, 7.698E-07, 8.718E-12
DataValue, 1, 2, 0, 1.1126300000000001E-06, -1.1119689999999999E-06, 5.006E-12, 1.1126300000000001E-06, 5.006E-12
DataValue, 1.5, 2, 0, 1.21306E-06, -1.2124200000000002E-06, 5.29E-12, 1.21306E-06, 5.29E-12
DataValue, 2, 2, 0, 1.2240800000000002E-06, -1.2241E-06, 3.8870000000000007E-12, 1.2240800000000002E-06, 3.8870000000000007E-12
DataValue, 2.5, 2, 0, 1.2207300000000002E-06, -1.2207900000000002E-06, 4.9180000000000007E-12, 1.2207300000000002E-06, 4.9180000000000007E-12
DataValue, 3, 2, 0, 1.2183900000000002E-06, -1.2191500000000002E-06, 4.575E-12, 1.2183900000000002E-06, 4.575E-12
DataValue, 3.5, 2, 0, 1.2147000000000002E-06, -1.2132800000000002E-06, 4.0480000000000005E-12, 1.2147000000000002E-06, 4.0480000000000005E-12
DataValue, 4, 2, 0, 1.20882E-06, -1.20861E-06, 3.846E-12, 1.20882E-06, 3.846E-12
DataValue, 4.5, 2, 0, 1.2036600000000002E-06, -1.2008200000000001E-06, 3.5780000000000003E-12, 1.2036600000000002E-06, 3.5780000000000003E-12
DataValue, 5, 2, 0, 1.19698E-06, -1.1961100000000001E-06, 2.6090000000000003E-12, 1.19698E-06, 2.6090000000000003E-12
DataValue, 0, 3, 0, -1.11645E-09, 7.05251E-10, 3.42404E-10, 1.11645E-09, 3.42404E-10
DataValue, 0.5, 3, 0, 2.06919E-06, -2.0677800000000002E-06, 1.1086100000000001E-10, 2.06919E-06, 1.1086100000000001E-10
DataValue, 1, 3, 0, 3.4520600000000005E-06, -3.4520600000000005E-06, 5.9589E-11, 3.4520600000000005E-06, 5.9589E-11
DataValue, 1.5, 3, 0, 4.3041700000000007E-06, -4.30559E-06, 4.9676E-11, 4.3041700000000007E-06, 4.9676E-11
DataValue, 2, 3, 0, 4.7710500000000007E-06, -4.7730100000000006E-06, 4.3546000000000005E-11, 4.7710500000000007E-06, 4.3546000000000005E-11
DataValue, 2.5, 3, 0, 4.9789000000000007E-06, -4.9798900000000005E-06, 4.1441000000000003E-11, 4.9789000000000007E-06, 4.1441000000000003E-11
DataValue, 3, 3, 0, 5.05101E-06, -5.0525800000000008E-06, 4.0702000000000003E-11, 5.05101E-06, 4.0702000000000003E-11
DataValue, 3.5, 3, 0, 5.0764E-06, -5.07589E-06, 3.7732000000000006E-11, 5.0764E-06, 3.7732000000000006E-11
DataValue, 4, 3, 0, 5.08278E-06, -5.08104E-06, 3.6545E-11, 5.08278E-06, 3.6545E-11
DataValue, 4.5, 3, 0, 5.0840200000000005E-06, -5.0828700000000005E-06, 3.6019E-11, 5.0840200000000005E-06, 3.6019E-11
DataValue, 5, 3, 0, 5.0823400000000007E-06, -5.08175E-06, 3.4634E-11, 5.0823400000000007E-06, 3.4634E-11
DataValue, 0, 4, 0, -2.72796E-09, 8.21887E-10, 1.77751E-09, 2.72796E-09, 1.77751E-09
DataValue, 0.5, 4, 0, 3.6610100000000005E-06, -3.6593500000000004E-06, 7.23561E-10, 3.6610100000000005E-06, 7.23561E-10
DataValue, 1, 4, 0, 6.48306E-06, -6.4815400000000008E-06, 3.8349500000000003E-10, 6.48306E-06, 3.8349500000000003E-10
DataValue, 1.5, 4, 0, 8.5596100000000009E-06, -8.5605600000000013E-06, 2.79336E-10, 8.5596100000000009E-06, 2.79336E-10
DataValue, 2, 4, 0, 1.00169E-05, -1.0014660000000002E-05, 2.3944400000000004E-10, 1.00169E-05, 2.3944400000000004E-10
DataValue, 2.5, 4, 0, 1.09738E-05, -1.0972690000000002E-05, 2.22343E-10, 1.09738E-05, 2.22343E-10
DataValue, 3, 4, 0, 1.15558E-05, -1.15533E-05, 2.07241E-10, 1.15558E-05, 2.07241E-10
DataValue, 3.5, 4, 0, 1.18695E-05, -1.1866000000000001E-05, 1.9763400000000003E-10, 1.18695E-05, 1.9763400000000003E-10
DataValue, 4, 4, 0, 1.20168E-05, -1.20126E-05, 1.88775E-10, 1.20168E-05, 1.88775E-10
DataValue, 4.5, 4, 0, 1.2084500000000001E-05, -1.2079200000000001E-05, 1.86175E-10, 1.2084500000000001E-05, 1.86175E-10
DataValue, 5, 4, 0, 1.2124700000000001E-05, -1.21173E-05, 1.8122900000000002E-10, 1.2124700000000001E-05, 1.8122900000000002E-10
DataValue, 0, 5, 0, -6.30711E-09, 1.5877E-10, 6.04888E-09, 6.30711E-09, 6.04888E-09
DataValue, 0.5, 5, 0, 5.4002400000000007E-06, -5.39901E-06, 2.97572E-09, 5.4002400000000007E-06, 2.97572E-09
DataValue, 1, 5, 0, 9.8612000000000014E-06, -9.85932E-06, 1.64941E-09, 9.8612000000000014E-06, 1.64941E-09
DataValue, 1.5, 5, 0, 1.3442000000000001E-05, -1.34309E-05, 1.14259E-09, 1.3442000000000001E-05, 1.14259E-09
DataValue, 2, 5, 0, 1.62265E-05, -1.6220600000000002E-05, 9.455E-10, 1.62265E-05, 9.455E-10
DataValue, 2.5, 5, 0, 1.83214E-05, -1.83163E-05, 8.5153300000000008E-10, 1.83214E-05, 8.5153300000000008E-10
DataValue, 3, 5, 0, 1.98283E-05, -1.98252E-05, 7.7613200000000011E-10, 1.98283E-05, 7.7613200000000011E-10
DataValue, 3.5, 5, 0, 2.0873300000000002E-05, -2.0871E-05, 7.19279E-10, 2.0873300000000002E-05, 7.19279E-10
DataValue, 4, 5, 0, 2.1554E-05, -2.15526E-05, 6.82761E-10, 2.1554E-05, 6.82761E-10
DataValue, 4.5, 5, 0, 2.19628E-05, -2.19653E-05, 6.42769E-10, 2.19628E-05, 6.42769E-10
DataValue, 5, 5, 0, 2.2195800000000002E-05, -2.21972E-05, 6.31206E-10, 2.2195800000000002E-05, 6.31206E-10