
SetupTitle, Output
PrimitiveTest, I/V Sweep
TestParameter, Context.MainFrame, 4155C
TestParameter, Channel.UnitType, SMU, SMU, SMU
TestParameter, Channel.Unit, SMU3:MP, SMU1:MP, SMU4:MP
TestParameter, Channel.IName, ID, IS, IG
TestParameter, Channel.VName, VD, VS, VG
TestParameter, Channel.Mode, V, COMMON, V
TestParameter, Channel.Func, VAR1, CONST, VAR2
TestParameter, Channel.Index, 
TestParameter, Channel.Time, 
TestParameter, Measurement.Port.Unit, SMU3:MP, SMU1:MP, SMU4:MP
TestParameter, Measurement.Port.SeriesResistor, NONE, NONE, NONE
TestParameter, Measurement.Port.Filter, ON, ON, ON
TestParameter, Measurement.Primary.Locus, Single
TestParameter, Measurement.Primary.Scale, LINEAR
TestParameter, Measurement.Primary.Start, 0
TestParameter, Measurement.Primary.Stop, 5
TestParameter, Measurement.Primary.Step, 0.5
TestParameter, Measurement.Primary.Compliance, 0.1
TestParameter, Measurement.Primary.PowerCompliance, 0
TestParameter, Measurement.Aborting.Condition, CONTINUE AT ANY
TestParameter, Measurement.PostOutput.Value, START
TestParameter, Measurement.PostOutput.Retention, OFF
TestParameter, Measurement.Secondary.Start, -1
TestParameter, Measurement.Secondary.Count, 7
TestParameter, Measurement.Secondary.Step, 1
TestParameter, Measurement.Secondary.Compliance, 0.1
TestParameter, Measurement.Secondary.PowerCompliance, 0
TestParameter, Measurement.Bias.Source, 0, 0, -1
TestParameter, Measurement.Bias.Compliance, 0.1, 0.1, 0.1
TestParameter, Measurement.Monitor.Unit, SMU3:MP, SMU1:MP, SMU4:MP
TestParameter, Measurement.Monitor.Adc, HR ADC, HR ADC, HR ADC
TestParameter, Measurement.Monitor.RangingMode, AUTO, AUTO, AUTO
TestParameter, Measurement.Monitor.RangeBoundary, , , 
TestParameter, Measurement.Monitor.RangeRating, BY FULL RANGE, BY FULL RANGE, BY FULL RANGE
TestParameter, Measurement.Monitor.RangeRatingCoeff, 50, 50, 50
TestParameter, Measurement.Timing.Hold, 0.5
TestParameter, Measurement.Timing.Delay, 0.05
TestParameter, Measurement.Adc.HighResolution.AutoZero, OFF
TestParameter, Measurement.Adc.HighResolution.Mode, AUTO
TestParameter, Measurement.Adc.HighResolution.Coeff, 1
TestParameter, Measurement.Ag16440ASelector.SemiconductorRelay.Channel1, DEFAULT
TestParameter, Measurement.Ag16440ASelector.SemiconductorRelay.Channel3, DEFAULT
TestParameter, Function.User.Name, absID, absIG
TestParameter, Function.User.Unit, A, A
TestParameter, Function.User.Definition, abs(ID), abs(IG)
TestParameter, Output.Graph.Enabled, true
TestParameter, Output.Graph.XAxis.Data, VD
TestParameter, Output.Graph.XAxis.Scale, Linear
TestParameter, Output.Graph.XAxis.Left, 0
TestParameter, Output.Graph.XAxis.Right, 7
TestParameter, Output.Graph.YAxis.Data, ID
TestParameter, Output.Graph.YAxis.Scale, Linear
TestParameter, Output.Graph.YAxis.Bottom, 1E-14
TestParameter, Output.Graph.YAxis.Top, 0.01
TestParameter, Output.Graph.YAxis.Group, 
TestParameter, Output.List.Data, VG, IG, VD, ID, VS, IS, absIG
TestParameter, AutoAnalysis.Interpolation, false
TestParameter, AutoAnalysis.Line1.Enabled, false
TestParameter, AutoAnalysis.Line1.Type, 1
TestParameter, AutoAnalysis.Line1.Fix, True
TestParameter, AutoAnalysis.Line1.YAxis, 0
TestParameter, AutoAnalysis.Line1.Point1.Type, 0
TestParameter, AutoAnalysis.Line1.Point1.XY.X, 
TestParameter, AutoAnalysis.Line1.Point1.XY.Y, 
TestParameter, AutoAnalysis.Line1.Point1.Data.Var, 
TestParameter, AutoAnalysis.Line1.Point1.Data.Condition, 
TestParameter, AutoAnalysis.Line1.Point1.Data.Start, false
TestParameter, AutoAnalysis.Line1.Point1.Data.StartVar, 
TestParameter, AutoAnalysis.Line1.Point1.Data.StartCondition, 
TestParameter, AutoAnalysis.Line1.Point2.Type, 0
TestParameter, AutoAnalysis.Line1.Point2.XY.X, 
TestParameter, AutoAnalysis.Line1.Point2.XY.Y, 
TestParameter, AutoAnalysis.Line1.Point2.Data.Var, 
TestParameter, AutoAnalysis.Line1.Point2.Data.Condition, 
TestParameter, AutoAnalysis.Line1.Point2.Data.Start, false
TestParameter, AutoAnalysis.Line1.Point2.Data.StartVar, 
TestParameter, AutoAnalysis.Line1.Point2.Data.StartCondition, 
TestParameter, AutoAnalysis.Line1.GradientExpr, 0
TestParameter, AutoAnalysis.Line2.Enabled, false
TestParameter, AutoAnalysis.Line2.Type, 1
TestParameter, AutoAnalysis.Line2.Fix, True
TestParameter, AutoAnalysis.Line2.YAxis, 0
TestParameter, AutoAnalysis.Line2.Point1.Type, 0
TestParameter, AutoAnalysis.Line2.Point1.XY.X, 
TestParameter, AutoAnalysis.Line2.Point1.XY.Y, 
TestParameter, AutoAnalysis.Line2.Point1.Data.Var, 
TestParameter, AutoAnalysis.Line2.Point1.Data.Condition, 
TestParameter, AutoAnalysis.Line2.Point1.Data.Start, false
TestParameter, AutoAnalysis.Line2.Point1.Data.StartVar, 
TestParameter, AutoAnalysis.Line2.Point1.Data.StartCondition, 
TestParameter, AutoAnalysis.Line2.Point2.Type, 0
TestParameter, AutoAnalysis.Line2.Point2.XY.X, 
TestParameter, AutoAnalysis.Line2.Point2.XY.Y, 
TestParameter, AutoAnalysis.Line2.Point2.Data.Var, 
TestParameter, AutoAnalysis.Line2.Point2.Data.Condition, 
TestParameter, AutoAnalysis.Line2.Point2.Data.Start, false
TestParameter, AutoAnalysis.Line2.Point2.Data.StartVar, 
TestParameter, AutoAnalysis.Line2.Point2.Data.StartCondition, 
TestParameter, AutoAnalysis.Line2.GradientExpr, 0
TestParameter, AutoAnalysis.Marker.Enabled, false
TestParameter, AutoAnalysis.Marker.Data.Var, 
TestParameter, AutoAnalysis.Marker.Data.Condition, 
TestParameter, AutoAnalysis.Marker.Data.Start, false
TestParameter, AutoAnalysis.Marker.Data.StartVar, 
TestParameter, AutoAnalysis.Marker.Data.StartCondition, 
MetaData, TestRecord.EntryPoint, true
MetaData, TestRecord.RecordTime, 05/02/2019 18:09:15
MetaData, TestRecord.TestTarget, 150-180-5-2
MetaData, TestRecord.IterationIndex, 1
MetaData, TestRecord.Preservation, true
MetaData, TestRecord.Flag, 
MetaData, TestRecord.Remarks, good
MetaData, TestRecord.LinkKey, 185866f7-0dc0-4b1e-bfcd-8dbecfd58402
Dimension1, 11, 11, 11, 11, 11, 11, 11, 11
Dimension2, 7, 7, 7, 7, 7, 7, 7, 7
DataName, VD, VG, VS, ID, IS, IG, absID, absIG
DataValue, 0, -1, 0, 4.23E-13, 8.93E-13, -1.3900000000000001E-12, 4.23E-13, 1.3900000000000001E-12
DataValue, 0.5, -1, 0, -2.0160000000000003E-12, 7.5700000000000011E-13, -1.711E-12, 2.0160000000000003E-12, 1.711E-12
DataValue, 1, -1, 0, 1.717E-12, -3.9400000000000004E-13, 8.3400000000000008E-13, 1.717E-12, 8.3400000000000008E-13
DataValue, 1.5, -1, 0, 2.674E-12, -1.6340000000000001E-12, -3.02E-12, 2.674E-12, 3.02E-12
DataValue, 2, -1, 0, 1.2003E-11, -1.1119E-11, -8.4930000000000011E-12, 1.2003E-11, 8.4930000000000011E-12
DataValue, 2.5, -1, 0, 1.3876000000000001E-11, -1.6429000000000003E-11, -1.3800000000000002E-13, 1.3876000000000001E-11, 1.3800000000000002E-13
DataValue, 3, -1, 0, 2.3060000000000002E-11, -1.8738E-11, 4.24E-13, 2.3060000000000002E-11, 4.24E-13
DataValue, 3.5, -1, 0, 3.2598000000000005E-11, -2.5835E-11, 8.863E-12, 3.2598000000000005E-11, 8.863E-12
DataValue, 4, -1, 0, 3.9356000000000005E-11, -3.0082000000000005E-11, 1.8820000000000003E-12, 3.9356000000000005E-11, 1.8820000000000003E-12
DataValue, 4.5, -1, 0, 4.4887000000000006E-11, -5.353E-11, -1.8932E-11, 4.4887000000000006E-11, 1.8932E-11
DataValue, 5, -1, 0, 5.6145000000000004E-11, -5.3905000000000007E-11, -2.4430000000000003E-11, 5.6145000000000004E-11, 2.4430000000000003E-11
DataValue, 0, 0, 0, -6.6200000000000005E-12, 3.4E-14, 2.963E-12, 6.6200000000000005E-12, 2.963E-12
DataValue, 0.5, 0, 0, 4.56796E-09, -4.07147E-09, 1.7910000000000001E-12, 4.56796E-09, 1.7910000000000001E-12
DataValue, 1, 0, 0, 3.7253E-09, -3.74666E-09, 7.343E-12, 3.7253E-09, 7.343E-12
DataValue, 1.5, 0, 0, 3.49802E-09, -3.46024E-09, 2.209E-12, 3.49802E-09, 2.209E-12
DataValue, 2, 0, 0, 3.20077E-09, -3.10491E-09, -5.0940000000000007E-12, 3.20077E-09, 5.0940000000000007E-12
DataValue, 2.5, 0, 0, 2.97538E-09, -2.94045E-09, -2.9650000000000004E-12, 2.97538E-09, 2.9650000000000004E-12
DataValue, 3, 0, 0, 2.87045E-09, -2.95459E-09, 1.1E-14, 2.87045E-09, 1.1E-14
DataValue, 3.5, 0, 0, 2.80855E-09, -2.75102E-09, -2.264E-12, 2.80855E-09, 2.264E-12
DataValue, 4, 0, 0, 2.71003E-09, -2.6207E-09, -4.793E-12, 2.71003E-09, 4.793E-12
DataValue, 4.5, 0, 0, 2.61004E-09, -2.58957E-09, -4.9240000000000004E-12, 2.61004E-09, 4.9240000000000004E-12
DataValue, 5, 0, 0, 2.6916E-09, -2.71704E-09, -6.6000000000000009E-14, 2.6916E-09, 6.6000000000000009E-14
DataValue, 0, 1, 0, -6.7308000000000007E-11, 4.5205E-11, 8.892E-12, 6.7308000000000007E-11, 8.892E-12
DataValue, 0.5, 1, 0, 1.70353E-07, -1.60122E-07, 3.276E-12, 1.70353E-07, 3.276E-12
DataValue, 1, 1, 0, 1.75031E-07, -1.72556E-07, 2.8100000000000003E-12, 1.75031E-07, 2.8100000000000003E-12
DataValue, 1.5, 1, 0, 1.67808E-07, -1.67144E-07, -1.5490000000000002E-12, 1.67808E-07, 1.5490000000000002E-12
DataValue, 2, 1, 0, 1.655E-07, -1.60219E-07, -1.41E-13, 1.655E-07, 1.41E-13
DataValue, 2.5, 1, 0, 1.64133E-07, -1.6204E-07, 2.966E-12, 1.64133E-07, 2.966E-12
DataValue, 3, 1, 0, 1.60151E-07, -1.56877E-07, -1.925E-12, 1.60151E-07, 1.925E-12
DataValue, 3.5, 1, 0, 1.54693E-07, -1.5377E-07, -1.145E-12, 1.54693E-07, 1.145E-12
DataValue, 4, 1, 0, 1.47749E-07, -1.47109E-07, 3.614E-12, 1.47749E-07, 3.614E-12
DataValue, 4.5, 1, 0, 1.43699E-07, -1.42473E-07, -1.164E-12, 1.43699E-07, 1.164E-12
DataValue, 5, 1, 0, 1.40019E-07, -1.4109E-07, -5.742E-12, 1.40019E-07, 5.742E-12
DataValue, 0, 2, 0, -1.02114E-09, 1.8533900000000002E-10, 7.145640000000001E-10, 1.02114E-09, 7.145640000000001E-10
DataValue, 0.5, 2, 0, 1.7234900000000003E-06, -1.7096000000000001E-06, 1.26373E-10, 1.7234900000000003E-06, 1.26373E-10
DataValue, 1, 2, 0, 2.5805700000000003E-06, -2.5576300000000003E-06, 5.5260000000000005E-12, 2.5805700000000003E-06, 5.5260000000000005E-12
DataValue, 1.5, 2, 0, 2.7996600000000002E-06, -2.77408E-06, 9.0380000000000009E-12, 2.7996600000000002E-06, 9.0380000000000009E-12
DataValue, 2, 2, 0, 2.8134700000000003E-06, -2.8089200000000005E-06, 7.3890000000000009E-12, 2.8134700000000003E-06, 7.3890000000000009E-12
DataValue, 2.5, 2, 0, 2.7901200000000003E-06, -2.77385E-06, 4.218E-12, 2.7901200000000003E-06, 4.218E-12
DataValue, 3, 2, 0, 2.74622E-06, -2.74215E-06, 1.0364E-11, 2.74622E-06, 1.0364E-11
DataValue, 3.5, 2, 0, 2.72202E-06, -2.7149100000000003E-06, 5.6600000000000005E-12, 2.72202E-06, 5.6600000000000005E-12
DataValue, 4, 2, 0, 2.6842100000000003E-06, -2.6938600000000003E-06, 7.475E-12, 2.6842100000000003E-06, 7.475E-12
DataValue, 4.5, 2, 0, 2.6689600000000004E-06, -2.6602600000000003E-06, 6.268E-12, 2.6689600000000004E-06, 6.268E-12
DataValue, 5, 2, 0, 2.65287E-06, -2.6449600000000003E-06, 4.3980000000000004E-12, 2.65287E-06, 4.3980000000000004E-12
DataValue, 0, 3, 0, -5.03968E-09, -1.003102E-09, 5.57711E-09, 5.03968E-09, 5.57711E-09
DataValue, 0.5, 3, 0, 4.2893400000000008E-06, -4.2958500000000006E-06, 1.88975E-09, 4.2893400000000008E-06, 1.88975E-09
DataValue, 1, 3, 0, 7.6541200000000015E-06, -7.6500500000000014E-06, 2.81217E-10, 7.6541200000000015E-06, 2.81217E-10
DataValue, 1.5, 3, 0, 9.8064700000000013E-06, -9.7712E-06, 4.0259E-11, 9.8064700000000013E-06, 4.0259E-11
DataValue, 2, 3, 0, 1.0890900000000001E-05, -1.0843050000000001E-05, 2.6611E-11, 1.0890900000000001E-05, 2.6611E-11
DataValue, 2.5, 3, 0, 1.1360600000000001E-05, -1.1309560000000002E-05, 2.9643E-11, 1.1360600000000001E-05, 2.9643E-11
DataValue, 3, 3, 0, 1.15257E-05, -1.15114E-05, 2.8048000000000002E-11, 1.15257E-05, 2.8048000000000002E-11
DataValue, 3.5, 3, 0, 1.15418E-05, -1.15139E-05, 2.5031000000000002E-11, 1.15418E-05, 2.5031000000000002E-11
DataValue, 4, 3, 0, 1.1506E-05, -1.1478000000000001E-05, 2.8317000000000002E-11, 1.1506E-05, 2.8317000000000002E-11
DataValue, 4.5, 3, 0, 1.1502000000000001E-05, -1.14987E-05, 2.7069E-11, 1.1502000000000001E-05, 2.7069E-11
DataValue, 5, 3, 0, 1.14519E-05, -1.14421E-05, 2.2525E-11, 1.14519E-05, 2.2525E-11
DataValue, 0, 4, 0, -1.4632899999999999E-08, -6.8023E-09, 2.1302599999999997E-08, 1.4632899999999999E-08, 2.1302599999999997E-08
DataValue, 0.5, 4, 0, 7.1068E-06, -7.1233100000000008E-06, 1.0196199999999998E-08, 7.1068E-06, 1.0196199999999998E-08
DataValue, 1, 4, 0, 1.30772E-05, -1.3060400000000001E-05, 3.16807E-09, 1.30772E-05, 3.16807E-09
DataValue, 1.5, 4, 0, 1.7801500000000002E-05, -1.77663E-05, 6.2534600000000009E-10, 1.7801500000000002E-05, 6.2534600000000009E-10
DataValue, 2, 4, 0, 2.1329200000000002E-05, -2.12862E-05, 1.4564500000000002E-10, 2.1329200000000002E-05, 1.4564500000000002E-10
DataValue, 2.5, 4, 0, 2.37838E-05, -2.37298E-05, 1.0102100000000001E-10, 2.37838E-05, 1.0102100000000001E-10
DataValue, 3, 4, 0, 2.53874E-05, -2.53484E-05, 9.1806000000000008E-11, 2.53874E-05, 9.1806000000000008E-11
DataValue, 3.5, 4, 0, 2.6380500000000003E-05, -2.63134E-05, 9.493E-11, 2.6380500000000003E-05, 9.493E-11
DataValue, 4, 4, 0, 2.6969100000000002E-05, -2.6922600000000002E-05, 8.9428E-11, 2.6969100000000002E-05, 8.9428E-11
DataValue, 4.5, 4, 0, 2.73017E-05, -2.7293E-05, 8.6584000000000008E-11, 2.73017E-05, 8.6584000000000008E-11
DataValue, 5, 4, 0, 2.7500700000000003E-05, -2.7491500000000003E-05, 8.3477E-11, 2.7500700000000003E-05, 8.3477E-11
DataValue, 0, 5, 0, -2.8007099999999996E-08, -2.8161799999999997E-08, 5.4191799999999996E-08, 2.8007099999999996E-08, 5.4191799999999996E-08
DataValue, 0.5, 5, 0, 9.89499E-06, -9.90545E-06, 3.11947E-08, 9.89499E-06, 3.11947E-08
DataValue, 1, 5, 0, 1.84538E-05, -1.8444100000000002E-05, 1.3685899999999999E-08, 1.84538E-05, 1.3685899999999999E-08
DataValue, 1.5, 5, 0, 2.57092E-05, -2.5708000000000002E-05, 4.74839E-09, 2.57092E-05, 4.74839E-09
DataValue, 2, 5, 0, 3.17632E-05, -3.1727600000000004E-05, 1.30931E-09, 3.17632E-05, 1.30931E-09
DataValue, 2.5, 5, 0, 3.67057E-05, -3.6672000000000004E-05, 4.92973E-10, 3.67057E-05, 4.92973E-10
DataValue, 3, 5, 0, 4.05081E-05, -4.04632E-05, 3.7043700000000004E-10, 4.05081E-05, 3.7043700000000004E-10
DataValue, 3.5, 5, 0, 4.35672E-05, -4.3520000000000003E-05, 3.43206E-10, 4.35672E-05, 3.43206E-10
DataValue, 4, 5, 0, 4.5884600000000004E-05, -4.5868900000000004E-05, 3.40892E-10, 4.5884600000000004E-05, 3.40892E-10
DataValue, 4.5, 5, 0, 4.7619E-05, -4.7624200000000004E-05, 3.25717E-10, 4.7619E-05, 3.25717E-10
DataValue, 5, 5, 0, 4.89989E-05, -4.8967E-05, 3.24372E-10, 4.89989E-05, 3.24372E-10