
SetupTitle, Transfer sat
PrimitiveTest, I/V Sweep
TestParameter, Context.MainFrame, 4155C
TestParameter, Channel.UnitType, SMU, SMU, SMU
TestParameter, Channel.Unit, SMU3:MP, SMU1:MP, SMU4:MP
TestParameter, Channel.IName, ID, IS, IG
TestParameter, Channel.VName, VD, VS, VG
TestParameter, Channel.Mode, V, COMMON, V
TestParameter, Channel.Func, CONST, CONST, VAR1
TestParameter, Channel.Index, 
TestParameter, Channel.Time, 
TestParameter, Measurement.Port.Unit, SMU3:MP, SMU1:MP, SMU4:MP
TestParameter, Measurement.Port.SeriesResistor, NONE, NONE, NONE
TestParameter, Measurement.Port.Filter, ON, ON, ON
TestParameter, Measurement.Primary.Locus, Double
TestParameter, Measurement.Primary.Scale, LINEAR
TestParameter, Measurement.Primary.Start, -2
TestParameter, Measurement.Primary.Stop, 3
TestParameter, Measurement.Primary.Step, 0.05
TestParameter, Measurement.Primary.Compliance, 0.001
TestParameter, Measurement.Primary.PowerCompliance, 0
TestParameter, Measurement.Aborting.Condition, CONTINUE AT ANY
TestParameter, Measurement.PostOutput.Value, START
TestParameter, Measurement.PostOutput.Retention, OFF
TestParameter, Measurement.Bias.Source, 5, 0, -2
TestParameter, Measurement.Bias.Compliance, 0.001, 0.1, 0.001
TestParameter, Measurement.Monitor.Unit, SMU3:MP, SMU1:MP, SMU4:MP
TestParameter, Measurement.Monitor.Adc, HR ADC, HR ADC, HR ADC
TestParameter, Measurement.Monitor.RangingMode, AUTO, AUTO, AUTO
TestParameter, Measurement.Monitor.RangeBoundary, , , 
TestParameter, Measurement.Monitor.RangeRating, BY FULL RANGE, BY FULL RANGE, BY FULL RANGE
TestParameter, Measurement.Monitor.RangeRatingCoeff, 50, 50, 50
TestParameter, Measurement.Timing.Hold, 0.5
TestParameter, Measurement.Timing.Delay, 0.05
TestParameter, Measurement.Adc.HighResolution.AutoZero, OFF
TestParameter, Measurement.Adc.HighResolution.Mode, AUTO
TestParameter, Measurement.Adc.HighResolution.Coeff, 1
TestParameter, Measurement.Ag16440ASelector.SemiconductorRelay.Channel1, DEFAULT
TestParameter, Measurement.Ag16440ASelector.SemiconductorRelay.Channel3, DEFAULT
TestParameter, Function.User.Name, absID, sqrtID, gm2, absIG
TestParameter, Function.User.Unit, A, A, A/V, A
TestParameter, Function.User.Definition, abs(ID), sqrt(abs(ID)), (delta(sqrtID)/delta(VG))^2, abs(IG)
TestParameter, Output.Graph.Enabled, true
TestParameter, Output.Graph.XAxis.Data, VG
TestParameter, Output.Graph.XAxis.Scale, Linear
TestParameter, Output.Graph.XAxis.Left, -5
TestParameter, Output.Graph.XAxis.Right, 7
TestParameter, Output.Graph.YAxis.Data, ID, absIG, gm2
TestParameter, Output.Graph.YAxis.Scale, Log, Log, Linear
TestParameter, Output.Graph.YAxis.Bottom, 1E-14, 1E-14, 0
TestParameter, Output.Graph.YAxis.Top, 0.01, 0.01, 1E-05
TestParameter, Output.Graph.YAxis.Group, , , 
TestParameter, Output.List.Data, VG, IG, VD, ID, VS, IS, sqrtID, gm2, absIG
TestParameter, AutoAnalysis.Interpolation, false
TestParameter, AutoAnalysis.Line1.Enabled, false
TestParameter, AutoAnalysis.Line1.Type, 1
TestParameter, AutoAnalysis.Line1.Fix, True
TestParameter, AutoAnalysis.Line1.YAxis, 0
TestParameter, AutoAnalysis.Line1.Point1.Type, 0
TestParameter, AutoAnalysis.Line1.Point1.XY.X, 
TestParameter, AutoAnalysis.Line1.Point1.XY.Y, 
TestParameter, AutoAnalysis.Line1.Point1.Data.Var, 
TestParameter, AutoAnalysis.Line1.Point1.Data.Condition, 
TestParameter, AutoAnalysis.Line1.Point1.Data.Start, false
TestParameter, AutoAnalysis.Line1.Point1.Data.StartVar, 
TestParameter, AutoAnalysis.Line1.Point1.Data.StartCondition, 
TestParameter, AutoAnalysis.Line1.Point2.Type, 0
TestParameter, AutoAnalysis.Line1.Point2.XY.X, 
TestParameter, AutoAnalysis.Line1.Point2.XY.Y, 
TestParameter, AutoAnalysis.Line1.Point2.Data.Var, 
TestParameter, AutoAnalysis.Line1.Point2.Data.Condition, 
TestParameter, AutoAnalysis.Line1.Point2.Data.Start, false
TestParameter, AutoAnalysis.Line1.Point2.Data.StartVar, 
TestParameter, AutoAnalysis.Line1.Point2.Data.StartCondition, 
TestParameter, AutoAnalysis.Line1.GradientExpr, 0
TestParameter, AutoAnalysis.Line2.Enabled, false
TestParameter, AutoAnalysis.Line2.Type, 1
TestParameter, AutoAnalysis.Line2.Fix, True
TestParameter, AutoAnalysis.Line2.YAxis, 0
TestParameter, AutoAnalysis.Line2.Point1.Type, 0
TestParameter, AutoAnalysis.Line2.Point1.XY.X, 
TestParameter, AutoAnalysis.Line2.Point1.XY.Y, 
TestParameter, AutoAnalysis.Line2.Point1.Data.Var, 
TestParameter, AutoAnalysis.Line2.Point1.Data.Condition, 
TestParameter, AutoAnalysis.Line2.Point1.Data.Start, false
TestParameter, AutoAnalysis.Line2.Point1.Data.StartVar, 
TestParameter, AutoAnalysis.Line2.Point1.Data.StartCondition, 
TestParameter, AutoAnalysis.Line2.Point2.Type, 0
TestParameter, AutoAnalysis.Line2.Point2.XY.X, 
TestParameter, AutoAnalysis.Line2.Point2.XY.Y, 
TestParameter, AutoAnalysis.Line2.Point2.Data.Var, 
TestParameter, AutoAnalysis.Line2.Point2.Data.Condition, 
TestParameter, AutoAnalysis.Line2.Point2.Data.Start, false
TestParameter, AutoAnalysis.Line2.Point2.Data.StartVar, 
TestParameter, AutoAnalysis.Line2.Point2.Data.StartCondition, 
TestParameter, AutoAnalysis.Line2.GradientExpr, 0
TestParameter, AutoAnalysis.Marker.Enabled, false
TestParameter, AutoAnalysis.Marker.Data.Var, 
TestParameter, AutoAnalysis.Marker.Data.Condition, 
TestParameter, AutoAnalysis.Marker.Data.Start, false
TestParameter, AutoAnalysis.Marker.Data.StartVar, 
TestParameter, AutoAnalysis.Marker.Data.StartCondition, 
MetaData, TestRecord.EntryPoint, true
MetaData, TestRecord.RecordTime, 05/02/2019 16:36:06
MetaData, TestRecord.TestTarget, br-br-2-5
MetaData, TestRecord.IterationIndex, 1
MetaData, TestRecord.Preservation, true
MetaData, TestRecord.Flag, 
MetaData, TestRecord.Remarks, good
MetaData, TestRecord.LinkKey, 57104976-bef6-4984-a807-32f12fdedb16
Dimension1, 202, 202, 202, 202, 202, 202, 202, 202, 202, 202
Dimension2, 1, 1, 1, 1, 1, 1, 1, 1, 1, 1
DataName, VG, VD, VS, ID, IS, IG, absID, sqrtID, gm2, absIG
DataValue, -2, 5, 0, 7.53E-13, 3.7100000000000003E-13, -1.349E-12, 7.53E-13, 8.6775572599666554E-07, 7.86739400324656E-11, 1.349E-12
DataValue, -1.9500000000000002, 5, 0, 1.8000000000000002E-13, 1.4E-13, -6.63E-13, 1.8000000000000002E-13, 4.2426406871192855E-07, 3.2616410381559542E-11, 6.63E-13
DataValue, -1.9000000000000001, 5, 0, -8.8E-14, 5.4800000000000009E-13, 9.86E-13, 8.8E-14, 2.9664793948382653E-07, 4.8815163850694416E-11, 9.86E-13
DataValue, -1.85, 5, 0, 1.2610000000000002E-12, -1.8000000000000002E-14, 1.7E-14, 1.2610000000000002E-12, 1.1229425630903837E-06, 1.3736424384903729E-10, 1.7E-14
DataValue, -1.8, 5, 0, 2.157E-12, 2.5200000000000004E-13, -1.4590000000000001E-12, 2.157E-12, 1.4686728703152382E-06, 6.7723446214576879E-11, 1.4590000000000001E-12
DataValue, -1.75, 5, 0, 9.0000000000000008E-14, -1.331E-12, 1.494E-12, 9.0000000000000008E-14, 3.0000000000000004E-07, 2.3014475403678749E-11, 1.494E-12
DataValue, -1.7000000000000002, 5, 0, -9.78E-13, 7.23E-13, 1.3340000000000002E-12, 9.78E-13, 9.8893882520608935E-07, 3.8615282401010771E-11, 1.3340000000000002E-12
DataValue, -1.6500000000000001, 5, 0, 8.49E-13, 9.0500000000000008E-13, -1.71E-13, 8.49E-13, 9.2141195998315543E-07, 4.9342334411778421E-13, 1.71E-13
DataValue, -1.6, 5, 0, -8.44E-13, 3.8300000000000003E-13, -1.5490000000000002E-12, 8.44E-13, 9.186947262284681E-07, 1.1616126537303296E-12, 1.5490000000000002E-12
DataValue, -1.55, 5, 0, -6.62E-13, -2.038E-12, 3.3300000000000005E-13, 6.62E-13, 8.1363382427231973E-07, 8.5112776184341867E-13, 3.3300000000000005E-13
DataValue, -1.5, 5, 0, -6.83E-13, -4.0600000000000004E-13, -1.1100000000000001E-13, 6.83E-13, 8.2643814045577542E-07, 1.6564641075470735E-12, 1.1100000000000001E-13
DataValue, -1.4500000000000002, 5, 0, -8.8800000000000005E-13, -1.182E-12, 3.0190000000000004E-12, 8.8800000000000005E-13, 9.4233751915117972E-07, 5.2799209085695488E-12, 3.0190000000000004E-12
DataValue, -1.4000000000000001, 5, 0, -3.5600000000000005E-13, 1.209E-12, -3.6770000000000006E-12, 3.5600000000000005E-13, 5.9665735560705193E-07, 3.8613968554714976E-11, 3.6770000000000006E-12
DataValue, -1.35, 5, 0, 1.03E-13, -2.7720000000000003E-12, 7.542E-12, 1.03E-13, 3.2093613071762426E-07, 2.7744489109921278E-11, 7.542E-12
DataValue, -1.3, 5, 0, -1.262E-12, 3.0060000000000003E-12, -5.435E-12, 1.262E-12, 1.1233877335986894E-06, 1.1697755835348591E-10, 5.435E-12
DataValue, -1.25, 5, 0, 1.967E-12, -4.552E-12, 8.397E-12, 1.967E-12, 1.4024977718342372E-06, 7.2354199337804808E-12, 8.397E-12
DataValue, -1.2, 5, 0, -7.3E-13, 4.7840000000000006E-12, -4.8210000000000006E-12, 7.3E-13, 8.544003745317531E-07, 4.0244204069605147E-11, 4.8210000000000006E-12
DataValue, -1.1500000000000001, 5, 0, 5.9E-13, -2.9560000000000003E-12, 6.9600000000000006E-13, 5.9E-13, 7.6811457478686082E-07, 1.4324894683780972E-11, 6.9600000000000006E-13
DataValue, -1.1, 5, 0, -1.5200000000000002E-12, -1.9200000000000002E-13, -1.245E-12, 1.5200000000000002E-12, 1.2328828005937955E-06, 7.39200127959055E-11, 1.245E-12
DataValue, -1.05, 5, 0, -2.6500000000000002E-12, 6.5E-14, 4.502E-12, 2.6500000000000002E-12, 1.6278820596099706E-06, 1.0993352883717481E-10, 4.502E-12
DataValue, -1, 5, 0, -3.4E-14, 2.456E-12, -2.324E-12, 3.4E-14, 1.8439088914585774E-07, 1.8383364069806197E-10, 2.324E-12
DataValue, -0.95000000000000007, 5, 0, 7.4E-14, 1.981E-12, -7.2000000000000009E-14, 7.4E-14, 2.7202941017470887E-07, 6.9627669755523547E-11, 7.2000000000000009E-14
DataValue, -0.9, 5, 0, 1.038E-12, 4.66E-13, -4.1500000000000005E-13, 1.038E-12, 1.0188228501560023E-06, 2.8868193314377853E-11, 4.1500000000000005E-13
DataValue, -0.85000000000000009, 5, 0, -6.55E-13, -6.52E-13, 8.1300000000000007E-13, 6.55E-13, 8.0932070281193227E-07, 1.6938304403477418E-11, 8.1300000000000007E-13
DataValue, -0.8, 5, 0, 2.046E-12, -8.47E-13, 3.6800000000000005E-13, 2.046E-12, 1.4303845636750979E-06, 8.4504360291301051E-11, 3.6800000000000005E-13
DataValue, -0.75, 5, 0, -2.988E-12, -2.4000000000000004E-13, -1.2900000000000002E-12, 2.988E-12, 1.7285832349065521E-06, 5.0801193379016469E-11, 1.2900000000000002E-12
DataValue, -0.70000000000000007, 5, 0, 5.15E-13, -5.1000000000000004E-14, 4.6100000000000006E-13, 5.15E-13, 7.1763500472036621E-07, 7.8704554865498154E-11, 4.6100000000000006E-13
DataValue, -0.65, 5, 0, -7.08E-13, -1.1300000000000001E-13, -6.8E-14, 7.08E-13, 8.4142735871850516E-07, 2.6318700416664253E-13, 6.8E-14
DataValue, -0.6, 5, 0, 4.4400000000000003E-13, -6.2100000000000008E-13, -2.828E-12, 4.4400000000000003E-13, 6.6633324995830734E-07, 3.5097255459815051E-11, 2.828E-12
DataValue, -0.55, 5, 0, -6.2E-14, -1.4E-13, 1.2420000000000002E-12, 6.2E-14, 2.4899799195977466E-07, 1.0014005761614006E-10, 1.2420000000000002E-12
DataValue, -0.5, 5, 0, -2.779E-12, 5.3E-14, -1E-15, 2.779E-12, 1.667033293008871E-06, 9.37752525778457E-11, 1E-15
DataValue, -0.45, 5, 0, 1.4820000000000002E-12, -3.012E-12, -4E-13, 1.4820000000000002E-12, 1.2173742234826563E-06, 4.2657872447826443E-11, 4E-13
DataValue, -0.4, 5, 0, -1.028E-12, -5.92E-13, 1.1920000000000002E-12, 1.028E-12, 1.0139033484509261E-06, 9.1174300219956771E-12, 1.1920000000000002E-12
DataValue, -0.35000000000000003, 5, 0, -8.3800000000000006E-13, -3.4600000000000004E-13, 3.2200000000000004E-13, 8.3800000000000006E-13, 9.1542339930766462E-07, 2.8886129360220718E-11, 3.2200000000000004E-13
DataValue, -0.3, 5, 0, -2.2700000000000002E-13, -1.4300000000000002E-13, 2.023E-12, 2.2700000000000002E-13, 4.7644516998286385E-07, 8.2788096128481527E-12, 2.023E-12
DataValue, -0.25, 5, 0, 3.9400000000000004E-13, 1.3980000000000001E-12, -3.4600000000000004E-13, 3.9400000000000004E-13, 6.276941930590087E-07, 8.1156866846299388E-11, 3.4600000000000004E-13
DataValue, -0.2, 5, 0, 1.897E-12, -7.74E-13, -2.2E-14, 1.897E-12, 1.3773162309360912E-06, 7.1182919035623559E-11, 2.2E-14
DataValue, -0.15, 5, 0, 2.165E-12, -1.5720000000000002E-12, -4.4740000000000005E-12, 2.165E-12, 1.4713938969562162E-06, 6.5856321038191829E-11, 4.4740000000000005E-12
DataValue, -0.1, 5, 0, 4.791E-12, -4.9260000000000006E-12, 5.5000000000000005E-14, 4.791E-12, 2.1888353067327839E-06, 1.9522501813901175E-10, 5.5000000000000005E-14
DataValue, -0.05, 5, 0, 8.2290000000000014E-12, -6.776E-12, 9.5000000000000012E-14, 8.2290000000000014E-12, 2.8686233632179743E-06, 4.7171434264162167E-10, 9.5000000000000012E-14
DataValue, 0, 5, 0, 1.9016E-11, -2.0288E-11, 6.9250000000000005E-12, 1.9016E-11, 4.360733883189847E-06, 7.923940444117194E-10, 6.9250000000000005E-12
DataValue, 0.05, 5, 0, 3.2303E-11, -2.7947E-11, 1.8170000000000002E-12, 3.2303E-11, 5.6835728199786448E-06, 1.1321498473155003E-09, 1.8170000000000002E-12
DataValue, 0.1, 5, 0, 5.9683000000000007E-11, -5.8375E-11, -2.1500000000000002E-13, 5.9683000000000007E-11, 7.7254773315310431E-06, 2.05510350835704E-09, 2.1500000000000002E-13
DataValue, 0.15, 5, 0, 1.0438500000000001E-10, -1.0114700000000001E-10, -4.0500000000000004E-13, 1.0438500000000001E-10, 1.0216897767913703E-05, 3.5954227064028048E-09, 4.0500000000000004E-13
DataValue, 0.2, 5, 0, 1.88284E-10, -1.8470300000000002E-10, -3.955E-12, 1.88284E-10, 1.3721661706950802E-05, 5.8312363155594016E-09, 3.955E-12
DataValue, 0.25, 5, 0, 3.1873500000000004E-10, -3.14965E-10, -3.6590000000000005E-12, 3.1873500000000004E-10, 1.7853150982389636E-05, 8.2448081833819188E-09, 3.6590000000000005E-12
DataValue, 0.3, 5, 0, 5.1992E-10, -5.0471800000000008E-10, -3.9320000000000006E-12, 5.1992E-10, 2.2801754318472953E-05, 1.0911007686183472E-08, 3.9320000000000006E-12
DataValue, 0.35000000000000003, 5, 0, 8.00818E-10, -7.8378600000000011E-10, -2.389E-12, 8.00818E-10, 2.829872788660296E-05, 1.2407902637288177E-08, 2.389E-12
DataValue, 0.4, 5, 0, 1.15198E-09, -1.12309E-09, -1.7080000000000002E-12, 1.15198E-09, 3.3940830867850009E-05, 1.7980624321412852E-08, 1.7080000000000002E-12
DataValue, 0.45, 5, 0, 1.73955E-09, -1.73051E-09, 2.2410000000000002E-12, 1.73955E-09, 4.1707912918294053E-05, 2.6607582252112172E-08, 2.2410000000000002E-12
DataValue, 0.5, 5, 0, 2.52533E-09, -2.49276E-09, 2.3840000000000003E-12, 2.52533E-09, 5.0252661621052472E-05, 2.9681514139180432E-08, 2.3840000000000003E-12
DataValue, 0.55, 5, 0, 3.47348E-09, -3.41504E-09, -8.070000000000001E-13, 3.47348E-09, 5.8936236730894178E-05, 3.3504019322760326E-08, 8.070000000000001E-13
DataValue, 0.6, 5, 0, 4.70003E-09, -4.65603E-09, -1.952E-12, 4.70003E-09, 6.8556764801148544E-05, 3.5724891268765578E-08, 1.952E-12
DataValue, 0.65, 5, 0, 6.05864E-09, -6.06883E-09, -3.3600000000000003E-13, 6.05864E-09, 7.7837266139041652E-05, 4.0091041755966855E-08, 3.3600000000000003E-13
DataValue, 0.70000000000000007, 5, 0, 7.84633E-09, -7.86813E-09, 7.1500000000000008E-13, 7.84633E-09, 8.8579512303918221E-05, 4.9336724833893751E-08, 7.1500000000000008E-13
DataValue, 0.75, 5, 0, 1.000983E-08, -9.8712E-09, 1.923E-12, 1.000983E-08, 0.00010004913792732049, 5.2121311483607377E-08, 1.923E-12
DataValue, 0.8, 5, 0, 1.24121E-08, -1.2240999999999999E-08, 9.88E-13, 1.24121E-08, 0.00011140960461288784, 5.4118917343476188E-08, 9.88E-13
DataValue, 0.85000000000000009, 5, 0, 1.5205999999999997E-08, -1.50634E-08, -3.4330000000000004E-12, 1.5205999999999997E-08, 0.00012331261087171903, 6.2852648831816775E-08, 3.4330000000000004E-12
DataValue, 0.9, 5, 0, 1.8626799999999998E-08, -1.8458399999999997E-08, 6.83E-13, 1.8626799999999998E-08, 0.00013648003516998373, 6.8715497468642068E-08, 6.83E-13
DataValue, 0.95000000000000007, 5, 0, 2.2358099999999996E-08, -2.23486E-08, -9.71E-13, 2.2358099999999996E-08, 0.00014952625187571579, 7.2782415908278E-08, 9.71E-13
DataValue, 1, 5, 0, 2.6718599999999997E-08, -2.6598699999999996E-08, -1.767E-12, 2.6718599999999997E-08, 0.00016345825155066353, 7.4571873552552219E-08, 1.767E-12
DataValue, 1.05, 5, 0, 3.12703E-08, -3.1086299999999994E-08, 1.5550000000000001E-12, 3.12703E-08, 0.00017683410304576434, 7.3717868457018185E-08, 1.5550000000000001E-12
DataValue, 1.1, 5, 0, 3.63319E-08, -3.64692E-08, -7.6400000000000008E-13, 3.63319E-08, 0.00019060928623758076, 8.5843763066312791E-08, 7.6400000000000008E-13
DataValue, 1.1500000000000001, 5, 0, 4.2490899999999994E-08, -4.2464099999999994E-08, -2.048E-12, 4.2490899999999994E-08, 0.00020613320935744439, 8.9266190241376836E-08, 2.048E-12
DataValue, 1.2, 5, 0, 4.8614399999999996E-08, -4.8325299999999994E-08, -2.315E-12, 4.8614399999999996E-08, 0.00022048673429483234, 8.3795284155021338E-08, 2.315E-12
DataValue, 1.25, 5, 0, 5.52629E-08, -5.5363799999999994E-08, -5.57E-13, 5.52629E-08, 0.0002350806244674367, 9.5615142824188375E-08, 5.57E-13
DataValue, 1.3, 5, 0, 6.3206199999999988E-08, -6.29403E-08, 3.9200000000000005E-13, 6.3206199999999988E-08, 0.00025140843263502519, 1.1054851753086779E-07, 3.9200000000000005E-13
DataValue, 1.35, 5, 0, 7.20007E-08, -7.1999599999999988E-08, -1.0200000000000001E-13, 7.20007E-08, 0.0002683294616697913, 1.1128825447347405E-07, 1.0200000000000001E-13
DataValue, 1.4000000000000001, 5, 0, 8.1093E-08, -8.1077899999999988E-08, -6.31E-13, 8.1093E-08, 0.00028476832689047424, 1.0453351539989613E-07, 6.31E-13
DataValue, 1.4500000000000002, 5, 0, 9.0397099999999991E-08, -9.0486199999999991E-08, -1.6820000000000001E-12, 9.0397099999999991E-08, 0.0003006611049005175, 1.1597415542150953E-07, 1.6820000000000001E-12
DataValue, 1.5, 5, 0, 1.0164829999999999E-07, -1.012911E-07, -2.7700000000000003E-13, 1.0164829999999999E-07, 0.00031882330529620946, 1.2622372776773393E-07, 2.7700000000000003E-13
DataValue, 1.55, 5, 0, 1.1302309999999999E-07, -1.1325429999999999E-07, 5.12E-13, 1.1302309999999999E-07, 0.00033618908370141941, 1.0941983885358128E-07, 5.12E-13
DataValue, 1.6, 5, 0, 1.23835E-07, -1.24091E-07, -1.186E-12, 1.23835E-07, 0.00035190197498735355, 1.2043976014382931E-07, 1.186E-12
DataValue, 1.6500000000000001, 5, 0, 1.37562E-07, -1.37065E-07, 1.4500000000000001E-13, 1.37562E-07, 0.00037089351571576443, 1.3458046009861084E-07, 1.4500000000000001E-13
DataValue, 1.7000000000000002, 5, 0, 1.51E-07, -1.50916E-07, 2.92E-13, 1.51E-07, 0.00038858718455450896, 1.2831707016817274E-07, 2.92E-13
DataValue, 1.75, 5, 0, 1.65417E-07, -1.64846E-07, -2.71E-13, 1.65417E-07, 0.00040671488785142841, 1.1511026653183943E-07, 2.71E-13
DataValue, 1.8, 5, 0, 1.7851899999999999E-07, -1.78251E-07, -1.0830000000000001E-12, 1.7851899999999999E-07, 0.00042251508848797339, 1.3139895148758174E-07, 1.0830000000000001E-12
DataValue, 1.85, 5, 0, 1.96217E-07, -1.96098E-07, -4.0800000000000003E-13, 1.96217E-07, 0.00044296388114608171, 1.6518170381283138E-07, 4.0800000000000003E-13
DataValue, 1.9000000000000001, 5, 0, 2.1451499999999999E-07, -2.14424E-07, 3.18E-13, 2.1451499999999999E-07, 0.00046315764055016945, 1.4537920864018987E-07, 3.18E-13
DataValue, 1.9500000000000002, 5, 0, 2.3145E-07, -2.3155499999999999E-07, -3.4800000000000003E-13, 2.3145E-07, 0.00048109250669699688, 1.3062346776550078E-07, 3.4800000000000003E-13
DataValue, 2, 5, 0, 2.493E-07, -2.49225E-07, -1.22E-13, 2.493E-07, 0.00049929950931279716, 1.5540674489044842E-07, 1.22E-13
DataValue, 2.05, 5, 0, 2.70935E-07, -2.71008E-07, -1.5500000000000002E-13, 2.70935E-07, 0.0005205141688753535, 1.6061645322286603E-07, 1.5500000000000002E-13
DataValue, 2.1, 5, 0, 2.90927E-07, -2.90787E-07, -8.44E-13, 2.90927E-07, 0.0005393764918866969, 1.4472622955358217E-07, 8.44E-13
DataValue, 2.15, 5, 0, 3.1198599999999997E-07, -3.11785E-07, 8.91E-13, 3.1198599999999997E-07, 0.00055855706959987534, 1.5026189748947154E-07, 8.91E-13
DataValue, 2.2, 5, 0, 3.34246E-07, -3.33962E-07, -1.233E-12, 3.34246E-07, 0.00057814012142386379, 1.5731368827577737E-07, 1.233E-12
DataValue, 2.25, 5, 0, 3.57867E-07, -3.56205E-07, -2.1410000000000003E-12, 3.57867E-07, 0.00059821985924908908, 1.56400490605137E-07, 2.1410000000000003E-12
DataValue, 2.3000000000000003, 5, 0, 3.81538E-07, -3.8064E-07, -9.82E-13, 3.81538E-07, 0.00061768762331780613, 1.6903749133186673E-07, 9.82E-13
DataValue, 2.35, 5, 0, 4.08748E-07, -4.07656E-07, -5.5600000000000005E-13, 4.08748E-07, 0.00063933402850153379, 1.7260719995464246E-07, 5.5600000000000005E-13
DataValue, 2.4, 5, 0, 4.34589E-07, -4.35189E-07, -1.187E-12, 4.34589E-07, 0.000659233645986004, 1.6831466426547898E-07, 1.187E-12
