
SetupTitle, Transfer stab
PrimitiveTest, I/V Sweep
TestParameter, Context.MainFrame, 4155C
TestParameter, Channel.UnitType, SMU, SMU, SMU
TestParameter, Channel.Unit, SMU3:MP, SMU1:MP, SMU4:MP
TestParameter, Channel.IName, ID, IS, IG
TestParameter, Channel.VName, VD, VS, VG
TestParameter, Channel.Mode, V, COMMON, V
TestParameter, Channel.Func, CONST, CONST, VAR1
TestParameter, Channel.Index, 
TestParameter, Channel.Time, 
TestParameter, Measurement.Port.Unit, SMU3:MP, SMU1:MP, SMU4:MP
TestParameter, Measurement.Port.SeriesResistor, NONE, NONE, NONE
TestParameter, Measurement.Port.Filter, ON, ON, ON
TestParameter, Measurement.Primary.Locus, Single
TestParameter, Measurement.Primary.Scale, LINEAR
TestParameter, Measurement.Primary.Start, -2
TestParameter, Measurement.Primary.Stop, 3
TestParameter, Measurement.Primary.Step, 0.05
TestParameter, Measurement.Primary.Compliance, 0.1
TestParameter, Measurement.Primary.PowerCompliance, 0
TestParameter, Measurement.Aborting.Condition, CONTINUE AT ANY
TestParameter, Measurement.PostOutput.Value, START
TestParameter, Measurement.PostOutput.Retention, OFF
TestParameter, Measurement.Bias.Source, 3, 0, -2
TestParameter, Measurement.Bias.Compliance, 0.1, 0.1, 0.1
TestParameter, Measurement.Monitor.Unit, SMU3:MP, SMU1:MP, SMU4:MP
TestParameter, Measurement.Monitor.Adc, HR ADC, HR ADC, HR ADC
TestParameter, Measurement.Monitor.RangingMode, AUTO, AUTO, AUTO
TestParameter, Measurement.Monitor.RangeBoundary, , , 
TestParameter, Measurement.Monitor.RangeRating, BY FULL RANGE, BY FULL RANGE, BY FULL RANGE
TestParameter, Measurement.Monitor.RangeRatingCoeff, 50, 50, 50
TestParameter, Measurement.Timing.Hold, 0.5
TestParameter, Measurement.Timing.Delay, 0.05
TestParameter, Measurement.Adc.HighResolution.AutoZero, OFF
TestParameter, Measurement.Adc.HighResolution.Mode, AUTO
TestParameter, Measurement.Adc.HighResolution.Coeff, 1
TestParameter, Measurement.Ag16440ASelector.SemiconductorRelay.Channel1, DEFAULT
TestParameter, Measurement.Ag16440ASelector.SemiconductorRelay.Channel3, DEFAULT
TestParameter, Function.User.Name, absID, sqrtID, gm2, absIG
TestParameter, Function.User.Unit, A, A, A/V, A
TestParameter, Function.User.Definition, abs(ID), sqrt(abs(ID)), (delta(sqrtID)/delta(VG))^2, abs(IG)
TestParameter, Output.Graph.Enabled, true
TestParameter, Output.Graph.XAxis.Data, VG
TestParameter, Output.Graph.XAxis.Scale, Linear
TestParameter, Output.Graph.XAxis.Left, -5
TestParameter, Output.Graph.XAxis.Right, 7
TestParameter, Output.Graph.YAxis.Data, ID, absIG, gm2
TestParameter, Output.Graph.YAxis.Scale, Log, Log, Linear
TestParameter, Output.Graph.YAxis.Bottom, 1E-14, 1E-14, 0
TestParameter, Output.Graph.YAxis.Top, 0.01, 0.01, 1E-05
TestParameter, Output.Graph.YAxis.Group, , , 
TestParameter, Output.List.Data, VG, IG, VD, ID, VS, IS, sqrtID, gm2, absIG
TestParameter, AutoAnalysis.Interpolation, false
TestParameter, AutoAnalysis.Line1.Enabled, false
TestParameter, AutoAnalysis.Line1.Type, 1
TestParameter, AutoAnalysis.Line1.Fix, True
TestParameter, AutoAnalysis.Line1.YAxis, 0
TestParameter, AutoAnalysis.Line1.Point1.Type, 0
TestParameter, AutoAnalysis.Line1.Point1.XY.X, 
TestParameter, AutoAnalysis.Line1.Point1.XY.Y, 
TestParameter, AutoAnalysis.Line1.Point1.Data.Var, 
TestParameter, AutoAnalysis.Line1.Point1.Data.Condition, 
TestParameter, AutoAnalysis.Line1.Point1.Data.Start, false
TestParameter, AutoAnalysis.Line1.Point1.Data.StartVar, 
TestParameter, AutoAnalysis.Line1.Point1.Data.StartCondition, 
TestParameter, AutoAnalysis.Line1.Point2.Type, 0
TestParameter, AutoAnalysis.Line1.Point2.XY.X, 
TestParameter, AutoAnalysis.Line1.Point2.XY.Y, 
TestParameter, AutoAnalysis.Line1.Point2.Data.Var, 
TestParameter, AutoAnalysis.Line1.Point2.Data.Condition, 
TestParameter, AutoAnalysis.Line1.Point2.Data.Start, false
TestParameter, AutoAnalysis.Line1.Point2.Data.StartVar, 
TestParameter, AutoAnalysis.Line1.Point2.Data.StartCondition, 
TestParameter, AutoAnalysis.Line1.GradientExpr, 0
TestParameter, AutoAnalysis.Line2.Enabled, false
TestParameter, AutoAnalysis.Line2.Type, 1
TestParameter, AutoAnalysis.Line2.Fix, True
TestParameter, AutoAnalysis.Line2.YAxis, 0
TestParameter, AutoAnalysis.Line2.Point1.Type, 0
TestParameter, AutoAnalysis.Line2.Point1.XY.X, 
TestParameter, AutoAnalysis.Line2.Point1.XY.Y, 
TestParameter, AutoAnalysis.Line2.Point1.Data.Var, 
TestParameter, AutoAnalysis.Line2.Point1.Data.Condition, 
TestParameter, AutoAnalysis.Line2.Point1.Data.Start, false
TestParameter, AutoAnalysis.Line2.Point1.Data.StartVar, 
TestParameter, AutoAnalysis.Line2.Point1.Data.StartCondition, 
TestParameter, AutoAnalysis.Line2.Point2.Type, 0
TestParameter, AutoAnalysis.Line2.Point2.XY.X, 
TestParameter, AutoAnalysis.Line2.Point2.XY.Y, 
TestParameter, AutoAnalysis.Line2.Point2.Data.Var, 
TestParameter, AutoAnalysis.Line2.Point2.Data.Condition, 
TestParameter, AutoAnalysis.Line2.Point2.Data.Start, false
TestParameter, AutoAnalysis.Line2.Point2.Data.StartVar, 
TestParameter, AutoAnalysis.Line2.Point2.Data.StartCondition, 
TestParameter, AutoAnalysis.Line2.GradientExpr, 0
TestParameter, AutoAnalysis.Marker.Enabled, false
TestParameter, AutoAnalysis.Marker.Data.Var, 
TestParameter, AutoAnalysis.Marker.Data.Condition, 
TestParameter, AutoAnalysis.Marker.Data.Start, false
TestParameter, AutoAnalysis.Marker.Data.StartVar, 
TestParameter, AutoAnalysis.Marker.Data.StartCondition, 
MetaData, TestRecord.EntryPoint, true
MetaData, TestRecord.RecordTime, 05/02/2019 15:31:34
MetaData, TestRecord.TestTarget, 350-300-2-2
MetaData, TestRecord.IterationIndex, 3
MetaData, TestRecord.Preservation, true
MetaData, TestRecord.Flag, 
MetaData, TestRecord.Remarks, bad
MetaData, TestRecord.LinkKey, 48d39553-c017-462a-aa2b-b339ee2593ef
Dimension1, 101, 101, 101, 101, 101, 101, 101, 101, 101, 101
Dimension2, 1, 1, 1, 1, 1, 1, 1, 1, 1, 1
DataName, VG, VD, VS, ID, IS, IG, absID, sqrtID, gm2, absIG
DataValue, -2, 3, 0, 4.53E-12, -1.5740000000000002E-12, -1.5010000000000002E-12, 4.53E-12, 2.1283796653792764E-06, 1.4306684658104165E-12, 1.5010000000000002E-12
DataValue, -1.9500000000000002, 3, 0, 4.2790000000000006E-12, -7.8900000000000007E-13, -2.4960000000000003E-12, 4.2790000000000006E-12, 2.0685743883167461E-06, 1.6578546493214605E-11, 2.4960000000000003E-12
DataValue, -1.9000000000000001, 3, 0, 6.429E-12, -1.247E-12, -3.13E-12, 6.429E-12, 2.5355472782024793E-06, 3.6409258163466153E-15, 3.13E-12
DataValue, -1.85, 3, 0, 4.304E-12, -2.0780000000000002E-12, -2.1200000000000003E-12, 4.304E-12, 2.0746083967823903E-06, 6.710160845736843E-11, 2.1200000000000003E-12
DataValue, -1.8, 3, 0, 2.946E-12, -1.4820000000000002E-12, -2.858E-12, 2.946E-12, 1.7163915637173238E-06, 3.7380110686529965E-11, 2.858E-12
DataValue, -1.75, 3, 0, 2.1410000000000003E-12, -1.6300000000000001E-12, -2.173E-12, 2.1410000000000003E-12, 1.4632156368765338E-06, 1.4660783748205977E-11, 2.173E-12
DataValue, -1.7000000000000002, 3, 0, 4.407E-12, -1.057E-12, -2.4830000000000002E-12, 4.407E-12, 2.0992855927672155E-06, 3.776391554448027E-11, 2.4830000000000002E-12
DataValue, -1.6500000000000001, 3, 0, 4.317E-12, -2.378E-12, -2.895E-12, 4.317E-12, 2.077739155909615E-06, 2.6839282908563965E-12, 2.895E-12
DataValue, -1.6, 3, 0, 3.746E-12, -1.938E-12, -2.1710000000000003E-12, 3.746E-12, 1.9354586019855864E-06, 5.0460278655787473E-12, 2.1710000000000003E-12
DataValue, -1.55, 3, 0, 3.434E-12, -1.7280000000000001E-12, -2.5550000000000003E-12, 3.434E-12, 1.8531055015837603E-06, 3.8819951735698488E-11, 2.5550000000000003E-12
DataValue, -1.5, 3, 0, 6.5460000000000006E-12, -1.8780000000000003E-12, -1.9790000000000004E-12, 6.5460000000000006E-12, 2.5585151944047547E-06, 4.0923698184424224E-13, 1.9790000000000004E-12
DataValue, -1.4500000000000002, 3, 0, 3.201E-12, -2.076E-12, -1.6930000000000002E-12, 3.201E-12, 1.7891338686638292E-06, 5.9065853895598155E-11, 1.6930000000000002E-12
DataValue, -1.4000000000000001, 3, 0, 3.204E-12, -7.6600000000000007E-13, -1.4510000000000002E-12, 3.204E-12, 1.7899720668211558E-06, 5.3826052976878185E-12, 1.4510000000000002E-12
DataValue, -1.35, 3, 0, 4.0850000000000005E-12, -1.9330000000000003E-12, -2.5140000000000004E-12, 4.0850000000000005E-12, 2.0211382931407738E-06, 8.7190803111740992E-13, 2.5140000000000004E-12
DataValue, -1.3, 3, 0, 3.547E-12, -1.6790000000000002E-12, -3.0860000000000004E-12, 3.547E-12, 1.8833480825381166E-06, 2.1369521811594978E-13, 3.0860000000000004E-12
DataValue, -1.25, 3, 0, 4.2740000000000006E-12, -2.2000000000000003E-12, -3.0550000000000002E-12, 4.2740000000000006E-12, 2.0673654732533386E-06, 1.0168586327358181E-12, 3.0550000000000002E-12
DataValue, -1.2, 3, 0, 3.9370000000000007E-12, -1.6E-12, -6.63E-13, 3.9370000000000007E-12, 1.9841874911408955E-06, 3.2936521616888716E-13, 6.63E-13
DataValue, -1.1500000000000001, 3, 0, 4.0400000000000006E-12, -1.4010000000000002E-12, -2.8420000000000002E-12, 4.0400000000000006E-12, 2.0099751242241781E-06, 6.31334159167574E-13, 2.8420000000000002E-12
DataValue, -1.1, 3, 0, 3.6280000000000003E-12, -1.782E-12, -5.0300000000000008E-13, 3.6280000000000003E-12, 1.9047309521294603E-06, 1.2860260303738633E-11, 5.0300000000000008E-13
DataValue, -1.05, 3, 0, 2.7270000000000004E-12, -1.1230000000000002E-12, -3.1720000000000002E-12, 2.7270000000000004E-12, 1.6513630733427463E-06, 7.0961468420360794E-13, 3.1720000000000002E-12
DataValue, -1, 3, 0, 3.9560000000000005E-12, -2.223E-12, -2.264E-12, 3.9560000000000005E-12, 1.9889695824722911E-06, 1.0057707882343643E-11, 2.264E-12
DataValue, -0.95000000000000007, 3, 0, 3.875E-12, -1.9660000000000003E-12, -8.1600000000000006E-13, 3.875E-12, 1.9685019685029527E-06, 2.5712900904523617E-11, 8.1600000000000006E-13
DataValue, -0.9, 3, 0, 2.1960000000000003E-12, -2.9390000000000003E-12, -1.663E-12, 2.1960000000000003E-12, 1.4818906842274163E-06, 1.228351669678122E-11, 1.663E-12
DataValue, -0.85000000000000009, 3, 0, 2.6180000000000004E-12, -1.5430000000000002E-12, -2.633E-12, 2.6180000000000004E-12, 1.6180234856144705E-06, 6.3529657338812211E-11, 2.633E-12
DataValue, -0.8, 3, 0, 4.69E-13, -2.03E-12, -2.1330000000000003E-12, 4.69E-13, 6.848357467305573E-07, 1.5927850764098555E-14, 2.1330000000000003E-12
DataValue, -0.75, 3, 0, 2.6590000000000003E-12, -1.913E-12, -6.57E-13, 2.6590000000000003E-12, 1.6306440445419105E-06, 1.5112326571566285E-10, 6.57E-13
DataValue, -0.70000000000000007, 3, 0, 3.6640000000000005E-12, -1.1270000000000002E-12, -2.7130000000000003E-12, 3.6640000000000005E-12, 1.9141577782408642E-06, 8.53308172093786E-12, 2.7130000000000003E-12
DataValue, -0.65, 3, 0, 3.697E-12, -2.8560000000000004E-12, -1.1060000000000001E-12, 3.697E-12, 1.9227584351654786E-06, 2.1582520550639314E-12, 1.1060000000000001E-12
DataValue, -0.6, 3, 0, 4.2480000000000005E-12, -1.2690000000000002E-12, -2.268E-12, 4.2480000000000005E-12, 2.06106768447812E-06, 1.576720288155696E-10, 2.268E-12
DataValue, -0.55, 3, 0, 4.45E-13, -2.5750000000000002E-12, -7.6000000000000009E-13, 4.45E-13, 6.6708320320631667E-07, 2.6368540681118776E-12, 7.6000000000000009E-13
DataValue, -0.5, 3, 0, 3.605E-12, -1.485E-12, -2.8340000000000002E-12, 3.605E-12, 1.8986837546047526E-06, 9.2726783258259575E-11, 2.8340000000000002E-12
DataValue, -0.45, 3, 0, 2.657E-12, -2.967E-12, 5.2900000000000007E-13, 2.657E-12, 1.6300306745579975E-06, 1.6800314195950422E-12, 5.2900000000000007E-13
DataValue, -0.4, 3, 0, 4.1140000000000004E-12, 1.3070000000000002E-12, -3.87E-13, 4.1140000000000004E-12, 2.0282997806044353E-06, 8.773680769288144E-11, 3.87E-13
DataValue, -0.35000000000000003, 3, 0, 6.5880000000000006E-12, -7.4400000000000006E-13, -1.914E-12, 6.5880000000000006E-12, 2.5667099563448928E-06, 1.017400116871766E-12, 1.914E-12
DataValue, -0.3, 3, 0, 3.715E-12, -1.69E-12, -4.1000000000000007E-12, 3.715E-12, 1.9274335267396383E-06, 3.1692786336786407E-11, 4.1000000000000007E-12
DataValue, -0.25, 3, 0, 4.015E-12, -3.559E-12, -1.57E-13, 4.015E-12, 2.0037464909513877E-06, 1.1684093811259097E-12, 1.57E-13
DataValue, -0.2, 3, 0, 3.3100000000000002E-12, -2.491E-12, -1.023E-12, 3.3100000000000002E-12, 1.8193405398660252E-06, 8.0939380283397388E-11, 1.023E-12
DataValue, -0.15, 3, 0, 1.2190000000000002E-12, -2.324E-12, -1.9700000000000002E-13, 1.2190000000000002E-12, 1.104083330188442E-06, 1.9742046454917357E-12, 1.9700000000000002E-13
DataValue, -0.1, 3, 0, 3.841E-12, -2.0700000000000003E-12, -1.166E-12, 3.841E-12, 1.9598469327985795E-06, 9.5598096588669814E-11, 1.166E-12
DataValue, -0.05, 3, 0, 4.3340000000000007E-12, -3.3690000000000003E-12, -9.9300000000000011E-13, 4.3340000000000007E-12, 2.0818261214616367E-06, 4.3444224603455841E-11, 9.9300000000000011E-13
DataValue, 0, 3, 0, 6.8590000000000006E-12, -5.6360000000000006E-12, -5.5100000000000008E-13, 6.8590000000000006E-12, 2.6189692628971421E-06, 1.4318231513287702E-10, 5.5100000000000008E-13
DataValue, 0.05, 3, 0, 1.0748E-11, -8.804E-12, -3.29E-13, 1.0748E-11, 3.2784142508231018E-06, 2.8055578941678362E-10, 3.29E-13
DataValue, 0.1, 3, 0, 1.8438000000000002E-11, -1.6646E-11, -3.5800000000000004E-13, 1.8438000000000002E-11, 4.29394923118567E-06, 7.186583154272265E-10, 3.5800000000000004E-13
DataValue, 0.15, 3, 0, 3.5512E-11, -3.3719000000000005E-11, -1.6700000000000002E-12, 3.5512E-11, 5.9591945764507472E-06, 1.7073610129434355E-09, 1.6700000000000002E-12
DataValue, 0.2, 3, 0, 7.0997E-11, -6.6669E-11, -1.107E-12, 7.0997E-11, 8.4259717540471265E-06, 3.6474718889258435E-09, 1.107E-12
DataValue, 0.25, 3, 0, 1.4396700000000002E-10, -1.37236E-10, -1.24E-13, 1.4396700000000002E-10, 1.1998624921214932E-05, 6.5694443762176708E-09, 1.24E-13
DataValue, 0.3, 3, 0, 2.7328E-10, -2.6203700000000003E-10, -1.7450000000000001E-12, 2.7328E-10, 1.6531182655817461E-05, 1.0452416825186648E-08, 1.7450000000000001E-12
DataValue, 0.35000000000000003, 3, 0, 4.9383200000000006E-10, -4.7466900000000007E-10, -2.0820000000000002E-12, 4.9383200000000006E-10, 2.2222331110844335E-05, 1.5131086504399037E-08, 2.0820000000000002E-12
DataValue, 0.4, 3, 0, 8.312860000000001E-10, -8.18982E-10, -1.207E-12, 8.312860000000001E-10, 2.8832030799095649E-05, 1.7381477182791376E-08, 1.207E-12
DataValue, 0.45, 3, 0, 1.2536E-09, -1.23632E-09, -6.4600000000000007E-13, 1.2536E-09, 3.5406214143847687E-05, 2.3596241654263375E-08, 6.4600000000000007E-13
DataValue, 0.5, 3, 0, 1.95303E-09, -1.93619E-09, 3.1000000000000004E-13, 1.95303E-09, 4.41930990087819E-05, 3.2213333900336773E-08, 3.1000000000000004E-13
DataValue, 0.55, 3, 0, 2.84668E-09, -2.82871E-09, -4.67E-13, 2.84668E-09, 5.3354287550299087E-05, 3.5963655234045688E-08, 4.67E-13
DataValue, 0.6, 3, 0, 3.98883E-09, -3.95482E-09, 2.96E-13, 3.98883E-09, 6.31571848644317E-05, 3.4329109793149629E-08, 2.96E-13
DataValue, 0.65, 3, 0, 5.16708E-09, -5.00293E-09, -9.84E-13, 5.16708E-09, 7.1882403966478474E-05, 3.0394022896792951E-08, 9.84E-13
DataValue, 0.70000000000000007, 3, 0, 6.49492E-09, -6.37067E-09, 3.64E-13, 6.49492E-09, 8.0591066502435613E-05, 2.9648426199229186E-08, 3.64E-13
DataValue, 0.75, 3, 0, 7.93901E-09, -7.86858E-09, -2.9E-14, 7.93901E-09, 8.91011223273871E-05, 3.5800017594321685E-08, 2.9E-14
DataValue, 0.8, 3, 0, 9.90263E-09, -9.7374599999999992E-09, -5.13E-13, 9.90263E-09, 9.9511959080303514E-05, 2.6640230834901321E-08, 5.13E-13
DataValue, 0.85000000000000009, 3, 0, 1.1114E-08, -1.0793999999999999E-08, -1.3970000000000002E-12, 1.1114E-08, 0.0001054229576515476, 2.7002456306914959E-08, 1.3970000000000002E-12
DataValue, 0.9, 3, 0, 1.3443099999999999E-08, -1.3164999999999999E-08, -1.044E-12, 1.3443099999999999E-08, 0.00011594438321885196, 3.1720161335021519E-08, 1.044E-12
DataValue, 0.95000000000000007, 3, 0, 1.51864E-08, -1.4812599999999998E-08, -7.7E-14, 1.51864E-08, 0.00012323311243330666, 3.6819908219992554E-08, 7.7E-14
DataValue, 1, 3, 0, 1.82609E-08, -1.9205899999999998E-08, -2.12E-13, 1.82609E-08, 0.00013513289754904243, 5.227521262319089E-08, 2.12E-13
DataValue, 1.05, 3, 0, 2.13443E-08, -2.1182599999999997E-08, 2.8E-14, 2.13443E-08, 0.00014609688566153626, 3.94906862787784E-08, 2.8E-14
DataValue, 1.1, 3, 0, 2.40266E-08, -2.3097399999999997E-08, -1.055E-12, 2.40266E-08, 0.00015500516120439345, 2.0568974300014893E-08, 1.055E-12
DataValue, 1.1500000000000001, 3, 0, 2.5740599999999997E-08, -2.6135499999999996E-08, -8.050000000000001E-13, 2.5740599999999997E-08, 0.00016043877336853458, 2.5547953915159208E-08, 8.050000000000001E-13
DataValue, 1.2, 3, 0, 2.9237199999999997E-08, -2.78316E-08, 1.185E-12, 2.9237199999999997E-08, 0.00017098888852788065, 5.7024012068580293E-08, 1.185E-12
DataValue, 1.25, 3, 0, 3.39733E-08, -3.1940999999999995E-08, 1.101E-12, 3.39733E-08, 0.00018431847438604736, 3.5677317668702086E-08, 1.101E-12
DataValue, 1.3, 3, 0, 3.6053399999999994E-08, -3.5802E-08, -1.3940000000000001E-12, 3.6053399999999994E-08, 0.00018987732882047817, 3.1754686134731226E-08, 1.3940000000000001E-12
DataValue, 1.35, 3, 0, 4.08599E-08, -4.10049E-08, -5E-13, 4.08599E-08, 0.000202138318979851, 5.2491684078613845E-08, 5E-13
DataValue, 1.4000000000000001, 3, 0, 4.5278899999999993E-08, -4.42006E-08, 1.0850000000000001E-12, 4.5278899999999993E-08, 0.00021278839254057068, 4.2108634266126052E-08, 1.0850000000000001E-12
DataValue, 1.4500000000000002, 3, 0, 4.9576899999999996E-08, -4.8930199999999993E-08, 7.71E-13, 4.9576899999999996E-08, 0.00022265870744257903, 4.1257795374536577E-08, 7.71E-13
DataValue, 1.5, 3, 0, 5.4335799999999993E-08, -5.4810399999999994E-08, 8.72E-13, 5.4335799999999993E-08, 0.00023310040755005127, 6.3682658336642953E-08, 8.72E-13
DataValue, 1.55, 3, 0, 6.14515E-08, -6.13208E-08, 5E-13, 6.14515E-08, 0.00024789413062837934, 1.1547492967147817E-07, 5E-13
DataValue, 1.6, 3, 0, 7.13328E-08, -6.9291E-08, 1.881E-12, 7.13328E-08, 0.00026708200987711619, 7.5030636871871032E-08, 1.881E-12
DataValue, 1.6500000000000001, 3, 0, 7.5782299999999986E-08, -7.36196E-08, 2.156E-12, 7.5782299999999986E-08, 0.000275285851434468, 4.9926088318164158E-08, 2.156E-12
DataValue, 1.7000000000000002, 3, 0, 8.3767499999999986E-08, -8.52436E-08, 1.9110000000000002E-12, 8.3767499999999986E-08, 0.00028942615638535504, 5.0008583057577744E-08, 1.9110000000000002E-12
DataValue, 1.75, 3, 0, 8.8594599999999985E-08, -8.8590499999999988E-08, 2.598E-12, 8.8594599999999985E-08, 0.00029764845035712851, 8.8452953030996118E-08, 2.598E-12
DataValue, 1.8, 3, 0, 1.0186769999999999E-07, -1.0206199999999999E-07, 4.055E-12, 1.0186769999999999E-07, 0.0003191671975626568, 8.3203639925304955E-08, 4.055E-12
DataValue, 1.85, 3, 0, 1.06598E-07, -1.06409E-07, 4.648E-12, 1.06598E-07, 0.00032649349151246492, 9.2231496306545062E-08, 4.648E-12
DataValue, 1.9000000000000001, 3, 0, 1.22176E-07, -1.2048E-07, 5.543E-12, 1.22176E-07, 0.00034953683639925564, 1.3439093255463598E-07, 5.543E-12
DataValue, 1.9500000000000002, 3, 0, 1.3188E-07, -1.33742E-07, 4.9580000000000005E-12, 1.3188E-07, 0.00036315286037700434, 9.5300874092361115E-08, 4.9580000000000005E-12
DataValue, 2, 3, 0, 1.4471E-07, -1.4088E-07, 6.5870000000000009E-12, 1.4471E-07, 0.0003804076760529419, 9.619851355461889E-08, 6.5870000000000009E-12
DataValue, 2.05, 3, 0, 1.55369E-07, -1.57144E-07, 7.186E-12, 1.55369E-07, 0.0003941687455900074, 1.5138662224202355E-07, 7.186E-12
DataValue, 2.1, 3, 0, 1.75826E-07, -1.72185E-07, 8.709000000000001E-12, 1.75826E-07, 0.00041931610987416167, 1.4563494029482788E-07, 8.709000000000001E-12
DataValue, 2.15, 3, 0, 1.8691E-07, -1.87798E-07, 1.2218000000000002E-11, 1.8691E-07, 0.00043233089179469931, 6.9206084332363888E-08, 1.2218000000000002E-11
DataValue, 2.2, 3, 0, 1.9858E-07, -2.02005E-07, 1.1775000000000001E-11, 1.9858E-07, 0.0004456231591827337, 1.6629294514581186E-07, 1.1775000000000001E-11
DataValue, 2.25, 3, 0, 2.23833E-07, -2.22971E-07, 1.4968E-11, 2.23833E-07, 0.0004731099238020695, 2.1103584192854922E-07, 1.4968E-11
DataValue, 2.3000000000000003, 3, 0, 2.41633E-07, -2.42756E-07, 1.7744E-11, 2.41633E-07, 0.00049156179672549824, 1.9506029961402125E-07, 1.7744E-11
DataValue, 2.35, 3, 0, 2.67574E-07, -2.66226E-07, 2.0654000000000003E-11, 2.67574E-07, 0.00051727555519278116, 1.835964667268049E-07, 2.0654000000000003E-11
