
SetupTitle, Transfer stab
PrimitiveTest, I/V Sweep
TestParameter, Context.MainFrame, 4155C
TestParameter, Channel.UnitType, SMU, SMU, SMU
TestParameter, Channel.Unit, SMU3:MP, SMU1:MP, SMU4:MP
TestParameter, Channel.IName, ID, IS, IG
TestParameter, Channel.VName, VD, VS, VG
TestParameter, Channel.Mode, V, COMMON, V
TestParameter, Channel.Func, CONST, CONST, VAR1
TestParameter, Channel.Index, 
TestParameter, Channel.Time, 
TestParameter, Measurement.Port.Unit, SMU3:MP, SMU1:MP, SMU4:MP
TestParameter, Measurement.Port.SeriesResistor, NONE, NONE, NONE
TestParameter, Measurement.Port.Filter, ON, ON, ON
TestParameter, Measurement.Primary.Locus, Single
TestParameter, Measurement.Primary.Scale, LINEAR
TestParameter, Measurement.Primary.Start, -2
TestParameter, Measurement.Primary.Stop, 3
TestParameter, Measurement.Primary.Step, 0.05
TestParameter, Measurement.Primary.Compliance, 0.1
TestParameter, Measurement.Primary.PowerCompliance, 0
TestParameter, Measurement.Aborting.Condition, CONTINUE AT ANY
TestParameter, Measurement.PostOutput.Value, START
TestParameter, Measurement.PostOutput.Retention, OFF
TestParameter, Measurement.Bias.Source, 3, 0, -2
TestParameter, Measurement.Bias.Compliance, 0.1, 0.1, 0.1
TestParameter, Measurement.Monitor.Unit, SMU3:MP, SMU1:MP, SMU4:MP
TestParameter, Measurement.Monitor.Adc, HR ADC, HR ADC, HR ADC
TestParameter, Measurement.Monitor.RangingMode, AUTO, AUTO, AUTO
TestParameter, Measurement.Monitor.RangeBoundary, , , 
TestParameter, Measurement.Monitor.RangeRating, BY FULL RANGE, BY FULL RANGE, BY FULL RANGE
TestParameter, Measurement.Monitor.RangeRatingCoeff, 50, 50, 50
TestParameter, Measurement.Timing.Hold, 0.5
TestParameter, Measurement.Timing.Delay, 0.05
TestParameter, Measurement.Adc.HighResolution.AutoZero, OFF
TestParameter, Measurement.Adc.HighResolution.Mode, AUTO
TestParameter, Measurement.Adc.HighResolution.Coeff, 1
TestParameter, Measurement.Ag16440ASelector.SemiconductorRelay.Channel1, DEFAULT
TestParameter, Measurement.Ag16440ASelector.SemiconductorRelay.Channel3, DEFAULT
TestParameter, Function.User.Name, absID, sqrtID, gm2, absIG
TestParameter, Function.User.Unit, A, A, A/V, A
TestParameter, Function.User.Definition, abs(ID), sqrt(abs(ID)), (delta(sqrtID)/delta(VG))^2, abs(IG)
TestParameter, Output.Graph.Enabled, true
TestParameter, Output.Graph.XAxis.Data, VG
TestParameter, Output.Graph.XAxis.Scale, Linear
TestParameter, Output.Graph.XAxis.Left, -5
TestParameter, Output.Graph.XAxis.Right, 7
TestParameter, Output.Graph.YAxis.Data, ID, absIG, gm2
TestParameter, Output.Graph.YAxis.Scale, Log, Log, Linear
TestParameter, Output.Graph.YAxis.Bottom, 1E-14, 1E-14, 0
TestParameter, Output.Graph.YAxis.Top, 0.01, 0.01, 1E-05
TestParameter, Output.Graph.YAxis.Group, , , 
TestParameter, Output.List.Data, VG, IG, VD, ID, VS, IS, sqrtID, gm2, absIG
TestParameter, AutoAnalysis.Interpolation, false
TestParameter, AutoAnalysis.Line1.Enabled, false
TestParameter, AutoAnalysis.Line1.Type, 1
TestParameter, AutoAnalysis.Line1.Fix, True
TestParameter, AutoAnalysis.Line1.YAxis, 0
TestParameter, AutoAnalysis.Line1.Point1.Type, 0
TestParameter, AutoAnalysis.Line1.Point1.XY.X, 
TestParameter, AutoAnalysis.Line1.Point1.XY.Y, 
TestParameter, AutoAnalysis.Line1.Point1.Data.Var, 
TestParameter, AutoAnalysis.Line1.Point1.Data.Condition, 
TestParameter, AutoAnalysis.Line1.Point1.Data.Start, false
TestParameter, AutoAnalysis.Line1.Point1.Data.StartVar, 
TestParameter, AutoAnalysis.Line1.Point1.Data.StartCondition, 
TestParameter, AutoAnalysis.Line1.Point2.Type, 0
TestParameter, AutoAnalysis.Line1.Point2.XY.X, 
TestParameter, AutoAnalysis.Line1.Point2.XY.Y, 
TestParameter, AutoAnalysis.Line1.Point2.Data.Var, 
TestParameter, AutoAnalysis.Line1.Point2.Data.Condition, 
TestParameter, AutoAnalysis.Line1.Point2.Data.Start, false
TestParameter, AutoAnalysis.Line1.Point2.Data.StartVar, 
TestParameter, AutoAnalysis.Line1.Point2.Data.StartCondition, 
TestParameter, AutoAnalysis.Line1.GradientExpr, 0
TestParameter, AutoAnalysis.Line2.Enabled, false
TestParameter, AutoAnalysis.Line2.Type, 1
TestParameter, AutoAnalysis.Line2.Fix, True
TestParameter, AutoAnalysis.Line2.YAxis, 0
TestParameter, AutoAnalysis.Line2.Point1.Type, 0
TestParameter, AutoAnalysis.Line2.Point1.XY.X, 
TestParameter, AutoAnalysis.Line2.Point1.XY.Y, 
TestParameter, AutoAnalysis.Line2.Point1.Data.Var, 
TestParameter, AutoAnalysis.Line2.Point1.Data.Condition, 
TestParameter, AutoAnalysis.Line2.Point1.Data.Start, false
TestParameter, AutoAnalysis.Line2.Point1.Data.StartVar, 
TestParameter, AutoAnalysis.Line2.Point1.Data.StartCondition, 
TestParameter, AutoAnalysis.Line2.Point2.Type, 0
TestParameter, AutoAnalysis.Line2.Point2.XY.X, 
TestParameter, AutoAnalysis.Line2.Point2.XY.Y, 
TestParameter, AutoAnalysis.Line2.Point2.Data.Var, 
TestParameter, AutoAnalysis.Line2.Point2.Data.Condition, 
TestParameter, AutoAnalysis.Line2.Point2.Data.Start, false
TestParameter, AutoAnalysis.Line2.Point2.Data.StartVar, 
TestParameter, AutoAnalysis.Line2.Point2.Data.StartCondition, 
TestParameter, AutoAnalysis.Line2.GradientExpr, 0
TestParameter, AutoAnalysis.Marker.Enabled, false
TestParameter, AutoAnalysis.Marker.Data.Var, 
TestParameter, AutoAnalysis.Marker.Data.Condition, 
TestParameter, AutoAnalysis.Marker.Data.Start, false
TestParameter, AutoAnalysis.Marker.Data.StartVar, 
TestParameter, AutoAnalysis.Marker.Data.StartCondition, 
MetaData, TestRecord.EntryPoint, true
MetaData, TestRecord.RecordTime, 05/02/2019 17:19:42
MetaData, TestRecord.TestTarget, br-br-50-20
MetaData, TestRecord.IterationIndex, 1
MetaData, TestRecord.Preservation, true
MetaData, TestRecord.Flag, 
MetaData, TestRecord.Remarks, bad
MetaData, TestRecord.LinkKey, 0f1cb198-67a0-45e7-8f93-357323caed1a
Dimension1, 101, 101, 101, 101, 101, 101, 101, 101, 101, 101
Dimension2, 1, 1, 1, 1, 1, 1, 1, 1, 1, 1
DataName, VG, VD, VS, ID, IS, IG, absID, sqrtID, gm2, absIG
DataValue, -2, 3, 0, 3.3326E-11, 1.483E-12, -3.9884000000000004E-11, 3.3326E-11, 5.7728675716666154E-06, 4.4473432933293779E-08, 3.9884000000000004E-11
DataValue, -1.9500000000000002, 3, 0, 2.66252E-10, 1.7620000000000002E-12, -3.53233E-10, 2.66252E-10, 1.6317230157106935E-05, 1.9060373886175342E-10, 3.53233E-10
DataValue, -1.9000000000000001, 3, 0, 5.1172000000000007E-11, 7.94E-13, -4.5559000000000007E-11, 5.1172000000000007E-11, 7.1534607009474796E-06, 9.0403151602870862E-11, 4.5559000000000007E-11
DataValue, -1.85, 3, 0, 2.36127E-10, 8.5000000000000011E-13, -3.7826000000000005E-11, 2.36127E-10, 1.5366424437714845E-05, 4.0179409497155146E-10, 3.7826000000000005E-11
DataValue, -1.8, 3, 0, 2.6512000000000002E-11, 8.7900000000000009E-13, -2.5999000000000002E-11, 2.6512000000000002E-11, 5.1489804816099272E-06, 9.70420344090178E-09, 2.5999000000000002E-11
DataValue, -1.75, 3, 0, 3.0420000000000003E-11, 1.237E-12, -1.2461900000000002E-10, 3.0420000000000003E-11, 5.5154328932550708E-06, 1.7647577361079735E-10, 1.2461900000000002E-10
DataValue, -1.7000000000000002, 3, 0, 4.1957E-11, 5.37E-13, -5.6542000000000004E-11, 4.1957E-11, 6.4774223268210637E-06, 4.1522707942661328E-10, 5.6542000000000004E-11
DataValue, -1.6500000000000001, 3, 0, 5.7050000000000006E-11, 6.76E-13, -4.898E-11, 5.7050000000000006E-11, 7.5531450403126776E-06, 9.7723000226607832E-14, 4.898E-11
DataValue, -1.6, 3, 0, 4.1553E-11, 4.5400000000000003E-13, -3.7458E-11, 4.1553E-11, 6.4461616486091937E-06, 2.2369636969588304E-12, 3.7458E-11
DataValue, -1.55, 3, 0, 5.4813E-11, 3.9200000000000005E-13, -4.4899000000000006E-11, 5.4813E-11, 7.40358021500409E-06, 2.1795737631153488E-10, 4.4899000000000006E-11
DataValue, -1.5, 3, 0, 6.2766000000000011E-11, 1.83E-13, -7.7673E-11, 6.2766000000000011E-11, 7.9224996055537928E-06, 2.2391567471022341E-10, 7.7673E-11
DataValue, -1.4500000000000002, 3, 0, 3.4895000000000006E-11, 2.0400000000000001E-13, -3.4103000000000004E-11, 3.4895000000000006E-11, 5.9071989978330684E-06, 4.2537638395283547E-10, 3.4103000000000004E-11
DataValue, -1.4000000000000001, 3, 0, 3.434E-11, -2.1000000000000002E-14, -3.2181E-11, 3.434E-11, 5.8600341295934451E-06, 3.0461704109957059E-11, 3.2181E-11
DataValue, -1.35, 3, 0, 2.8679000000000002E-11, -2.7600000000000004E-13, -3.0204000000000005E-11, 2.8679000000000002E-11, 5.3552777705736241E-06, 1.1643292496033838E-12, 3.0204000000000005E-11
DataValue, -1.3, 3, 0, 3.3087000000000006E-11, -1.69E-13, -3.0064E-11, 3.3087000000000006E-11, 5.7521300402546538E-06, 3.5414290528148888E-12, 3.0064E-11
DataValue, -1.25, 3, 0, 3.073E-11, -2.36E-13, -3.0535E-11, 3.073E-11, 5.54346462061408E-06, 7.8461782097810115E-12, 3.0535E-11
DataValue, -1.2, 3, 0, 2.9943E-11, -6.4300000000000009E-13, -2.8631E-11, 2.9943E-11, 5.4720197368065116E-06, 2.9062279703531868E-12, 2.8631E-11
DataValue, -1.1500000000000001, 3, 0, 2.8869E-11, -5E-13, -2.7982E-11, 2.8869E-11, 5.3729879955198112E-06, 2.0104071556101242E-11, 2.7982E-11
DataValue, -1.1, 3, 0, 2.5237000000000002E-11, -6.05E-13, -2.7026E-11, 2.5237000000000002E-11, 5.0236440956739765E-06, 5.1185193866027347E-12, 2.7026E-11
DataValue, -1.05, 3, 0, 2.6489E-11, -6.9200000000000008E-13, -2.5121000000000002E-11, 2.6489E-11, 5.1467465451486924E-06, 5.8302241254448858E-13, 2.5121000000000002E-11
DataValue, -1, 3, 0, 2.6010000000000002E-11, -6.78E-13, -2.4041E-11, 2.6010000000000002E-11, 5.1E-06, 1.5996652750783251E-11, 2.4041E-11
DataValue, -0.95000000000000007, 3, 0, 2.2532000000000003E-11, -1.078E-12, -2.4568E-11, 2.2532000000000003E-11, 4.7467883879524271E-06, 1.2212691777236427E-12, 2.4568E-11
DataValue, -0.9, 3, 0, 2.4895000000000002E-11, -9.3E-13, -2.3018E-11, 2.4895000000000002E-11, 4.989488951786546E-06, 5.8504916177413633E-13, 2.3018E-11
DataValue, -0.85000000000000009, 3, 0, 2.3264E-11, -1.047E-12, -2.1782000000000002E-11, 2.3264E-11, 4.8232768943945152E-06, 5.2309043692725428E-12, 2.1782000000000002E-11
DataValue, -0.8, 3, 0, 2.2665000000000003E-11, -1.072E-12, -2.0024E-11, 2.2665000000000003E-11, 4.7607772474670569E-06, 5.3361355875598714E-12, 2.0024E-11
DataValue, -0.75, 3, 0, 2.1089000000000003E-11, -1.4260000000000002E-12, -1.9562000000000002E-11, 2.1089000000000003E-11, 4.5922761241022956E-06, 5.0291990800539927E-12, 1.9562000000000002E-11
DataValue, -0.70000000000000007, 3, 0, 2.058E-11, -1.2630000000000002E-12, -1.8484000000000002E-11, 2.058E-11, 4.5365184888855025E-06, 7.8519004682026152E-13, 1.8484000000000002E-11
DataValue, -0.65, 3, 0, 2.0283000000000003E-11, -1.3070000000000002E-12, -1.702E-11, 2.0283000000000003E-11, 4.503665174055461E-06, 5.3817501386579869E-12, 1.702E-11
DataValue, -0.6, 3, 0, 1.8529E-11, -1.581E-12, -1.7418000000000002E-11, 1.8529E-11, 4.3045324949406525E-06, 3.2486675870546941E-12, 1.7418000000000002E-11
DataValue, -0.55, 3, 0, 1.8692E-11, -1.4630000000000001E-12, -1.5756E-11, 1.8692E-11, 4.3234245685567363E-06, 1.1916846215145602E-13, 1.5756E-11
DataValue, -0.5, 3, 0, 1.8233E-11, -1.7180000000000002E-12, -1.6352E-11, 1.8233E-11, 4.2700117095858179E-06, 1.4450807583264158E-12, 1.6352E-11
DataValue, -0.45, 3, 0, 1.7667000000000002E-11, -1.6930000000000002E-12, -1.4959E-11, 1.7667000000000002E-11, 4.2032130566984115E-06, 2.0111771557124902E-12, 1.4959E-11
DataValue, -0.4, 3, 0, 1.7042E-11, -1.7560000000000002E-12, -1.4208000000000001E-11, 1.7042E-11, 4.1281957317937338E-06, 4.13265548169578E-15, 1.4208000000000001E-11
DataValue, -0.35000000000000003, 3, 0, 1.7613E-11, -1.8950000000000003E-12, -1.4687E-11, 1.7613E-11, 4.1967844833872515E-06, 1.3769232905643767E-11, 1.4687E-11
DataValue, -0.3, 3, 0, 1.4116000000000002E-11, -1.98E-12, -1.3603000000000002E-11, 1.4116000000000002E-11, 3.7571265616159383E-06, 3.9914289656118691E-12, 1.3603000000000002E-11
DataValue, -0.25, 3, 0, 1.5976E-11, -2.056E-12, -1.3115000000000001E-11, 1.5976E-11, 3.9969988741554585E-06, 5.3700148298652748E-12, 1.3115000000000001E-11
DataValue, -0.2, 3, 0, 1.5911000000000002E-11, -2.7170000000000002E-12, -1.2884E-11, 1.5911000000000002E-11, 3.9888594861188081E-06, 4.7720903879950962E-13, 1.2884E-11
DataValue, -0.15, 3, 0, 1.6533E-11, -3.5190000000000003E-12, -1.1487E-11, 1.6533E-11, 4.066079192539171E-06, 1.6053926855150869E-11, 1.1487E-11
DataValue, -0.1, 3, 0, 1.9268E-11, -6.468E-12, -1.1782000000000001E-11, 1.9268E-11, 4.38953300477397E-06, 2.0940604006295278E-10, 1.1782000000000001E-11
DataValue, -0.05, 3, 0, 3.0395E-11, -1.5174E-11, -1.089E-11, 3.0395E-11, 5.5131660595342133E-06, 7.68764013176126E-10, 1.089E-11
DataValue, 0, 3, 0, 5.1297000000000006E-11, -3.9917E-11, -1.0049000000000001E-11, 5.1297000000000006E-11, 7.1621924017719609E-06, 3.2732648498165684E-09, 1.0049000000000001E-11
DataValue, 0.05, 3, 0, 1.2621200000000001E-10, -1.10539E-10, -9.7170000000000015E-12, 1.2621200000000001E-10, 1.1234411422055007E-05, 1.1043251505237583E-08, 9.7170000000000015E-12
DataValue, 0.1, 3, 0, 3.1226E-10, -2.9027700000000003E-10, -9.5940000000000013E-12, 3.1226E-10, 1.7670880000724355E-05, 2.545848559213173E-08, 9.5940000000000013E-12
DataValue, 0.15, 3, 0, 7.39303E-10, -7.00333E-10, -9.483E-12, 7.39303E-10, 2.7190126884588091E-05, 4.54696206495175E-08, 9.483E-12
DataValue, 0.2, 3, 0, 1.52057E-09, -1.45134E-09, -9.076E-12, 1.52057E-09, 3.8994486789801454E-05, 8.3449783685738369E-08, 9.076E-12
DataValue, 0.25, 3, 0, 3.14472E-09, -3.08797E-09, -8.137E-12, 3.14472E-09, 5.6077803095342457E-05, 1.4274357644390847E-07, 8.137E-12
DataValue, 0.3, 3, 0, 5.89454E-09, -5.79415E-09, -7.152E-12, 5.89454E-09, 7.6775907679427669E-05, 1.9630004840575016E-07, 7.152E-12
DataValue, 0.35000000000000003, 3, 0, 1.007686E-08, -9.92657E-09, -7.12E-12, 1.007686E-08, 0.00010038356439178677, 2.1673254494817617E-07, 7.12E-12
DataValue, 0.4, 3, 0, 1.5210399999999997E-08, -1.48739E-08, -5.656E-12, 1.5210399999999997E-08, 0.00012333045041675636, 2.7375610539431717E-07, 5.656E-12
DataValue, 0.45, 3, 0, 2.3318899999999996E-08, -2.3056899999999997E-08, -5.2370000000000004E-12, 2.3318899999999996E-08, 0.00015270527168372413, 3.6851804752820422E-07, 5.2370000000000004E-12
DataValue, 0.5, 3, 0, 3.3869299999999993E-08, -3.3633899999999997E-08, -4.3550000000000007E-12, 3.3869299999999993E-08, 0.00018403613775560494, 4.2728399897419789E-07, 4.3550000000000007E-12
DataValue, 0.55, 3, 0, 4.75555E-08, -4.6841799999999993E-08, -2.3330000000000003E-12, 4.75555E-08, 0.00021807223573852769, 4.7668676551727008E-07, 2.3330000000000003E-12
DataValue, 0.6, 3, 0, 6.40488E-08, -6.3326199999999992E-08, -1.3320000000000002E-12, 6.40488E-08, 0.00025307864390343172, 5.2548966903763991E-07, 1.3320000000000002E-12
DataValue, 0.65, 3, 0, 8.44268E-08, -8.370859999999999E-08, 8.8200000000000008E-13, 8.44268E-08, 0.00029056290196788717, 5.1731240631022382E-07, 8.8200000000000008E-13
DataValue, 0.70000000000000007, 3, 0, 1.05627E-07, -1.03513E-07, 2.428E-12, 1.05627E-07, 0.00032500307690851176, 5.9286885149566E-07, 2.428E-12
DataValue, 0.75, 3, 0, 1.3510099999999999E-07, -1.33937E-07, 5.364E-12, 1.3510099999999999E-07, 0.00036756087931116935, 7.6675404894846025E-07, 5.364E-12
DataValue, 0.8, 3, 0, 1.70212E-07, -1.68095E-07, 9.6750000000000015E-12, 1.70212E-07, 0.00041256757022335142, 8.79419913315982E-07, 9.6750000000000015E-12
DataValue, 0.85000000000000009, 3, 0, 2.1283299999999998E-07, -2.10633E-07, 1.5481E-11, 2.1283299999999998E-07, 0.00046133827068648879, 9.90759671186312E-07, 1.5481E-11
DataValue, 0.9, 3, 0, 2.62251E-07, -2.60079E-07, 2.0865E-11, 2.62251E-07, 0.00051210448152696336, 1.0824949300701772E-06, 2.0865E-11
DataValue, 0.95000000000000007, 3, 0, 3.19656E-07, -3.16832E-07, 2.9488E-11, 3.19656E-07, 0.00056538128727434906, 1.2415170664875174E-06, 2.9488E-11
DataValue, 1, 3, 0, 3.88787E-07, -3.86125E-07, 3.9624E-11, 3.88787E-07, 0.00062352786625779609, 1.3836055935365596E-06, 3.9624E-11
DataValue, 1.05, 3, 0, 4.665E-07, -4.63903E-07, 5.1230000000000007E-11, 4.665E-07, 0.00068300805266116734, 1.474471962843879E-06, 5.1230000000000007E-11
DataValue, 1.1, 3, 0, 5.54959E-07, -5.51199E-07, 6.6902E-11, 5.54959E-07, 0.00074495570338108021, 1.6578444241376391E-06, 6.6902E-11
DataValue, 1.1500000000000001, 3, 0, 6.58963E-07, -6.56566E-07, 8.6488000000000012E-11, 6.58963E-07, 0.0008117653601872896, 1.8651122331918339E-06, 8.6488000000000012E-11
DataValue, 1.2, 3, 0, 7.77086E-07, -7.7343699999999994E-07, 1.1320900000000001E-10, 7.77086E-07, 0.00088152481530584265, 1.9622613948271029E-06, 1.1320900000000001E-10
DataValue, 1.25, 3, 0, 9.06011E-07, -9.0228499999999993E-07, 1.4209600000000002E-10, 9.06011E-07, 0.00095184610100582958, 2.0692470111551082E-06, 1.4209600000000002E-10
DataValue, 1.3, 3, 0, 1.051391E-06, -1.047695E-06, 1.80341E-10, 1.051391E-06, 0.0010253735904537428, 2.0589226283377483E-06, 1.80341E-10
DataValue, 1.35, 3, 0, 1.19976E-06, -1.19386E-06, 2.08588E-10, 1.19976E-06, 0.001095335565021058, 2.1621560875652389E-06, 2.08588E-10
DataValue, 1.4000000000000001, 3, 0, 1.37456E-06, -1.3712200000000002E-06, 2.6348900000000003E-10, 1.37456E-06, 0.0011724163083137321, 2.42350249630094E-06, 2.6348900000000003E-10
DataValue, 1.4500000000000002, 3, 0, 1.5650300000000002E-06, -1.5622600000000002E-06, 3.22691E-10, 1.5650300000000002E-06, 0.0012510115906737237, 2.4689436739039118E-06, 3.22691E-10
DataValue, 1.5, 3, 0, 1.7676900000000002E-06, -1.7656200000000002E-06, 3.9311000000000005E-10, 1.7676900000000002E-06, 0.0013295450349649688, 2.4838138907192767E-06, 3.9311000000000005E-10
DataValue, 1.55, 3, 0, 1.98419E-06, -1.9829500000000002E-06, 4.70602E-10, 1.98419E-06, 0.0014086127927858672, 2.5388310171688691E-06, 4.70602E-10
DataValue, 1.6, 3, 0, 2.21677E-06, -2.21444E-06, 5.59953E-10, 2.21677E-06, 0.001488882130996272, 2.59072241026572E-06, 5.59953E-10
DataValue, 1.6500000000000001, 3, 0, 2.4635500000000003E-06, -2.4615600000000005E-06, 6.6027500000000008E-10, 2.4635500000000003E-06, 0.0015695700048102348, 2.5946274977547735E-06, 6.6027500000000008E-10
DataValue, 1.7000000000000002, 3, 0, 2.7223700000000004E-06, -2.7203700000000003E-06, 7.7182700000000009E-10, 2.7223700000000004E-06, 0.0016499606055903275, 2.6224853832385811E-06, 7.7182700000000009E-10
DataValue, 1.75, 3, 0, 2.99813E-06, -2.9964400000000005E-06, 8.969990000000001E-10, 2.99813E-06, 0.0017315109009186167, 2.6445403304019868E-06, 8.969990000000001E-10
DataValue, 1.8, 3, 0, 3.2854500000000005E-06, -3.2842100000000005E-06, 9.9372E-10, 3.2854500000000005E-06, 0.0018125810326713673, 2.6596404950215349E-06, 9.9372E-10
DataValue, 1.85, 3, 0, 3.5894900000000003E-06, -3.5880800000000003E-06, 1.17985E-09, 3.5894900000000003E-06, 0.0018945949435169513, 2.7459350941657608E-06, 1.17985E-09
DataValue, 1.9000000000000001, 3, 0, 3.9136300000000005E-06, -3.9126400000000007E-06, 1.37157E-09, 3.9136300000000005E-06, 0.0019782896653422625, 2.8033871212285222E-06, 1.37157E-09
DataValue, 1.9500000000000002, 3, 0, 4.2519600000000007E-06, -4.2510400000000007E-06, 1.58565E-09, 4.2519600000000007E-06, 0.0020620281278391915, 2.8088787173083794E-06, 1.58565E-09
DataValue, 2, 3, 0, 4.6048300000000008E-06, -4.60452E-06, 1.81343E-09, 4.6048300000000008E-06, 0.0021458867630888634, 2.8454549165815915E-06, 1.81343E-09
DataValue, 2.05, 3, 0, 4.9760800000000008E-06, -4.9753900000000008E-06, 2.06274E-09, 4.9760800000000008E-06, 0.0022307128905352208, 2.8729088768394673E-06, 2.06274E-09
DataValue, 2.1, 3, 0, 5.3610000000000008E-06, -5.36161E-06, 2.34155E-09, 5.3610000000000008E-06, 0.0023153833375922873, 2.8948710812271137E-06, 2.34155E-09
DataValue, 2.15, 3, 0, 5.76411E-06, -5.76503E-06, 2.63827E-09, 5.76411E-06, 0.0024008560973119569, 2.9356502794176388E-06, 2.63827E-09
DataValue, 2.2, 3, 0, 6.18378E-06, -6.1841400000000009E-06, 2.9504E-09, 6.18378E-06, 0.002486720732209389, 2.9584100446523521E-06, 2.9504E-09
DataValue, 2.25, 3, 0, 6.61959E-06, -6.621030000000001E-06, 3.29311E-09, 6.61959E-06, 0.0025728563893074171, 2.9907254573092622E-06, 3.29311E-09
DataValue, 2.3000000000000003, 3, 0, 7.0737800000000011E-06, -7.074420000000001E-06, 3.68288E-09, 7.0737800000000011E-06, 0.0026596578727347622, 3.0028793609362198E-06, 3.68288E-09
