
SetupTitle, Transfer stab
PrimitiveTest, I/V Sweep
TestParameter, Context.MainFrame, 4155C
TestParameter, Channel.UnitType, SMU, SMU, SMU
TestParameter, Channel.Unit, SMU3:MP, SMU1:MP, SMU4:MP
TestParameter, Channel.IName, ID, IS, IG
TestParameter, Channel.VName, VD, VS, VG
TestParameter, Channel.Mode, V, COMMON, V
TestParameter, Channel.Func, CONST, CONST, VAR1
TestParameter, Channel.Index, 
TestParameter, Channel.Time, 
TestParameter, Measurement.Port.Unit, SMU3:MP, SMU1:MP, SMU4:MP
TestParameter, Measurement.Port.SeriesResistor, NONE, NONE, NONE
TestParameter, Measurement.Port.Filter, ON, ON, ON
TestParameter, Measurement.Primary.Locus, Single
TestParameter, Measurement.Primary.Scale, LINEAR
TestParameter, Measurement.Primary.Start, -2
TestParameter, Measurement.Primary.Stop, 3
TestParameter, Measurement.Primary.Step, 0.05
TestParameter, Measurement.Primary.Compliance, 0.1
TestParameter, Measurement.Primary.PowerCompliance, 0
TestParameter, Measurement.Aborting.Condition, CONTINUE AT ANY
TestParameter, Measurement.PostOutput.Value, START
TestParameter, Measurement.PostOutput.Retention, OFF
TestParameter, Measurement.Bias.Source, 3, 0, -2
TestParameter, Measurement.Bias.Compliance, 0.1, 0.1, 0.1
TestParameter, Measurement.Monitor.Unit, SMU3:MP, SMU1:MP, SMU4:MP
TestParameter, Measurement.Monitor.Adc, HR ADC, HR ADC, HR ADC
TestParameter, Measurement.Monitor.RangingMode, AUTO, AUTO, AUTO
TestParameter, Measurement.Monitor.RangeBoundary, , , 
TestParameter, Measurement.Monitor.RangeRating, BY FULL RANGE, BY FULL RANGE, BY FULL RANGE
TestParameter, Measurement.Monitor.RangeRatingCoeff, 50, 50, 50
TestParameter, Measurement.Timing.Hold, 0.5
TestParameter, Measurement.Timing.Delay, 0.05
TestParameter, Measurement.Adc.HighResolution.AutoZero, OFF
TestParameter, Measurement.Adc.HighResolution.Mode, AUTO
TestParameter, Measurement.Adc.HighResolution.Coeff, 1
TestParameter, Measurement.Ag16440ASelector.SemiconductorRelay.Channel1, DEFAULT
TestParameter, Measurement.Ag16440ASelector.SemiconductorRelay.Channel3, DEFAULT
TestParameter, Function.User.Name, absID, sqrtID, gm2, absIG
TestParameter, Function.User.Unit, A, A, A/V, A
TestParameter, Function.User.Definition, abs(ID), sqrt(abs(ID)), (delta(sqrtID)/delta(VG))^2, abs(IG)
TestParameter, Output.Graph.Enabled, true
TestParameter, Output.Graph.XAxis.Data, VG
TestParameter, Output.Graph.XAxis.Scale, Linear
TestParameter, Output.Graph.XAxis.Left, -5
TestParameter, Output.Graph.XAxis.Right, 7
TestParameter, Output.Graph.YAxis.Data, ID, absIG, gm2
TestParameter, Output.Graph.YAxis.Scale, Log, Log, Linear
TestParameter, Output.Graph.YAxis.Bottom, 1E-14, 1E-14, 0
TestParameter, Output.Graph.YAxis.Top, 0.01, 0.01, 1E-05
TestParameter, Output.Graph.YAxis.Group, , , 
TestParameter, Output.List.Data, VG, IG, VD, ID, VS, IS, sqrtID, gm2, absIG
TestParameter, AutoAnalysis.Interpolation, false
TestParameter, AutoAnalysis.Line1.Enabled, false
TestParameter, AutoAnalysis.Line1.Type, 1
TestParameter, AutoAnalysis.Line1.Fix, True
TestParameter, AutoAnalysis.Line1.YAxis, 0
TestParameter, AutoAnalysis.Line1.Point1.Type, 0
TestParameter, AutoAnalysis.Line1.Point1.XY.X, 
TestParameter, AutoAnalysis.Line1.Point1.XY.Y, 
TestParameter, AutoAnalysis.Line1.Point1.Data.Var, 
TestParameter, AutoAnalysis.Line1.Point1.Data.Condition, 
TestParameter, AutoAnalysis.Line1.Point1.Data.Start, false
TestParameter, AutoAnalysis.Line1.Point1.Data.StartVar, 
TestParameter, AutoAnalysis.Line1.Point1.Data.StartCondition, 
TestParameter, AutoAnalysis.Line1.Point2.Type, 0
TestParameter, AutoAnalysis.Line1.Point2.XY.X, 
TestParameter, AutoAnalysis.Line1.Point2.XY.Y, 
TestParameter, AutoAnalysis.Line1.Point2.Data.Var, 
TestParameter, AutoAnalysis.Line1.Point2.Data.Condition, 
TestParameter, AutoAnalysis.Line1.Point2.Data.Start, false
TestParameter, AutoAnalysis.Line1.Point2.Data.StartVar, 
TestParameter, AutoAnalysis.Line1.Point2.Data.StartCondition, 
TestParameter, AutoAnalysis.Line1.GradientExpr, 0
TestParameter, AutoAnalysis.Line2.Enabled, false
TestParameter, AutoAnalysis.Line2.Type, 1
TestParameter, AutoAnalysis.Line2.Fix, True
TestParameter, AutoAnalysis.Line2.YAxis, 0
TestParameter, AutoAnalysis.Line2.Point1.Type, 0
TestParameter, AutoAnalysis.Line2.Point1.XY.X, 
TestParameter, AutoAnalysis.Line2.Point1.XY.Y, 
TestParameter, AutoAnalysis.Line2.Point1.Data.Var, 
TestParameter, AutoAnalysis.Line2.Point1.Data.Condition, 
TestParameter, AutoAnalysis.Line2.Point1.Data.Start, false
TestParameter, AutoAnalysis.Line2.Point1.Data.StartVar, 
TestParameter, AutoAnalysis.Line2.Point1.Data.StartCondition, 
TestParameter, AutoAnalysis.Line2.Point2.Type, 0
TestParameter, AutoAnalysis.Line2.Point2.XY.X, 
TestParameter, AutoAnalysis.Line2.Point2.XY.Y, 
TestParameter, AutoAnalysis.Line2.Point2.Data.Var, 
TestParameter, AutoAnalysis.Line2.Point2.Data.Condition, 
TestParameter, AutoAnalysis.Line2.Point2.Data.Start, false
TestParameter, AutoAnalysis.Line2.Point2.Data.StartVar, 
TestParameter, AutoAnalysis.Line2.Point2.Data.StartCondition, 
TestParameter, AutoAnalysis.Line2.GradientExpr, 0
TestParameter, AutoAnalysis.Marker.Enabled, false
TestParameter, AutoAnalysis.Marker.Data.Var, 
TestParameter, AutoAnalysis.Marker.Data.Condition, 
TestParameter, AutoAnalysis.Marker.Data.Start, false
TestParameter, AutoAnalysis.Marker.Data.StartVar, 
TestParameter, AutoAnalysis.Marker.Data.StartCondition, 
MetaData, TestRecord.EntryPoint, true
MetaData, TestRecord.RecordTime, 05/02/2019 14:09:56
MetaData, TestRecord.TestTarget, 150-300-5-2
MetaData, TestRecord.IterationIndex, 3
MetaData, TestRecord.Preservation, true
MetaData, TestRecord.Flag, 
MetaData, TestRecord.Remarks, good
MetaData, TestRecord.LinkKey, 7b415671-d4c3-4210-9106-a59e19aba14e
Dimension1, 101, 101, 101, 101, 101, 101, 101, 101, 101, 101
Dimension2, 1, 1, 1, 1, 1, 1, 1, 1, 1, 1
DataName, VG, VD, VS, ID, IS, IG, absID, sqrtID, gm2, absIG
DataValue, -2, 3, 0, 1.621E-12, 2.82E-13, -1.3150000000000002E-12, 1.621E-12, 1.2731849826321391E-06, 3.5887783679156524E-11, 1.3150000000000002E-12
DataValue, -1.9500000000000002, 3, 0, 9.48E-13, 1.3170000000000001E-12, -1.896E-12, 9.48E-13, 9.7365291557104682E-07, 1.1224380744122776E-12, 1.896E-12
DataValue, -1.9000000000000001, 3, 0, 1.902E-12, -2.7600000000000004E-13, -9.9E-13, 1.902E-12, 1.379130160644745E-06, 1.7303867472179254E-11, 9.9E-13
DataValue, -1.85, 3, 0, 3.1100000000000004E-13, 2.24E-13, -1.1690000000000002E-12, 3.1100000000000004E-13, 5.5767373974394745E-07, 4.9851948230759977E-12, 1.1690000000000002E-12
DataValue, -1.8, 3, 0, 1.3360000000000002E-12, 4.46E-13, -2.0240000000000003E-12, 1.3360000000000002E-12, 1.1558546621439913E-06, 2.3747522548853503E-11, 2.0240000000000003E-12
DataValue, -1.75, 3, 0, 1.092E-12, -6.59E-13, -2.327E-12, 1.092E-12, 1.0449880382090505E-06, 1.9574153813852189E-12, 2.327E-12
DataValue, -1.7000000000000002, 3, 0, 1.6790000000000002E-12, -9.9000000000000007E-14, 1.52E-13, 1.6790000000000002E-12, 1.2957623238850558E-06, 1.2300861477402311E-11, 1.52E-13
DataValue, -1.6500000000000001, 3, 0, 4.8200000000000007E-13, 1.89E-13, -1.293E-12, 4.8200000000000007E-13, 6.9426219830839131E-07, 7.6363455331714347E-11, 1.293E-12
DataValue, -1.6, 3, 0, -1.7800000000000002E-13, 4.64E-13, -1.256E-12, 1.7800000000000002E-13, 4.2190046219457974E-07, 8.1197940110876462E-13, 1.256E-12
DataValue, -1.55, 3, 0, -3.65E-13, 2.1300000000000003E-13, -5.14E-13, 3.65E-13, 6.0415229867972863E-07, 3.2038618053681415E-11, 5.14E-13
DataValue, -1.5, 3, 0, 9.76E-13, -5.9500000000000009E-13, -1.0370000000000001E-12, 9.76E-13, 9.8792712281827747E-07, 2.2625481414952207E-11, 1.0370000000000001E-12
DataValue, -1.4500000000000002, 3, 0, 1.166E-12, 4.2500000000000006E-13, 8.89E-13, 1.166E-12, 1.0798147989354472E-06, 6.6138510798213833E-12, 8.89E-13
DataValue, -1.4000000000000001, 3, 0, -5.34E-13, 1.9500000000000003E-13, -7.2000000000000009E-14, 5.34E-13, 7.3075303625780449E-07, 2.4286126929111795E-13, 7.2000000000000009E-14
DataValue, -1.35, 3, 0, 1.0620000000000001E-12, 1.21E-12, -8.9E-13, 1.0620000000000001E-12, 1.03053384223906E-06, 1.3958845612581586E-13, 8.9E-13
DataValue, -1.3, 3, 0, 5.9E-13, -1.851E-12, -2.921E-12, 5.9E-13, 7.6811457478686082E-07, 2.6766960958586578E-11, 2.921E-12
DataValue, -1.25, 3, 0, -2.3960000000000003E-12, -4.4E-14, -8.5600000000000009E-13, 2.3960000000000003E-12, 1.547901805671148E-06, 4.3520076775433781E-12, 8.5600000000000009E-13
DataValue, -1.2, 3, 0, -9.54E-13, 6.13E-13, -7.06E-13, 9.54E-13, 9.7672923576598245E-07, 6.6105824250377992E-11, 7.06E-13
DataValue, -1.1500000000000001, 3, 0, 5.4E-13, 5.3E-14, -1.5910000000000002E-12, 5.4E-13, 7.3484692283495341E-07, 1.5843860617561041E-11, 1.5910000000000002E-12
DataValue, -1.1, 3, 0, -1.8900000000000002E-12, -3.2200000000000004E-13, -1.001E-12, 1.8900000000000002E-12, 1.374772708486752E-06, 9.500717707456951E-12, 1.001E-12
DataValue, -1.05, 3, 0, 1.82E-13, -3.04E-13, -1.57E-13, 1.82E-13, 4.2661458015403085E-07, 6.2970873923677562E-12, 1.57E-13
DataValue, -1, 3, 0, 1.2630000000000002E-12, 2.5E-14, -2.17E-13, 1.2630000000000002E-12, 1.123832727766904E-06, 4.85492827361214E-11, 2.17E-13
DataValue, -0.95000000000000007, 3, 0, 1.262E-12, -1.022E-12, 3.4900000000000003E-13, 1.262E-12, 1.1233877335986894E-06, 9.2281697262529569E-11, 3.4900000000000003E-13
DataValue, -0.9, 3, 0, 4.3450000000000006E-12, -3.5330000000000004E-12, -8.6400000000000005E-13, 4.3450000000000006E-12, 2.0844663585675831E-06, 5.11206733328076E-10, 8.6400000000000005E-13
DataValue, -0.85000000000000009, 3, 0, 1.1454E-11, -1.1057E-11, -3.3200000000000005E-13, 1.1454E-11, 3.384375865650859E-06, 1.3435180656473179E-09, 3.3200000000000005E-13
DataValue, -0.8, 3, 0, 3.3061E-11, -3.1392000000000005E-11, 3.8E-14, 3.3061E-11, 5.7498695637379466E-06, 3.8157326267818616E-09, 3.8E-14
DataValue, -0.75, 3, 0, 9.1423E-11, -8.8381E-11, -4.09E-13, 9.1423E-11, 9.5615375332631523E-06, 9.0465266165444042E-09, 4.09E-13
DataValue, -0.70000000000000007, 3, 0, 2.3290400000000003E-10, -2.1603800000000002E-10, 3.7100000000000003E-13, 2.3290400000000003E-10, 1.5261192613947312E-05, 2.0183802625256667E-08, 3.7100000000000003E-13
DataValue, -0.65, 3, 0, 5.64942E-10, -5.30362E-10, -6.0000000000000009E-14, 5.64942E-10, 2.3768508577527534E-05, 3.9121725245464192E-08, 6.0000000000000009E-14
DataValue, -0.6, 3, 0, 1.22783E-09, -1.1384E-09, 7.2000000000000006E-13, 1.22783E-09, 3.5040405248798138E-05, 8.0955361719973424E-08, 7.2000000000000006E-13
DataValue, -0.55, 3, 0, 2.72705E-09, -2.65849E-09, 2.06E-13, 2.72705E-09, 5.2221164291884568E-05, 1.4253098333019725E-07, 2.06E-13
DataValue, -0.5, 3, 0, 5.29892E-09, -5.2709E-09, -1.304E-12, 5.29892E-09, 7.279368104444231E-05, 2.1382217229408225E-07, 1.304E-12
DataValue, -0.45, 3, 0, 9.69478E-09, -9.52307E-09, 2.4200000000000003E-13, 9.69478E-09, 9.846207391681327E-05, 2.4171085847802193E-07, 2.4200000000000003E-13
DataValue, -0.4, 3, 0, 1.4873699999999998E-08, -1.4510499999999998E-08, -1.506E-12, 1.4873699999999998E-08, 0.00012195777957965617, 3.0508367531738115E-07, 1.506E-12
DataValue, -0.35000000000000003, 3, 0, 2.3622599999999997E-08, -2.2945699999999996E-08, -1.464E-12, 2.3622599999999997E-08, 0.0001536964540905222, 3.3272611580152513E-07, 1.464E-12
DataValue, -0.3, 3, 0, 3.2270599999999996E-08, -3.2019199999999995E-08, -3.9000000000000004E-14, 3.2270599999999996E-08, 0.00017964019594734359, 3.2374569481447027E-07, 3.9000000000000004E-14
DataValue, -0.25, 3, 0, 4.4350299999999993E-08, -4.2706999999999993E-08, -5.92E-13, 4.4350299999999993E-08, 0.00021059510915498488, 3.26011565900877E-07, 5.92E-13
DataValue, -0.2, 3, 0, 5.6044699999999994E-08, -5.4292599999999993E-08, 4.89E-13, 5.6044699999999994E-08, 0.00023673761847243458, 2.8939773454837566E-07, 4.89E-13
DataValue, -0.15, 3, 0, 6.9902499999999987E-08, -6.9490199999999993E-08, 6.82E-13, 6.9902499999999987E-08, 0.00026439080921998782, 3.34028884047831E-07, 6.82E-13
DataValue, -0.1, 3, 0, 8.67496E-08, -8.43093E-08, -4.65E-13, 8.67496E-08, 0.0002945328504598426, 1.8422474249474309E-07, 4.65E-13
DataValue, -0.05, 3, 0, 9.44408E-08, -9.13618E-08, 1E-13, 9.44408E-08, 0.0003073122190867132, 1.5856528118026095E-07, 1E-13
DataValue, 0, 3, 0, 1.11792E-07, -1.11409E-07, 6.55E-13, 1.11792E-07, 0.00033435310675990437, 4.7368426419801968E-07, 6.55E-13
DataValue, 0.05, 3, 0, 1.41479E-07, -1.37432E-07, 9.5000000000000012E-14, 1.41479E-07, 0.00037613694314704051, 5.304551886797394E-07, 9.5000000000000012E-14
DataValue, 0.1, 3, 0, 1.658E-07, -1.61021E-07, -7.8100000000000011E-13, 1.658E-07, 0.00040718546143004664, 4.6834704285977253E-07, 7.8100000000000011E-13
DataValue, 0.15, 3, 0, 1.97645E-07, -1.95472E-07, 2.3000000000000003E-13, 1.97645E-07, 0.00044457282867939644, 5.8730437806171342E-07, 2.3000000000000003E-13
DataValue, 0.2, 3, 0, 2.34083E-07, -2.34769E-07, -5.85E-13, 2.34083E-07, 0.00048382124798317816, 7.8080865069361362E-07, 5.85E-13
DataValue, 0.25, 3, 0, 2.84021E-07, -2.76718E-07, -1.038E-12, 2.84021E-07, 0.00053293620631366377, 7.9065277551736339E-07, 1.038E-12
DataValue, 0.3, 3, 0, 3.28031E-07, -3.22346E-07, -5.68E-13, 3.28031E-07, 0.00057273990606557181, 7.0505161664948842E-07, 5.68E-13
DataValue, 0.35000000000000003, 3, 0, 3.8056999999999997E-07, -3.76189E-07, 9.2200000000000011E-13, 3.8056999999999997E-07, 0.00061690355810288533, 9.5769832411436365E-07, 9.2200000000000011E-13
DataValue, 0.4, 3, 0, 4.49707E-07, -4.42349E-07, -1.164E-12, 4.49707E-07, 0.00067060196838363072, 9.5857622985156E-07, 1.164E-12
DataValue, 0.45, 3, 0, 5.10954E-07, -5.02645E-07, 2.57E-13, 5.10954E-07, 0.00071481046438898752, 1.0733537038103292E-06, 2.57E-13
DataValue, 0.5, 3, 0, 5.9939299999999995E-07, -5.9007599999999994E-07, 7.25E-13, 5.9939299999999995E-07, 0.00077420475327913093, 1.2165117041195577E-06, 7.25E-13
DataValue, 0.55, 3, 0, 6.808E-07, -6.81219E-07, -1.54E-13, 6.808E-07, 0.0008251060537894508, 1.1274757590984E-06, 1.54E-13
DataValue, 0.6, 3, 0, 7.75082E-07, -7.64954E-07, -1.3250000000000001E-12, 7.75082E-07, 0.00088038741472149635, 1.1955185584764804E-06, 1.3250000000000001E-12
DataValue, 0.65, 3, 0, 8.73189E-07, -8.64017E-07, 1.22E-13, 8.73189E-07, 0.00093444582507494782, 1.4789742268185674E-06, 1.22E-13
DataValue, 0.70000000000000007, 3, 0, 1.004005E-06, -9.78663E-07, -4.6200000000000005E-13, 1.004005E-06, 0.0010020004990018718, 1.3429902311003318E-06, 4.6200000000000005E-13
DataValue, 0.75, 3, 0, 1.1032E-06, -1.07592E-06, 9.77E-13, 1.1032E-06, 0.0010503332804400706, 1.2429910825322707E-06, 9.77E-13
DataValue, 0.8, 3, 0, 1.2398600000000002E-06, -1.2344600000000002E-06, 4.71E-13, 1.2398600000000002E-06, 0.0011134900089358683, 1.7691511801442094E-06, 4.71E-13
DataValue, 0.85000000000000009, 3, 0, 1.4003000000000002E-06, -1.4015200000000002E-06, -1.5130000000000001E-12, 1.4003000000000002E-06, 0.001183342722967442, 1.9563470486284491E-06, 1.5130000000000001E-12
DataValue, 0.9, 3, 0, 1.5709100000000001E-06, -1.5491800000000002E-06, -9.6600000000000012E-13, 1.5709100000000001E-06, 0.0012533594855427552, 2.2258388570626264E-06, 9.6600000000000012E-13
DataValue, 0.95000000000000007, 3, 0, 1.77565E-06, -1.7569100000000001E-06, 4.36E-13, 1.77565E-06, 0.0013325351777720542, 2.2764932049681989E-06, 4.36E-13
DataValue, 1, 3, 0, 1.9718900000000003E-06, -1.9626E-06, 2.673E-12, 1.9718900000000003E-06, 0.0014042400079758446, 1.8398361795890394E-06, 2.673E-12
DataValue, 1.05, 3, 0, 2.15554E-06, -2.13858E-06, 1.9110000000000002E-12, 2.15554E-06, 0.0014681757387996848, 2.4137508111235712E-06, 1.9110000000000002E-12
DataValue, 1.1, 3, 0, 2.4323600000000004E-06, -2.41328E-06, -5.8000000000000005E-13, 2.4323600000000004E-06, 0.0015596025134629657, 2.6567571962475135E-06, 5.8000000000000005E-13
DataValue, 1.1500000000000001, 3, 0, 2.6607200000000003E-06, -2.6667800000000003E-06, -1.3570000000000002E-12, 2.6607200000000003E-06, 0.0016311713582576174, 2.6171099513459728E-06, 1.3570000000000002E-12
DataValue, 1.2, 3, 0, 2.9631400000000003E-06, -2.95037E-06, 1.2820000000000002E-12, 2.9631400000000003E-06, 0.0017213773554918166, 3.1379562290035188E-06, 1.2820000000000002E-12
DataValue, 1.25, 3, 0, 3.2700000000000005E-06, -3.2396700000000005E-06, -1.6200000000000002E-13, 3.2700000000000005E-06, 0.0018083141320025125, 3.2697319276875181E-06, 1.6200000000000002E-13
DataValue, 1.3, 3, 0, 3.6183700000000004E-06, -3.6008200000000004E-06, 2.917E-12, 3.6183700000000004E-06, 0.0019022013563237726, 3.3366694519155003E-06, 2.917E-12
DataValue, 1.35, 3, 0, 3.9640000000000005E-06, -3.9363100000000006E-06, 7.78E-13, 3.9640000000000005E-06, 0.0019909796583591709, 2.8979753893144424E-06, 7.78E-13
DataValue, 1.4000000000000001, 3, 0, 4.2949900000000005E-06, -4.28657E-06, 1.25E-13, 4.2949900000000005E-06, 0.0020724357649876631, 3.44141959464158E-06, 1.25E-13
DataValue, 1.4500000000000002, 3, 0, 4.7371100000000006E-06, -4.6961100000000005E-06, -1.011E-12, 4.7371100000000006E-06, 0.0021764902940284389, 3.8688539140487229E-06, 1.011E-12
DataValue, 1.5, 3, 0, 5.1489500000000009E-06, -5.13079E-06, -1.0730000000000002E-12, 5.1489500000000009E-06, 0.0022691297891482541, 3.3529772823306472E-06, 1.0730000000000002E-12
DataValue, 1.55, 3, 0, 5.5677200000000006E-06, -5.566950000000001E-06, -1.9030000000000003E-12, 5.5677200000000006E-06, 0.0023596016612979407, 3.699987030978024E-06, 1.9030000000000003E-12
DataValue, 1.6, 3, 0, 6.0589000000000006E-06, -6.01182E-06, -1.5970000000000002E-12, 6.0589000000000006E-06, 0.0024614832926509985, 3.6374075318769976E-06, 1.5970000000000002E-12
DataValue, 1.6500000000000001, 3, 0, 6.50414E-06, -6.487730000000001E-06, 1.2710000000000001E-12, 6.50414E-06, 0.0025503215483542465, 3.2806362377300251E-06, 1.2710000000000001E-12
DataValue, 1.7000000000000002, 3, 0, 6.9833800000000011E-06, -6.94885E-06, 1.389E-12, 6.9833800000000011E-06, 0.0026426085597378969, 4.0519411532316243E-06, 1.389E-12
DataValue, 1.75, 3, 0, 7.571390000000001E-06, -7.5439300000000011E-06, -1.2700000000000001E-13, 7.571390000000001E-06, 0.0027516158888914711, 4.4137876389754231E-06, 1.2700000000000001E-13
DataValue, 1.8, 3, 0, 8.1378900000000015E-06, -8.10824E-06, -2.0300000000000002E-13, 8.1378900000000015E-06, 0.0028526987222628332, 3.8757861199928966E-06, 2.0300000000000002E-13
DataValue, 1.85, 3, 0, 8.69357E-06, -8.66201E-06, -1.2690000000000002E-12, 8.69357E-06, 0.0029484860521969579, 3.6515401549150186E-06, 1.2690000000000002E-12
DataValue, 1.9000000000000001, 3, 0, 9.2646500000000012E-06, -9.2526700000000017E-06, -2.7400000000000004E-13, 9.2646500000000012E-06, 0.0030437887574534476, 3.8062565960640484E-06, 2.7400000000000004E-13
DataValue, 1.9500000000000002, 3, 0, 9.88211E-06, -9.8747400000000016E-06, -1.5370000000000002E-12, 9.88211E-06, 0.0031435823513946632, 4.1509170110950595E-06, 1.5370000000000002E-12
DataValue, 2, 3, 0, 1.0546430000000002E-05, -1.055651E-05, 5.57E-13, 1.0546430000000002E-05, 0.0032475267512370089, 4.4086563569795668E-06, 5.57E-13
DataValue, 2.05, 3, 0, 1.1246300000000001E-05, -1.1219840000000002E-05, 5.68E-13, 1.1246300000000001E-05, 0.0033535503574570044, 3.8656750202628654E-06, 5.68E-13
DataValue, 2.1, 3, 0, 1.1862100000000001E-05, -1.1806400000000001E-05, 1.636E-12, 1.1862100000000001E-05, 0.0034441399506988679, 3.6285254651147679E-06, 1.636E-12
DataValue, 2.15, 3, 0, 1.25602E-05, -1.25431E-05, 1.2190000000000002E-12, 1.25602E-05, 0.003544037245853943, 4.0553036525499819E-06, 1.2190000000000002E-12
DataValue, 2.2, 3, 0, 1.3289800000000001E-05, -1.3271E-05, 7.55E-13, 1.3289800000000001E-05, 0.0036455177958693331, 4.1660468616498005E-06, 7.55E-13
DataValue, 2.25, 3, 0, 1.4048600000000001E-05, -1.4023000000000001E-05, -1.3900000000000001E-13, 1.4048600000000001E-05, 0.0037481462084609242, 4.17970395652464E-06, 1.3900000000000001E-13
DataValue, 2.3000000000000003, 3, 0, 1.48222E-05, -1.4809500000000001E-05, -3.08E-13, 1.48222E-05, 0.003849961038763899, 4.0479632776703255E-06, 3.08E-13
DataValue, 2.35, 3, 0, 1.55973E-05, -1.5579E-05, -9.0000000000000008E-14, 1.55973E-05, 0.0039493417172992264, 4.1943692497918985E-06, 9.0000000000000008E-14
