
SetupTitle, Transfer lin
PrimitiveTest, I/V Sweep
TestParameter, Context.MainFrame, 4155C
TestParameter, Channel.UnitType, SMU, SMU, SMU
TestParameter, Channel.Unit, SMU3:MP, SMU1:MP, SMU4:MP
TestParameter, Channel.IName, ID, IS, IG
TestParameter, Channel.VName, VD, VS, VG
TestParameter, Channel.Mode, V, COMMON, V
TestParameter, Channel.Func, CONST, CONST, VAR1
TestParameter, Channel.Index, 
TestParameter, Channel.Time, 
TestParameter, Measurement.Port.Unit, SMU3:MP, SMU1:MP, SMU4:MP
TestParameter, Measurement.Port.SeriesResistor, NONE, NONE, NONE
TestParameter, Measurement.Port.Filter, ON, ON, ON
TestParameter, Measurement.Primary.Locus, Double
TestParameter, Measurement.Primary.Scale, LINEAR
TestParameter, Measurement.Primary.Start, -2
TestParameter, Measurement.Primary.Stop, 3
TestParameter, Measurement.Primary.Step, 0.05
TestParameter, Measurement.Primary.Compliance, 0.001
TestParameter, Measurement.Primary.PowerCompliance, 0
TestParameter, Measurement.Aborting.Condition, CONTINUE AT ANY
TestParameter, Measurement.PostOutput.Value, START
TestParameter, Measurement.PostOutput.Retention, OFF
TestParameter, Measurement.Bias.Source, 0.1, 0, -2
TestParameter, Measurement.Bias.Compliance, 0.001, 0.1, 0.001
TestParameter, Measurement.Monitor.Unit, SMU3:MP, SMU1:MP, SMU4:MP
TestParameter, Measurement.Monitor.Adc, HR ADC, HR ADC, HR ADC
TestParameter, Measurement.Monitor.RangingMode, AUTO, AUTO, AUTO
TestParameter, Measurement.Monitor.RangeBoundary, , , 
TestParameter, Measurement.Monitor.RangeRating, BY FULL RANGE, BY FULL RANGE, BY FULL RANGE
TestParameter, Measurement.Monitor.RangeRatingCoeff, 50, 50, 50
TestParameter, Measurement.Timing.Hold, 0.5
TestParameter, Measurement.Timing.Delay, 0.05
TestParameter, Measurement.Adc.HighResolution.AutoZero, OFF
TestParameter, Measurement.Adc.HighResolution.Mode, AUTO
TestParameter, Measurement.Adc.HighResolution.Coeff, 1
TestParameter, Measurement.Ag16440ASelector.SemiconductorRelay.Channel1, DEFAULT
TestParameter, Measurement.Ag16440ASelector.SemiconductorRelay.Channel3, DEFAULT
TestParameter, Function.User.Name, absID, sqrtID, gm2, absIG
TestParameter, Function.User.Unit, A, A, A/V, A
TestParameter, Function.User.Definition, abs(ID), sqrt(abs(ID)), (delta(sqrtID)/delta(VG))^2, abs(IG)
TestParameter, Output.Graph.Enabled, true
TestParameter, Output.Graph.XAxis.Data, VG
TestParameter, Output.Graph.XAxis.Scale, Linear
TestParameter, Output.Graph.XAxis.Left, -5
TestParameter, Output.Graph.XAxis.Right, 7
TestParameter, Output.Graph.YAxis.Data, ID, absIG, gm2
TestParameter, Output.Graph.YAxis.Scale, Log, Log, Linear
TestParameter, Output.Graph.YAxis.Bottom, 1E-14, 1E-14, 0
TestParameter, Output.Graph.YAxis.Top, 0.01, 0.01, 1E-05
TestParameter, Output.Graph.YAxis.Group, , , 
TestParameter, Output.List.Data, VG, IG, VD, ID, VS, IS, sqrtID, gm2, absIG
TestParameter, AutoAnalysis.Interpolation, false
TestParameter, AutoAnalysis.Line1.Enabled, false
TestParameter, AutoAnalysis.Line1.Type, 1
TestParameter, AutoAnalysis.Line1.Fix, True
TestParameter, AutoAnalysis.Line1.YAxis, 0
TestParameter, AutoAnalysis.Line1.Point1.Type, 0
TestParameter, AutoAnalysis.Line1.Point1.XY.X, 
TestParameter, AutoAnalysis.Line1.Point1.XY.Y, 
TestParameter, AutoAnalysis.Line1.Point1.Data.Var, 
TestParameter, AutoAnalysis.Line1.Point1.Data.Condition, 
TestParameter, AutoAnalysis.Line1.Point1.Data.Start, false
TestParameter, AutoAnalysis.Line1.Point1.Data.StartVar, 
TestParameter, AutoAnalysis.Line1.Point1.Data.StartCondition, 
TestParameter, AutoAnalysis.Line1.Point2.Type, 0
TestParameter, AutoAnalysis.Line1.Point2.XY.X, 
TestParameter, AutoAnalysis.Line1.Point2.XY.Y, 
TestParameter, AutoAnalysis.Line1.Point2.Data.Var, 
TestParameter, AutoAnalysis.Line1.Point2.Data.Condition, 
TestParameter, AutoAnalysis.Line1.Point2.Data.Start, false
TestParameter, AutoAnalysis.Line1.Point2.Data.StartVar, 
TestParameter, AutoAnalysis.Line1.Point2.Data.StartCondition, 
TestParameter, AutoAnalysis.Line1.GradientExpr, 0
TestParameter, AutoAnalysis.Line2.Enabled, false
TestParameter, AutoAnalysis.Line2.Type, 1
TestParameter, AutoAnalysis.Line2.Fix, True
TestParameter, AutoAnalysis.Line2.YAxis, 0
TestParameter, AutoAnalysis.Line2.Point1.Type, 0
TestParameter, AutoAnalysis.Line2.Point1.XY.X, 
TestParameter, AutoAnalysis.Line2.Point1.XY.Y, 
TestParameter, AutoAnalysis.Line2.Point1.Data.Var, 
TestParameter, AutoAnalysis.Line2.Point1.Data.Condition, 
TestParameter, AutoAnalysis.Line2.Point1.Data.Start, false
TestParameter, AutoAnalysis.Line2.Point1.Data.StartVar, 
TestParameter, AutoAnalysis.Line2.Point1.Data.StartCondition, 
TestParameter, AutoAnalysis.Line2.Point2.Type, 0
TestParameter, AutoAnalysis.Line2.Point2.XY.X, 
TestParameter, AutoAnalysis.Line2.Point2.XY.Y, 
TestParameter, AutoAnalysis.Line2.Point2.Data.Var, 
TestParameter, AutoAnalysis.Line2.Point2.Data.Condition, 
TestParameter, AutoAnalysis.Line2.Point2.Data.Start, false
TestParameter, AutoAnalysis.Line2.Point2.Data.StartVar, 
TestParameter, AutoAnalysis.Line2.Point2.Data.StartCondition, 
TestParameter, AutoAnalysis.Line2.GradientExpr, 0
TestParameter, AutoAnalysis.Marker.Enabled, false
TestParameter, AutoAnalysis.Marker.Data.Var, 
TestParameter, AutoAnalysis.Marker.Data.Condition, 
TestParameter, AutoAnalysis.Marker.Data.Start, false
TestParameter, AutoAnalysis.Marker.Data.StartVar, 
TestParameter, AutoAnalysis.Marker.Data.StartCondition, 
MetaData, TestRecord.EntryPoint, true
MetaData, TestRecord.RecordTime, 05/02/2019 19:00:07
MetaData, TestRecord.TestTarget, 350-300-50-5
MetaData, TestRecord.IterationIndex, 1
MetaData, TestRecord.Preservation, true
MetaData, TestRecord.Flag, 
MetaData, TestRecord.Remarks, bad
MetaData, TestRecord.LinkKey, 961cad99-bab0-42b8-b187-90d390bf677d
Dimension1, 202, 202, 202, 202, 202, 202, 202, 202, 202, 202
Dimension2, 1, 1, 1, 1, 1, 1, 1, 1, 1, 1
DataName, VG, VD, VS, ID, IS, IG, absID, sqrtID, gm2, absIG
DataValue, -2, 0.1, 0, -1.168E-12, 7.716E-12, -2.026E-12, 1.168E-12, 1.0807404868885037E-06, 2.5353269213485689E-10, 2.026E-12
DataValue, -1.9500000000000002, 0.1, 0, 8.1000000000000008E-14, 1.479E-12, -1.425E-12, 8.1000000000000008E-14, 2.8460498941515418E-07, 3.1060545393033748E-12, 1.425E-12
DataValue, -1.9000000000000001, 0.1, 0, 1.5800000000000001E-12, -3.6980000000000006E-12, -4.9000000000000006E-14, 1.5800000000000001E-12, 1.2569805089976536E-06, 3.04764764008373E-11, 4.9000000000000006E-14
DataValue, -1.85, 0.1, 0, -7E-13, -1.4510000000000002E-12, 2.5290000000000002E-12, 7E-13, 8.3666002653407557E-07, 5.4229071219005945E-11, 2.5290000000000002E-12
DataValue, -1.8, 0.1, 0, -2.71E-13, 1.3200000000000002E-13, -1.0660000000000001E-12, 2.71E-13, 5.2057660339281479E-07, 5.922610832073137E-12, 1.0660000000000001E-12
DataValue, -1.75, 0.1, 0, -3.52E-13, -2.1490000000000002E-12, -5.577E-12, 3.52E-13, 5.9329587896765306E-07, 2.9340818897693791E-12, 5.577E-12
DataValue, -1.7000000000000002, 0.1, 0, -1.22E-13, -4.523E-12, -2.1240000000000002E-12, 1.22E-13, 3.4928498393145962E-07, 1.2694818540108322E-12, 2.1240000000000002E-12
DataValue, -1.6500000000000001, 0.1, 0, -2.3100000000000003E-13, -3.1740000000000004E-12, 1.5067000000000003E-11, 2.3100000000000003E-13, 4.806245936279167E-07, 1.8260202021919707E-10, 1.5067000000000003E-11
DataValue, -1.6, 0.1, 0, -2.892E-12, 4.72E-13, 5.4710000000000004E-12, 2.892E-12, 1.7005881335585053E-06, 3.6570138502919413E-11, 5.4710000000000004E-12
DataValue, -1.55, 0.1, 0, -1.178E-12, -6.1850000000000008E-12, -7.1800000000000007E-13, 1.178E-12, 1.0853570840972108E-06, 2.4726692783416397E-11, 7.1800000000000007E-13
DataValue, -1.5, 0.1, 0, 1.448E-12, 2.102E-12, 1.3E-13, 1.448E-12, 1.2033287165193059E-06, 8.3588012075824757E-12, 1.3E-13
DataValue, -1.4500000000000002, 0.1, 0, -6.34E-13, 4.47E-13, 1.7030000000000001E-12, 6.34E-13, 7.9624116949577531E-07, 1.7996826693519711E-11, 1.7030000000000001E-12
DataValue, -1.4000000000000001, 0.1, 0, 6.07E-13, -8.93E-13, 1.809E-12, 6.07E-13, 7.7910204723129822E-07, 2.7098291604995549E-11, 1.809E-12
DataValue, -1.35, 0.1, 0, -7.6E-14, 8.91E-13, 1.6700000000000002E-13, 7.6E-14, 2.7568097504180444E-07, 8.3050328452910436E-12, 1.6700000000000002E-13
DataValue, -1.3, 0.1, 0, 2.4100000000000003E-13, -1.5000000000000002E-14, 3.676E-12, 2.4100000000000003E-13, 4.9091750834534308E-07, 3.093410853368264E-11, 3.676E-12
DataValue, -1.25, 0.1, 0, 6.9200000000000008E-13, 1.757E-12, 1.0810000000000001E-12, 6.9200000000000008E-13, 8.31865373723417E-07, 1.8392525226313602E-11, 1.0810000000000001E-12
DataValue, -1.2, 0.1, 0, 8.46E-13, 7.5000000000000009E-14, 3.1850000000000003E-12, 8.46E-13, 9.1978258300535356E-07, 6.2206898260173046E-13, 3.1850000000000003E-12
DataValue, -1.1500000000000001, 0.1, 0, -5.67E-13, -3.8E-14, 5.6940000000000006E-12, 5.67E-13, 7.52994023880668E-07, 4.5332080200878209E-12, 5.6940000000000006E-12
DataValue, -1.1, 0.1, 0, -1.283E-12, 5.2630000000000005E-12, -9.779E-12, 1.283E-12, 1.1326958991715297E-06, 1.2519448391349253E-10, 9.779E-12
DataValue, -1.05, 0.1, 0, 3.5040000000000004E-12, -3.967E-12, -1.464E-12, 3.5040000000000004E-12, 1.8718974330876145E-06, 2.510324951278589E-11, 1.464E-12
DataValue, -1, 0.1, 0, 3.99E-13, -1.356E-12, 2.7090000000000003E-12, 3.99E-13, 6.316644678941503E-07, 9.9210760372270927E-12, 2.7090000000000003E-12
DataValue, -0.95000000000000007, 0.1, 0, 2.424E-12, -2.19E-12, 3.1810000000000003E-12, 2.424E-12, 1.5569200364822852E-06, 2.8663505196304954E-11, 3.1810000000000003E-12
DataValue, -0.9, 0.1, 0, -1.362E-12, -4.2700000000000005E-13, -1.667E-12, 1.362E-12, 1.1670475568716127E-06, 2.0144093775425109E-11, 1.667E-12
DataValue, -0.85000000000000009, 0.1, 0, 4.023E-12, -5.4760000000000005E-12, 2.591E-12, 4.023E-12, 2.0057417580536136E-06, 1.2904821644794073E-10, 2.591E-12
DataValue, -0.8, 0.1, 0, 5.304E-12, -2.8100000000000003E-12, -4.3160000000000006E-12, 5.304E-12, 2.3030414672775651E-06, 1.2647109613579389E-10, 4.3160000000000006E-12
DataValue, -0.75, 0.1, 0, 9.799E-12, -8.03E-12, 4.5000000000000006E-12, 9.799E-12, 3.13033544528378E-06, 3.2216115801554971E-10, 4.5000000000000006E-12
DataValue, -0.70000000000000007, 0.1, 0, 1.6793E-11, -1.4781000000000002E-11, -4.9870000000000005E-12, 1.6793E-11, 4.097926304852248E-06, 4.7940546448535724E-10, 4.9870000000000005E-12
DataValue, -0.65, 0.1, 0, 2.8301E-11, -2.9090000000000003E-11, 2.026E-12, 2.8301E-11, 5.3198684194254278E-06, 9.6961838110019533E-10, 2.026E-12
DataValue, -0.6, 0.1, 0, 5.201E-11, -4.8125E-11, -1.354E-12, 5.201E-11, 7.2117958928411173E-06, 1.9847456781095986E-09, 1.354E-12
DataValue, -0.55, 0.1, 0, 9.5549000000000013E-11, -8.922E-11, -4.12E-13, 9.5549000000000013E-11, 9.7749168794419938E-06, 3.4506096131353732E-09, 4.12E-13
DataValue, -0.5, 0.1, 0, 1.7124300000000002E-10, -1.6207400000000002E-10, -1.594E-12, 1.7124300000000002E-10, 1.308598486931725E-05, 5.858409209705028E-09, 1.594E-12
DataValue, -0.45, 0.1, 0, 3.03768E-10, -2.88045E-10, -1.7E-14, 3.03768E-10, 1.7428941448062761E-05, 9.2135918589066842E-09, 1.7E-14
DataValue, -0.4, 0.1, 0, 5.14597E-10, -4.9096400000000006E-10, 6.9900000000000005E-13, 5.14597E-10, 2.2684730547220525E-05, 1.3542859623968019E-08, 6.9900000000000005E-13
DataValue, -0.35000000000000003, 0.1, 0, 8.44851E-10, -8.05051E-10, 1.53E-13, 8.44851E-10, 2.9066320716595695E-05, 1.5839510896942727E-08, 1.53E-13
DataValue, -0.3, 0.1, 0, 1.24399E-09, -1.17141E-09, -1.59E-13, 1.24399E-09, 3.5270242414817623E-05, 2.3505955949160065E-08, 1.59E-13
DataValue, -0.25, 0.1, 0, 1.97118E-09, -1.9323E-09, -1.034E-12, 1.97118E-09, 4.4397972926700151E-05, 3.5359608676988642E-08, 1.034E-12
DataValue, -0.2, 0.1, 0, 2.92404E-09, -2.82786E-09, 3.6700000000000005E-13, 2.92404E-09, 5.4074393200478915E-05, 3.8224125296531725E-08, 3.6700000000000005E-13
DataValue, -0.15, 0.1, 0, 4.08947E-09, -3.98725E-09, -4.87E-13, 4.08947E-09, 6.3948964026010622E-05, 3.8499669266451734E-08, 4.87E-13
DataValue, -0.1, 0.1, 0, 5.43106E-09, -5.28295E-09, 4.96E-13, 5.43106E-09, 7.36957257919345E-05, 3.8924247974056663E-08, 4.96E-13
DataValue, -0.05, 0.1, 0, 7.00204E-09, -6.80925E-09, -2.691E-12, 7.00204E-09, 8.3678193097126566E-05, 3.8014678766419839E-08, 2.691E-12
DataValue, 0, 0.1, 0, 8.68495E-09, -8.49313E-09, 6.9000000000000009E-13, 8.68495E-09, 9.3193079142176645E-05, 2.5474250000018728E-08, 6.9000000000000009E-13
DataValue, 0.05, 0.1, 0, 9.9279E-09, -9.33345E-09, 2.0900000000000002E-13, 9.9279E-09, 9.9638847845606883E-05, 2.4450339430426713E-08, 2.0900000000000002E-13
DataValue, 0.1, 0.1, 0, 1.18439E-08, -1.12812E-08, 2.5200000000000004E-13, 1.18439E-08, 0.00010882968345079388, 3.9203363844991985E-08, 2.5200000000000004E-13
DataValue, 0.15, 0.1, 0, 1.4265599999999998E-08, -1.3992299999999999E-08, 1.8690000000000002E-12, 1.4265599999999998E-08, 0.00011943868719975114, 5.0173784106584188E-08, 1.8690000000000002E-12
DataValue, 0.2, 0.1, 0, 1.7221099999999998E-08, -1.6905099999999997E-08, -7.9300000000000005E-13, 1.7221099999999998E-08, 0.00013122918882626684, 5.536698664925631E-08, 7.9300000000000005E-13
DataValue, 0.25, 0.1, 0, 2.04401E-08, -2.0084499999999997E-08, 3.7200000000000003E-13, 2.04401E-08, 0.00014296887773218337, 5.5413132471266047E-08, 3.7200000000000003E-13
DataValue, 0.3, 0.1, 0, 2.3953499999999997E-08, -2.3451699999999998E-08, 1.523E-12, 2.3953499999999997E-08, 0.00015476918297904139, 5.4981191733241012E-08, 1.523E-12
DataValue, 0.35000000000000003, 0.1, 0, 2.7694599999999996E-08, -2.7027399999999996E-08, -4.09E-13, 2.7694599999999996E-08, 0.00016641694625247754, 5.4622662754943655E-08, 4.09E-13
DataValue, 0.4, 0.1, 0, 3.17341E-08, -3.1264999999999996E-08, 1.0060000000000002E-12, 3.17341E-08, 0.00017814067474891858, 5.5156387561370883E-08, 1.0060000000000002E-12
DataValue, 0.45, 0.1, 0, 3.60629E-08, -3.56073E-08, 3.5900000000000004E-13, 3.60629E-08, 0.00018990234332414121, 6.4171901740541092E-08, 3.5900000000000004E-13
DataValue, 0.5, 0.1, 0, 4.14012E-08, -4.07609E-08, 1.24E-13, 4.14012E-08, 0.00020347284831151306, 6.929126130167297E-08, 1.24E-13
DataValue, 0.55, 0.1, 0, 4.6753499999999996E-08, -4.60003E-08, 1.5240000000000002E-12, 4.6753499999999996E-08, 0.00021622557665549187, 7.3008589529104987E-08, 1.5240000000000002E-12
DataValue, 0.6, 0.1, 0, 5.3126999999999997E-08, -5.2116199999999993E-08, -6.4200000000000009E-13, 5.3126999999999997E-08, 0.00023049295000064534, 7.6502178590549044E-08, 6.4200000000000009E-13
DataValue, 0.65, 0.1, 0, 5.94797E-08, -5.8681099999999993E-08, 2.9000000000000003E-13, 5.94797E-08, 0.00024388460386010429, 7.842377571734354E-08, 2.9000000000000003E-13
DataValue, 0.70000000000000007, 0.1, 0, 6.6820799999999989E-08, -6.5954099999999988E-08, 8.3300000000000009E-13, 6.6820799999999989E-08, 0.00025849719534261871, 9.5082407955440351E-08, 8.3300000000000009E-13
DataValue, 0.75, 0.1, 0, 7.54711E-08, -7.490049999999999E-08, -7.350000000000001E-13, 7.54711E-08, 0.000274720039312752, 9.4432540674654577E-08, 7.350000000000001E-13
DataValue, 0.8, 0.1, 0, 8.365229999999999E-08, -8.27505E-08, 1.28E-13, 8.365229999999999E-08, 0.00028922707342155917, 1.005920575358626E-07, 1.28E-13
DataValue, 0.85000000000000009, 0.1, 0, 9.3903199999999988E-08, -9.3040199999999989E-08, -1.291E-12, 9.3903199999999988E-08, 0.00030643629027907253, 1.0285039257317141E-07, 1.291E-12
DataValue, 0.9, 0.1, 0, 1.03232E-07, -1.019737E-07, -1.898E-12, 1.03232E-07, 0.00032129737004837124, 1.0568437320727066E-07, 1.898E-12
DataValue, 0.95000000000000007, 0.1, 0, 1.14884E-07, -1.11967E-07, 1.5700000000000002E-12, 1.14884E-07, 0.00033894542333538004, 1.2745777798615307E-07, 1.5700000000000002E-12
DataValue, 1, 0.1, 0, 1.27448E-07, -1.26132E-07, -2.1740000000000002E-12, 1.27448E-07, 0.00035699859943702858, 1.4506753064620385E-07, 2.1740000000000002E-12
DataValue, 1.05, 0.1, 0, 1.42154E-07, -1.40737E-07, 3.5600000000000005E-13, 1.42154E-07, 0.00037703315504077355, 1.6459462011655176E-07, 3.5600000000000005E-13
DataValue, 1.1, 0.1, 0, 1.58061E-07, -1.56228E-07, -1.8600000000000002E-13, 1.58061E-07, 0.0003975688619597868, 1.8379737490378349E-07, 1.8600000000000002E-13
DataValue, 1.1500000000000001, 0.1, 0, 1.7632E-07, -1.74536E-07, 1.6350000000000002E-12, 1.7632E-07, 0.0004199047511043427, 1.8730878043671997E-07, 1.6350000000000002E-12
DataValue, 1.2, 0.1, 0, 1.9434699999999999E-07, -1.93351E-07, 9.96E-13, 1.9434699999999999E-07, 0.00044084804638333151, 1.8572935567276706E-07, 9.96E-13
DataValue, 1.25, 0.1, 0, 2.1437E-07, -2.1173799999999999E-07, 1.5870000000000002E-12, 2.1437E-07, 0.00046300107991234751, 1.9269683433251896E-07, 1.5870000000000002E-12
DataValue, 1.3, 0.1, 0, 2.34978E-07, -2.3321199999999998E-07, 5.18E-13, 2.34978E-07, 0.00048474529394311813, 2.0028128816721733E-07, 5.18E-13
DataValue, 1.35, 0.1, 0, 2.57814E-07, -2.56928E-07, 7.33E-13, 2.57814E-07, 0.00050775387738549076, 2.2251969103847192E-07, 7.33E-13
DataValue, 1.4000000000000001, 0.1, 0, 2.82936E-07, -2.80323E-07, -3.1300000000000003E-13, 2.82936E-07, 0.000531917286803127, 2.2302385474948839E-07, 3.1300000000000003E-13
DataValue, 1.4500000000000002, 0.1, 0, 3.08002E-07, -3.0637999999999997E-07, -4.4E-14, 3.08002E-07, 0.00055497927889246461, 2.371989133602392E-07, 4.4E-14
DataValue, 1.5, 0.1, 0, 3.3712E-07, -3.35551E-07, 6.3000000000000009E-14, 3.3712E-07, 0.00058062035789317615, 2.4931505303806144E-07, 6.3000000000000009E-14
DataValue, 1.55, 0.1, 0, 3.65917E-07, -3.6403999999999997E-07, 2.1920000000000004E-12, 3.65917E-07, 0.00060491073721665746, 2.450354839963972E-07, 2.1920000000000004E-12
DataValue, 1.6, 0.1, 0, 3.97053E-07, -3.9564399999999997E-07, 8.9900000000000011E-13, 3.97053E-07, 0.00063012141687138364, 2.59914234739711E-07, 8.9900000000000011E-13
DataValue, 1.6500000000000001, 0.1, 0, 4.30195E-07, -4.28442E-07, -6.14E-13, 4.30195E-07, 0.00065589252168324038, 2.6694451375016969E-07, 6.14E-13
DataValue, 1.7000000000000002, 0.1, 0, 4.64835E-07, -4.6289E-07, 1.255E-12, 4.64835E-07, 0.00068178809024505558, 2.70327852650222E-07, 1.255E-12
DataValue, 1.75, 0.1, 0, 5.01102E-07, -4.99683E-07, 1.009E-12, 5.01102E-07, 0.00070788558397526366, 2.9032346447736467E-07, 1.009E-12
DataValue, 1.8, 0.1, 0, 5.4121E-07, -5.39351E-07, 1.7740000000000001E-12, 5.4121E-07, 0.000735669762869183, 2.7035141075276169E-07, 1.7740000000000001E-12
DataValue, 1.85, 0.1, 0, 5.77419E-07, -5.75802E-07, 1.153E-12, 5.77419E-07, 0.00075988091172235668, 2.7517505368489571E-07, 1.153E-12
DataValue, 1.9000000000000001, 0.1, 0, 6.21144E-07, -6.19472E-07, 2.3900000000000004E-13, 6.21144E-07, 0.000788126893336346, 3.0644753537925223E-07, 2.3900000000000004E-13
DataValue, 1.9500000000000002, 0.1, 0, 6.64614E-07, -6.63078E-07, 2.975E-12, 6.64614E-07, 0.000815238615375891, 2.8512102268995905E-07, 2.975E-12
DataValue, 2, 0.1, 0, 7.08162E-07, -7.06325E-07, 4.45E-13, 7.08162E-07, 0.00084152361820688071, 2.8036127328230652E-07, 4.45E-13
DataValue, 2.05, 0.1, 0, 7.5375E-07, -7.51176E-07, 2.8270000000000004E-12, 7.5375E-07, 0.0008681877677092669, 2.9435848659764761E-07, 2.8270000000000004E-12
DataValue, 2.1, 0.1, 0, 8.02419E-07, -8.0067E-07, 1.6070000000000001E-12, 8.02419E-07, 0.00089577843242623345, 2.9606462004574195E-07, 1.6070000000000001E-12
DataValue, 2.15, 0.1, 0, 8.5118999999999993E-07, -8.4829399999999993E-07, 4.017E-12, 8.5118999999999993E-07, 0.000922599588120437, 2.9631940210242036E-07, 4.017E-12
DataValue, 2.2, 0.1, 0, 9.02906E-07, -9.0040199999999994E-07, 7.9320000000000013E-12, 9.02906E-07, 0.00095021366018385571, 2.909050403407773E-07, 7.9320000000000013E-12
DataValue, 2.25, 0.1, 0, 9.53621E-07, -9.53408E-07, 9.23E-12, 9.53621E-07, 0.00097653520161845679, 2.771365193034669E-07, 9.23E-12
DataValue, 2.3000000000000003, 0.1, 0, 1.005723E-06, -1.003439E-06, 8.647E-12, 1.005723E-06, 0.00100285741758238, 2.8922145572021028E-07, 8.647E-12
DataValue, 2.35, 0.1, 0, 1.061548E-06, -1.059679E-06, 9.6480000000000009E-12, 1.061548E-06, 0.0010303145150875046, 2.8506130523220154E-07, 9.6480000000000009E-12
DataValue, 2.4, 0.1, 0, 1.115661E-06, -1.114701E-06, 1.017E-11, 1.115661E-06, 0.0010562485502948632, 2.58775898597304E-07, 1.017E-11
