
SetupTitle, Transfer lin
PrimitiveTest, I/V Sweep
TestParameter, Context.MainFrame, 4155C
TestParameter, Channel.UnitType, SMU, SMU, SMU
TestParameter, Channel.Unit, SMU3:MP, SMU1:MP, SMU4:MP
TestParameter, Channel.IName, ID, IS, IG
TestParameter, Channel.VName, VD, VS, VG
TestParameter, Channel.Mode, V, COMMON, V
TestParameter, Channel.Func, CONST, CONST, VAR1
TestParameter, Channel.Index, 
TestParameter, Channel.Time, 
TestParameter, Measurement.Port.Unit, SMU3:MP, SMU1:MP, SMU4:MP
TestParameter, Measurement.Port.SeriesResistor, NONE, NONE, NONE
TestParameter, Measurement.Port.Filter, ON, ON, ON
TestParameter, Measurement.Primary.Locus, Double
TestParameter, Measurement.Primary.Scale, LINEAR
TestParameter, Measurement.Primary.Start, -2
TestParameter, Measurement.Primary.Stop, 3
TestParameter, Measurement.Primary.Step, 0.05
TestParameter, Measurement.Primary.Compliance, 0.001
TestParameter, Measurement.Primary.PowerCompliance, 0
TestParameter, Measurement.Aborting.Condition, CONTINUE AT ANY
TestParameter, Measurement.PostOutput.Value, START
TestParameter, Measurement.PostOutput.Retention, OFF
TestParameter, Measurement.Bias.Source, 0.1, 0, -2
TestParameter, Measurement.Bias.Compliance, 0.001, 0.1, 0.001
TestParameter, Measurement.Monitor.Unit, SMU3:MP, SMU1:MP, SMU4:MP
TestParameter, Measurement.Monitor.Adc, HR ADC, HR ADC, HR ADC
TestParameter, Measurement.Monitor.RangingMode, AUTO, AUTO, AUTO
TestParameter, Measurement.Monitor.RangeBoundary, , , 
TestParameter, Measurement.Monitor.RangeRating, BY FULL RANGE, BY FULL RANGE, BY FULL RANGE
TestParameter, Measurement.Monitor.RangeRatingCoeff, 50, 50, 50
TestParameter, Measurement.Timing.Hold, 0.5
TestParameter, Measurement.Timing.Delay, 0.05
TestParameter, Measurement.Adc.HighResolution.AutoZero, OFF
TestParameter, Measurement.Adc.HighResolution.Mode, AUTO
TestParameter, Measurement.Adc.HighResolution.Coeff, 1
TestParameter, Measurement.Ag16440ASelector.SemiconductorRelay.Channel1, DEFAULT
TestParameter, Measurement.Ag16440ASelector.SemiconductorRelay.Channel3, DEFAULT
TestParameter, Function.User.Name, absID, sqrtID, gm2, absIG
TestParameter, Function.User.Unit, A, A, A/V, A
TestParameter, Function.User.Definition, abs(ID), sqrt(abs(ID)), (delta(sqrtID)/delta(VG))^2, abs(IG)
TestParameter, Output.Graph.Enabled, true
TestParameter, Output.Graph.XAxis.Data, VG
TestParameter, Output.Graph.XAxis.Scale, Linear
TestParameter, Output.Graph.XAxis.Left, -5
TestParameter, Output.Graph.XAxis.Right, 7
TestParameter, Output.Graph.YAxis.Data, ID, absIG, gm2
TestParameter, Output.Graph.YAxis.Scale, Log, Log, Linear
TestParameter, Output.Graph.YAxis.Bottom, 1E-14, 1E-14, 0
TestParameter, Output.Graph.YAxis.Top, 0.01, 0.01, 1E-05
TestParameter, Output.Graph.YAxis.Group, , , 
TestParameter, Output.List.Data, VG, IG, VD, ID, VS, IS, sqrtID, gm2, absIG
TestParameter, AutoAnalysis.Interpolation, false
TestParameter, AutoAnalysis.Line1.Enabled, false
TestParameter, AutoAnalysis.Line1.Type, 1
TestParameter, AutoAnalysis.Line1.Fix, True
TestParameter, AutoAnalysis.Line1.YAxis, 0
TestParameter, AutoAnalysis.Line1.Point1.Type, 0
TestParameter, AutoAnalysis.Line1.Point1.XY.X, 
TestParameter, AutoAnalysis.Line1.Point1.XY.Y, 
TestParameter, AutoAnalysis.Line1.Point1.Data.Var, 
TestParameter, AutoAnalysis.Line1.Point1.Data.Condition, 
TestParameter, AutoAnalysis.Line1.Point1.Data.Start, false
TestParameter, AutoAnalysis.Line1.Point1.Data.StartVar, 
TestParameter, AutoAnalysis.Line1.Point1.Data.StartCondition, 
TestParameter, AutoAnalysis.Line1.Point2.Type, 0
TestParameter, AutoAnalysis.Line1.Point2.XY.X, 
TestParameter, AutoAnalysis.Line1.Point2.XY.Y, 
TestParameter, AutoAnalysis.Line1.Point2.Data.Var, 
TestParameter, AutoAnalysis.Line1.Point2.Data.Condition, 
TestParameter, AutoAnalysis.Line1.Point2.Data.Start, false
TestParameter, AutoAnalysis.Line1.Point2.Data.StartVar, 
TestParameter, AutoAnalysis.Line1.Point2.Data.StartCondition, 
TestParameter, AutoAnalysis.Line1.GradientExpr, 0
TestParameter, AutoAnalysis.Line2.Enabled, false
TestParameter, AutoAnalysis.Line2.Type, 1
TestParameter, AutoAnalysis.Line2.Fix, True
TestParameter, AutoAnalysis.Line2.YAxis, 0
TestParameter, AutoAnalysis.Line2.Point1.Type, 0
TestParameter, AutoAnalysis.Line2.Point1.XY.X, 
TestParameter, AutoAnalysis.Line2.Point1.XY.Y, 
TestParameter, AutoAnalysis.Line2.Point1.Data.Var, 
TestParameter, AutoAnalysis.Line2.Point1.Data.Condition, 
TestParameter, AutoAnalysis.Line2.Point1.Data.Start, false
TestParameter, AutoAnalysis.Line2.Point1.Data.StartVar, 
TestParameter, AutoAnalysis.Line2.Point1.Data.StartCondition, 
TestParameter, AutoAnalysis.Line2.Point2.Type, 0
TestParameter, AutoAnalysis.Line2.Point2.XY.X, 
TestParameter, AutoAnalysis.Line2.Point2.XY.Y, 
TestParameter, AutoAnalysis.Line2.Point2.Data.Var, 
TestParameter, AutoAnalysis.Line2.Point2.Data.Condition, 
TestParameter, AutoAnalysis.Line2.Point2.Data.Start, false
TestParameter, AutoAnalysis.Line2.Point2.Data.StartVar, 
TestParameter, AutoAnalysis.Line2.Point2.Data.StartCondition, 
TestParameter, AutoAnalysis.Line2.GradientExpr, 0
TestParameter, AutoAnalysis.Marker.Enabled, false
TestParameter, AutoAnalysis.Marker.Data.Var, 
TestParameter, AutoAnalysis.Marker.Data.Condition, 
TestParameter, AutoAnalysis.Marker.Data.Start, false
TestParameter, AutoAnalysis.Marker.Data.StartVar, 
TestParameter, AutoAnalysis.Marker.Data.StartCondition, 
MetaData, TestRecord.EntryPoint, true
MetaData, TestRecord.RecordTime, 05/02/2019 14:17:01
MetaData, TestRecord.TestTarget, 150-300-10-2
MetaData, TestRecord.IterationIndex, 1
MetaData, TestRecord.Preservation, true
MetaData, TestRecord.Flag, 
MetaData, TestRecord.Remarks, good
MetaData, TestRecord.LinkKey, 02c508fd-c35a-4fd7-a310-1cee443c3a7c
Dimension1, 202, 202, 202, 202, 202, 202, 202, 202, 202, 202
Dimension2, 1, 1, 1, 1, 1, 1, 1, 1, 1, 1
DataName, VG, VD, VS, ID, IS, IG, absID, sqrtID, gm2, absIG
DataValue, -2, 0.1, 0, 3.1810000000000003E-12, 4.1800000000000004E-13, -1.335E-12, 3.1810000000000003E-12, 1.7835358140502814E-06, 1.1837594326259057E-09, 1.335E-12
DataValue, -1.9500000000000002, 0.1, 0, -4E-15, 1.9410000000000003E-12, -1.17E-13, 4E-15, 6.3245553203367584E-08, 1.416671103065503E-10, 1.17E-13
DataValue, -1.9000000000000001, 0.1, 0, 3.52E-13, 8.770000000000001E-13, -3.3870000000000004E-12, 3.52E-13, 5.9329587896765306E-07, 1.423103807471668E-10, 3.3870000000000004E-12
DataValue, -1.85, 0.1, 0, 1.5780000000000001E-12, 1.0830000000000001E-12, -2.57E-12, 1.5780000000000001E-12, 1.2561846997953765E-06, 4.350903623401255E-12, 2.57E-12
DataValue, -1.8, 0.1, 0, 1.48E-13, 7.820000000000001E-13, -1.972E-12, 1.48E-13, 3.8470768123342689E-07, 5.62830459773362E-11, 1.972E-12
DataValue, -1.75, 0.1, 0, 2.56E-13, 1.09E-13, 4.75E-13, 2.56E-13, 5.0596442562694067E-07, 2.2667681604823827E-11, 4.75E-13
DataValue, -1.7000000000000002, 0.1, 0, -7.4100000000000007E-13, 8.4000000000000008E-14, 1.4500000000000001E-13, 7.4100000000000007E-13, 8.6081356866629376E-07, 2.5600000000000065E-11, 1.4500000000000001E-13
DataValue, -1.6500000000000001, 0.1, 0, 0, 9.0600000000000008E-13, -5.85E-13, 0, 0, 4.7475563337988026E-11, 5.85E-13
DataValue, -1.6, 0.1, 0, -2.402E-12, -6.0000000000000005E-15, 2.91E-13, 2.402E-12, 1.5498387012847499E-06, 1.2779999999999976E-10, 2.91E-13
DataValue, -1.55, 0.1, 0, -1.278E-12, 5.7200000000000009E-13, -1.377E-12, 1.278E-12, 1.1304866208850063E-06, 9.3791676107899912E-11, 1.377E-12
DataValue, -1.5, 0.1, 0, 3.38E-13, 5.85E-13, 1.81E-13, 3.38E-13, 5.8137767414994533E-07, 6.7612124440474023E-11, 1.81E-13
DataValue, -1.4500000000000002, 0.1, 0, -9.5000000000000012E-14, -4.9000000000000006E-14, -7.31E-13, 9.5000000000000012E-14, 3.0822070014844886E-07, 7.4654658493549871E-13, 7.31E-13
DataValue, -1.4000000000000001, 0.1, 0, -2.45E-13, 9.55E-13, -7.56E-13, 2.45E-13, 4.9497474683058325E-07, 1.309809469963331E-13, 7.56E-13
DataValue, -1.35, 0.1, 0, 7.4E-14, -2.2E-14, 6.33E-13, 7.4E-14, 2.7202941017470887E-07, 5.8560386520023439E-12, 6.33E-13
DataValue, -1.3, 0.1, 0, -6.4E-14, -1.8000000000000002E-14, -8.0000000000000013E-14, 6.4E-14, 2.5298221281347034E-07, 5.257029926599108E-14, 8.0000000000000013E-14
DataValue, -1.25, 0.1, 0, 8.7000000000000008E-14, -5.5600000000000005E-13, 8.770000000000001E-13, 8.7000000000000008E-14, 2.9495762407505252E-07, 6.3561689902669914E-11, 8.770000000000001E-13
DataValue, -1.2, 0.1, 0, 1.103E-12, -1.57E-13, -6.2500000000000006E-13, 1.103E-12, 1.0502380682492898E-06, 2.623500996016382E-10, 6.2500000000000006E-13
DataValue, -1.1500000000000001, 0.1, 0, 3.666E-12, -3.017E-12, -1.5470000000000002E-12, 3.666E-12, 1.9146801299433803E-06, 5.0962167564035346E-10, 1.5470000000000002E-12
DataValue, -1.1, 0.1, 0, 1.0941E-11, -1.0188000000000001E-11, 5.22E-13, 1.0941E-11, 3.307718246767702E-06, 1.447753219383713E-09, 5.22E-13
DataValue, -1.05, 0.1, 0, 3.2714000000000005E-11, -2.9990000000000004E-11, -7.590000000000001E-13, 3.2714000000000005E-11, 5.7196153716836591E-06, 3.4547415924801586E-09, 7.590000000000001E-13
DataValue, -1, 0.1, 0, 8.4372E-11, -8.032E-11, 1.42E-13, 8.4372E-11, 9.1854232346691581E-06, 7.025640466292988E-09, 1.42E-13
DataValue, -0.95000000000000007, 0.1, 0, 1.9885300000000002E-10, -1.9150400000000002E-10, -4.5500000000000008E-13, 1.9885300000000002E-10, 1.4101524740254156E-05, 1.5230549956791107E-08, 4.5500000000000008E-13
DataValue, -0.9, 0.1, 0, 4.6339600000000004E-10, -4.4555200000000005E-10, -3.8500000000000003E-13, 4.6339600000000004E-10, 2.1526634664991182E-05, 2.8765343806229838E-08, 3.8500000000000003E-13
DataValue, -0.85000000000000009, 0.1, 0, 9.6484E-10, -9.00896E-10, -1.3710000000000001E-12, 9.6484E-10, 3.1061873736141543E-05, 5.7378983429635557E-08, 1.3710000000000001E-12
DataValue, -0.8, 0.1, 0, 2.06848E-09, -1.93819E-09, -2.7800000000000003E-13, 2.06848E-09, 4.5480545291366062E-05, 9.974757022625542E-08, 2.7800000000000003E-13
DataValue, -0.75, 0.1, 0, 3.92436E-09, -3.87506E-09, 7.6700000000000006E-13, 3.92436E-09, 6.26447124664165E-05, 1.3696279088709341E-07, 7.6700000000000006E-13
DataValue, -0.70000000000000007, 0.1, 0, 6.80444E-09, -6.68336E-09, -3.04E-13, 6.80444E-09, 8.2489029573634817E-05, 1.5474189797030456E-07, 3.04E-13
DataValue, -0.65, 0.1, 0, 1.040032E-08, -1.00077E-08, -1.209E-12, 1.040032E-08, 0.00010198195918886831, 1.5838099865399545E-07, 1.209E-12
DataValue, -0.6, 0.1, 0, 1.4953899999999997E-08, -1.4728799999999998E-08, -7.1800000000000007E-13, 1.4953899999999997E-08, 0.00012228613985239699, 2.0299936663303368E-07, 7.1800000000000007E-13
DataValue, -0.55, 0.1, 0, 2.1619999999999998E-08, -2.12248E-08, -1.9600000000000002E-13, 2.1619999999999998E-08, 0.0001470374102057024, 2.273413623703495E-07, 1.9600000000000002E-13
DataValue, -0.5, 0.1, 0, 2.8888599999999996E-08, -2.8329399999999997E-08, 9.21E-13, 2.8888599999999996E-08, 0.0001699664672810493, 2.1325762416826754E-07, 9.21E-13
DataValue, -0.45, 0.1, 0, 3.7332899999999995E-08, -3.6566E-08, -5E-13, 3.7332899999999995E-08, 0.00019321723525607127, 1.9782656145909581E-07, 5E-13
DataValue, -0.4, 0.1, 0, 4.5986299999999995E-08, -4.53178E-08, -1.239E-12, 4.5986299999999995E-08, 0.00021444416522722179, 1.878845615663331E-07, 1.239E-12
DataValue, -0.35000000000000003, 0.1, 0, 5.5961999999999995E-08, -5.4797999999999992E-08, -7.04E-13, 5.5961999999999995E-08, 0.00023656288804459587, 1.8790322128406925E-07, 7.04E-13
DataValue, -0.3, 0.1, 0, 6.64567E-08, -6.56814E-08, 1.46E-12, 6.64567E-08, 0.00025779197039473511, 1.9233874012620383E-07, 1.46E-12
DataValue, -0.25, 0.1, 0, 7.8634999999999989E-08, -7.800989999999999E-08, -5.63E-13, 7.8634999999999989E-08, 0.00028041932886304396, 1.9977660711792205E-07, 5.63E-13
DataValue, -0.2, 0.1, 0, 9.1499199999999989E-08, -8.987819999999999E-08, -8.5800000000000008E-13, 9.1499199999999989E-08, 0.00030248834688298323, 1.8631748203797187E-07, 8.5800000000000008E-13
DataValue, -0.15, 0.1, 0, 1.0470649999999999E-07, -1.0406889999999999E-07, 1.2670000000000002E-12, 1.0470649999999999E-07, 0.00032358383766807635, 1.5608241556055354E-07, 1.2670000000000002E-12
DataValue, -0.1, 0.1, 0, 1.16961E-07, -1.14723E-07, 5E-14, 1.16961E-07, 0.00034199561400696354, 1.7618703348095537E-07, 5E-14
DataValue, -0.05, 0.1, 0, 1.33633E-07, -1.32122E-07, -6.7100000000000007E-13, 1.33633E-07, 0.00036555847685425106, 2.2086873514899411E-07, 6.7100000000000007E-13
DataValue, 0, 0.1, 0, 1.51315E-07, -1.4964399999999999E-07, 2.9430000000000003E-12, 1.51315E-07, 0.00038899228784128868, 1.9911203174738656E-07, 2.9430000000000003E-12
DataValue, 0.05, 0.1, 0, 1.6824799999999999E-07, -1.67062E-07, 1.1400000000000002E-13, 1.6824799999999999E-07, 0.0004101804480957131, 2.1650768822210409E-07, 1.1400000000000002E-13
DataValue, 0.1, 0.1, 0, 1.8968E-07, -1.86443E-07, -4.0800000000000003E-13, 1.8968E-07, 0.00043552267449582918, 2.2263052633942937E-07, 4.0800000000000003E-13
DataValue, 0.15, 0.1, 0, 2.09182E-07, -2.07661E-07, 9.8E-13, 2.09182E-07, 0.00045736418749176238, 1.959370610835832E-07, 9.8E-13
DataValue, 0.2, 0.1, 0, 2.30196E-07, -2.29414E-07, 1.6740000000000001E-12, 2.30196E-07, 0.00047978745294140408, 2.1297732805859219E-07, 1.6740000000000001E-12
DataValue, 0.25, 0.1, 0, 2.53526E-07, -2.52599E-07, 7.3E-13, 2.53526E-07, 0.00050351365423392444, 2.3763006345915992E-07, 7.3E-13
DataValue, 0.3, 0.1, 0, 2.79349E-07, -2.778E-07, 4.7900000000000008E-13, 2.79349E-07, 0.00052853476706835468, 2.4878759055264727E-07, 4.7900000000000008E-13
DataValue, 0.35000000000000003, 0.1, 0, 3.06243E-07, -3.05192E-07, -8.4100000000000005E-13, 3.06243E-07, 0.00055339226593800533, 2.2897553539094137E-07, 8.4100000000000005E-13
DataValue, 0.4, 0.1, 0, 3.3222099999999997E-07, -3.3086699999999997E-07, -3.16E-13, 3.3222099999999997E-07, 0.00057638615528133566, 2.2110457143345828E-07, 3.16E-13
DataValue, 0.45, 0.1, 0, 3.60497E-07, -3.59577E-07, 2.2870000000000003E-12, 3.60497E-07, 0.00060041402382023025, 2.4408090225566603E-07, 2.2870000000000003E-12
DataValue, 0.5, 0.1, 0, 3.91614E-07, -3.91472E-07, 4.5800000000000007E-13, 3.91614E-07, 0.00062579069983501674, 2.7118115144950516E-07, 4.5800000000000007E-13
DataValue, 0.55, 0.1, 0, 4.25742E-07, -4.23926E-07, -3.41E-13, 4.25742E-07, 0.00065248908036839978, 3.0233862892242009E-07, 3.41E-13
DataValue, 0.6, 0.1, 0, 4.63456E-07, -4.61238E-07, 4.48E-13, 4.63456E-07, 0.00068077602778006223, 2.7614946852679819E-07, 4.48E-13
DataValue, 0.65, 0.1, 0, 4.9708E-07, -4.95156E-07, 4.5100000000000005E-13, 4.9708E-07, 0.00070503900601314243, 2.4749755169670961E-07, 4.5100000000000005E-13
DataValue, 0.70000000000000007, 0.1, 0, 5.33667E-07, -5.3065E-07, -7.03E-13, 5.33667E-07, 0.00073052515357104574, 2.6675005418292265E-07, 7.03E-13
DataValue, 0.75, 0.1, 0, 5.72575E-07, -5.72007E-07, -1.122E-12, 5.72575E-07, 0.00075668685729302846, 2.8668617644857158E-07, 1.122E-12
DataValue, 0.8, 0.1, 0, 6.14763E-07, -6.12642E-07, 7.09E-13, 6.14763E-07, 0.00078406823682636187, 2.8413697933370081E-07, 7.09E-13
DataValue, 0.85000000000000009, 0.1, 0, 6.56086E-07, -6.5528E-07, -9.19E-13, 6.56086E-07, 0.00080999135797858984, 2.9275204783082623E-07, 9.19E-13
DataValue, 0.9, 0.1, 0, 7.02537E-07, -6.99635E-07, 6.09E-13, 7.02537E-07, 0.00083817480277087789, 2.948078410165248E-07, 6.09E-13
DataValue, 0.95000000000000007, 0.1, 0, 7.46993E-07, -7.44694E-07, -2.1600000000000001E-13, 7.46993E-07, 0.00086428756788467119, 2.6718928572664061E-07, 2.1600000000000001E-13
DataValue, 1, 0.1, 0, 7.9185999999999995E-07, -7.90482E-07, 6.8E-14, 7.9185999999999995E-07, 0.0008898651583245632, 2.6690969967628759E-07, 6.8E-14
DataValue, 1.05, 0.1, 0, 8.3896599999999994E-07, -8.36802E-07, 7.8000000000000008E-14, 8.3896599999999994E-07, 0.00091595087204500219, 2.6500970433474716E-07, 7.8000000000000008E-14
DataValue, 1.1, 0.1, 0, 8.86129E-07, -8.83699E-07, -7.3800000000000009E-13, 8.86129E-07, 0.00094134425158918351, 2.4771146049993292E-07, 7.3800000000000009E-13
DataValue, 1.1500000000000001, 0.1, 0, 9.3261799999999994E-07, -9.28888E-07, 3.7100000000000003E-13, 9.3261799999999994E-07, 0.00096572149194268213, 2.4410495283278367E-07, 3.7100000000000003E-13
DataValue, 1.2, 0.1, 0, 9.81588E-07, -9.80917E-07, 1.964E-12, 9.81588E-07, 0.0009907512301279267, 2.7196033327629765E-07, 1.964E-12
DataValue, 1.25, 0.1, 0, 1.036062E-06, -1.032972E-06, 8.19E-13, 1.036062E-06, 0.0010178713081721088, 2.5304927940229521E-07, 8.19E-13
DataValue, 1.3, 0.1, 0, 1.083796E-06, -1.081574E-06, -1.13E-12, 1.083796E-06, 0.0010410552338853112, 2.1613640264810284E-07, 1.13E-12
DataValue, 1.35, 0.1, 0, 1.132866E-06, -1.133743E-06, 1.8240000000000003E-12, 1.132866E-06, 0.0010643617805990591, 2.0991446780341584E-07, 1.8240000000000003E-12
DataValue, 1.4000000000000001, 0.1, 0, 1.1812900000000002E-06, -1.1803400000000002E-06, 9.8000000000000012E-14, 1.1812900000000002E-06, 0.0010868716575566778, 2.1487122934170794E-07, 9.8000000000000012E-14
DataValue, 1.4500000000000002, 0.1, 0, 1.23369E-06, -1.2358200000000002E-06, 1.935E-12, 1.23369E-06, 0.0011107159852995724, 2.3123106601122556E-07, 1.935E-12
DataValue, 1.5, 0.1, 0, 1.2881300000000002E-06, -1.28778E-06, 2.9890000000000003E-12, 1.2881300000000002E-06, 0.0011349581490081473, 2.2923019429505351E-07, 2.9890000000000003E-12
DataValue, 1.55, 0.1, 0, 1.34234E-06, -1.3422500000000002E-06, 2.7800000000000003E-13, 1.34234E-06, 0.0011585939754719943, 2.2163596882084923E-07, 2.7800000000000003E-13
DataValue, 1.6, 0.1, 0, 1.3972100000000002E-06, -1.3962E-06, 8.6000000000000012E-14, 1.3972100000000002E-06, 0.0011820363784588021, 2.0287981752647603E-07, 8.6000000000000012E-14
DataValue, 1.6500000000000001, 0.1, 0, 1.44874E-06, -1.4486200000000001E-06, 1.3820000000000002E-12, 1.44874E-06, 0.00120363615764898, 1.9592071914048823E-07, 1.3820000000000002E-12
DataValue, 1.7000000000000002, 0.1, 0, 1.5038100000000002E-06, -1.5028000000000003E-06, 1.1440000000000002E-12, 1.5038100000000002E-06, 0.0012262993109351404, 2.032132668753888E-07, 1.1440000000000002E-12
DataValue, 1.75, 0.1, 0, 1.5592900000000002E-06, -1.5587700000000002E-06, 1.318E-12, 1.5592900000000002E-06, 0.0012487153398593293, 1.9519530940209142E-07, 1.318E-12
DataValue, 1.8, 0.1, 0, 1.6141200000000003E-06, -1.6139800000000002E-06, 5.0300000000000008E-13, 1.6141200000000003E-06, 0.0012704802241672241, 1.8814763507782245E-07, 5.0300000000000008E-13
DataValue, 1.85, 0.1, 0, 1.6695E-06, -1.6696300000000003E-06, 1.506E-12, 1.6695E-06, 0.0012920913280414818, 1.8251666307081708E-07, 1.506E-12
DataValue, 1.9000000000000001, 0.1, 0, 1.7245000000000002E-06, -1.7252500000000001E-06, 2.5400000000000003E-13, 1.7245000000000002E-06, 0.0013132021931142211, 1.7753615586266289E-07, 2.5400000000000003E-13
DataValue, 1.9500000000000002, 0.1, 0, 1.78016E-06, -1.7791900000000002E-06, 1.023E-12, 1.78016E-06, 0.001334226367600341, 1.7103828964513745E-07, 1.023E-12
DataValue, 2, 0.1, 0, 1.8348300000000002E-06, -1.8357200000000002E-06, 1.6910000000000002E-12, 1.8348300000000002E-06, 0.0013545589688160498, 1.7683051605940075E-07, 1.6910000000000002E-12
DataValue, 2.05, 0.1, 0, 1.8941400000000003E-06, -1.8937600000000001E-06, -4.98E-13, 1.8941400000000003E-06, 0.0013762775882793414, 1.7317560283264056E-07, 4.98E-13
DataValue, 2.1, 0.1, 0, 1.9493E-06, -1.94809E-06, -1.6600000000000003E-13, 1.9493E-06, 0.0013961733416735904, 1.6311509445337903E-07, 1.6600000000000003E-13
DataValue, 2.15, 0.1, 0, 2.00694E-06, -2.00748E-06, 1.893E-12, 2.00694E-06, 0.0014166650980383473, 1.6413695963930602E-07, 1.893E-12
DataValue, 2.2, 0.1, 0, 2.0640700000000003E-06, -2.06308E-06, 7.28E-13, 2.0640700000000003E-06, 0.0014366871614934131, 1.5818387308807261E-07, 7.28E-13
DataValue, 2.25, 0.1, 0, 2.1212100000000004E-06, -2.12132E-06, 1.5220000000000002E-12, 2.1212100000000004E-06, 0.0014564374342895751, 1.6120768307737089E-07, 1.5220000000000002E-12
