
SetupTitle, Transfer lin
PrimitiveTest, I/V Sweep
TestParameter, Context.MainFrame, 4155C
TestParameter, Channel.UnitType, SMU, SMU, SMU
TestParameter, Channel.Unit, SMU3:MP, SMU1:MP, SMU4:MP
TestParameter, Channel.IName, ID, IS, IG
TestParameter, Channel.VName, VD, VS, VG
TestParameter, Channel.Mode, V, COMMON, V
TestParameter, Channel.Func, CONST, CONST, VAR1
TestParameter, Channel.Index, 
TestParameter, Channel.Time, 
TestParameter, Measurement.Port.Unit, SMU3:MP, SMU1:MP, SMU4:MP
TestParameter, Measurement.Port.SeriesResistor, NONE, NONE, NONE
TestParameter, Measurement.Port.Filter, ON, ON, ON
TestParameter, Measurement.Primary.Locus, Double
TestParameter, Measurement.Primary.Scale, LINEAR
TestParameter, Measurement.Primary.Start, -2
TestParameter, Measurement.Primary.Stop, 3
TestParameter, Measurement.Primary.Step, 0.05
TestParameter, Measurement.Primary.Compliance, 0.001
TestParameter, Measurement.Primary.PowerCompliance, 0
TestParameter, Measurement.Aborting.Condition, CONTINUE AT ANY
TestParameter, Measurement.PostOutput.Value, START
TestParameter, Measurement.PostOutput.Retention, OFF
TestParameter, Measurement.Bias.Source, 0.1, 0, -2
TestParameter, Measurement.Bias.Compliance, 0.001, 0.1, 0.001
TestParameter, Measurement.Monitor.Unit, SMU3:MP, SMU1:MP, SMU4:MP
TestParameter, Measurement.Monitor.Adc, HR ADC, HR ADC, HR ADC
TestParameter, Measurement.Monitor.RangingMode, AUTO, AUTO, AUTO
TestParameter, Measurement.Monitor.RangeBoundary, , , 
TestParameter, Measurement.Monitor.RangeRating, BY FULL RANGE, BY FULL RANGE, BY FULL RANGE
TestParameter, Measurement.Monitor.RangeRatingCoeff, 50, 50, 50
TestParameter, Measurement.Timing.Hold, 0.5
TestParameter, Measurement.Timing.Delay, 0.05
TestParameter, Measurement.Adc.HighResolution.AutoZero, OFF
TestParameter, Measurement.Adc.HighResolution.Mode, AUTO
TestParameter, Measurement.Adc.HighResolution.Coeff, 1
TestParameter, Measurement.Ag16440ASelector.SemiconductorRelay.Channel1, DEFAULT
TestParameter, Measurement.Ag16440ASelector.SemiconductorRelay.Channel3, DEFAULT
TestParameter, Function.User.Name, absID, sqrtID, gm2, absIG
TestParameter, Function.User.Unit, A, A, A/V, A
TestParameter, Function.User.Definition, abs(ID), sqrt(abs(ID)), (delta(sqrtID)/delta(VG))^2, abs(IG)
TestParameter, Output.Graph.Enabled, true
TestParameter, Output.Graph.XAxis.Data, VG
TestParameter, Output.Graph.XAxis.Scale, Linear
TestParameter, Output.Graph.XAxis.Left, -5
TestParameter, Output.Graph.XAxis.Right, 7
TestParameter, Output.Graph.YAxis.Data, ID, absIG, gm2
TestParameter, Output.Graph.YAxis.Scale, Log, Log, Linear
TestParameter, Output.Graph.YAxis.Bottom, 1E-14, 1E-14, 0
TestParameter, Output.Graph.YAxis.Top, 0.01, 0.01, 1E-05
TestParameter, Output.Graph.YAxis.Group, , , 
TestParameter, Output.List.Data, VG, IG, VD, ID, VS, IS, sqrtID, gm2, absIG
TestParameter, AutoAnalysis.Interpolation, false
TestParameter, AutoAnalysis.Line1.Enabled, false
TestParameter, AutoAnalysis.Line1.Type, 1
TestParameter, AutoAnalysis.Line1.Fix, True
TestParameter, AutoAnalysis.Line1.YAxis, 0
TestParameter, AutoAnalysis.Line1.Point1.Type, 0
TestParameter, AutoAnalysis.Line1.Point1.XY.X, 
TestParameter, AutoAnalysis.Line1.Point1.XY.Y, 
TestParameter, AutoAnalysis.Line1.Point1.Data.Var, 
TestParameter, AutoAnalysis.Line1.Point1.Data.Condition, 
TestParameter, AutoAnalysis.Line1.Point1.Data.Start, false
TestParameter, AutoAnalysis.Line1.Point1.Data.StartVar, 
TestParameter, AutoAnalysis.Line1.Point1.Data.StartCondition, 
TestParameter, AutoAnalysis.Line1.Point2.Type, 0
TestParameter, AutoAnalysis.Line1.Point2.XY.X, 
TestParameter, AutoAnalysis.Line1.Point2.XY.Y, 
TestParameter, AutoAnalysis.Line1.Point2.Data.Var, 
TestParameter, AutoAnalysis.Line1.Point2.Data.Condition, 
TestParameter, AutoAnalysis.Line1.Point2.Data.Start, false
TestParameter, AutoAnalysis.Line1.Point2.Data.StartVar, 
TestParameter, AutoAnalysis.Line1.Point2.Data.StartCondition, 
TestParameter, AutoAnalysis.Line1.GradientExpr, 0
TestParameter, AutoAnalysis.Line2.Enabled, false
TestParameter, AutoAnalysis.Line2.Type, 1
TestParameter, AutoAnalysis.Line2.Fix, True
TestParameter, AutoAnalysis.Line2.YAxis, 0
TestParameter, AutoAnalysis.Line2.Point1.Type, 0
TestParameter, AutoAnalysis.Line2.Point1.XY.X, 
TestParameter, AutoAnalysis.Line2.Point1.XY.Y, 
TestParameter, AutoAnalysis.Line2.Point1.Data.Var, 
TestParameter, AutoAnalysis.Line2.Point1.Data.Condition, 
TestParameter, AutoAnalysis.Line2.Point1.Data.Start, false
TestParameter, AutoAnalysis.Line2.Point1.Data.StartVar, 
TestParameter, AutoAnalysis.Line2.Point1.Data.StartCondition, 
TestParameter, AutoAnalysis.Line2.Point2.Type, 0
TestParameter, AutoAnalysis.Line2.Point2.XY.X, 
TestParameter, AutoAnalysis.Line2.Point2.XY.Y, 
TestParameter, AutoAnalysis.Line2.Point2.Data.Var, 
TestParameter, AutoAnalysis.Line2.Point2.Data.Condition, 
TestParameter, AutoAnalysis.Line2.Point2.Data.Start, false
TestParameter, AutoAnalysis.Line2.Point2.Data.StartVar, 
TestParameter, AutoAnalysis.Line2.Point2.Data.StartCondition, 
TestParameter, AutoAnalysis.Line2.GradientExpr, 0
TestParameter, AutoAnalysis.Marker.Enabled, false
TestParameter, AutoAnalysis.Marker.Data.Var, 
TestParameter, AutoAnalysis.Marker.Data.Condition, 
TestParameter, AutoAnalysis.Marker.Data.Start, false
TestParameter, AutoAnalysis.Marker.Data.StartVar, 
TestParameter, AutoAnalysis.Marker.Data.StartCondition, 
MetaData, TestRecord.EntryPoint, true
MetaData, TestRecord.RecordTime, 05/02/2019 16:25:23
MetaData, TestRecord.TestTarget, br-br-10-5
MetaData, TestRecord.IterationIndex, 1
MetaData, TestRecord.Preservation, true
MetaData, TestRecord.Flag, 
MetaData, TestRecord.Remarks, good
MetaData, TestRecord.LinkKey, 5a036f52-0395-4736-8fcd-6561d4fdac5e
Dimension1, 202, 202, 202, 202, 202, 202, 202, 202, 202, 202
Dimension2, 1, 1, 1, 1, 1, 1, 1, 1, 1, 1
DataName, VG, VD, VS, ID, IS, IG, absID, sqrtID, gm2, absIG
DataValue, -2, 0.1, 0, 3.8300000000000003E-13, 5.41E-13, -8.0000000000000013E-14, 3.8300000000000003E-13, 6.1886993787063215E-07, 5.7165105778551976E-11, 8.0000000000000013E-14
DataValue, -1.9500000000000002, 0.1, 0, 5.8E-14, -3.05E-13, -1.2840000000000002E-12, 5.8E-14, 2.4083189157584592E-07, 3.8332166349698465E-12, 1.2840000000000002E-12
DataValue, -1.9000000000000001, 0.1, 0, 1.7900000000000002E-13, -8.1400000000000007E-13, -5.0000000000000008E-15, 1.7900000000000002E-13, 4.2308391602612363E-07, 1.4783562157333657E-10, 5.0000000000000008E-15
DataValue, -1.85, 0.1, 0, 2.122E-12, -5.17E-13, 1.4360000000000001E-12, 2.122E-12, 1.4567086187704115E-06, 3.1448093114932128E-11, 1.4360000000000001E-12
DataValue, -1.8, 0.1, 0, -9.6800000000000012E-13, 5.68E-13, 1.5970000000000002E-12, 9.6800000000000012E-13, 9.8386991009990746E-07, 6.6905830290145738E-11, 1.5970000000000002E-12
DataValue, -1.75, 0.1, 0, -4.0800000000000003E-13, 1.331E-12, -9.0800000000000007E-13, 4.0800000000000003E-13, 6.3874877690685246E-07, 4.7227403689745092E-11, 9.0800000000000007E-13
DataValue, -1.7000000000000002, 0.1, 0, -8.8E-14, -1.163E-12, -4.357E-12, 8.8E-14, 2.9664793948382653E-07, 4.0224493224299875E-13, 4.357E-12
DataValue, -1.6500000000000001, 0.1, 0, -3.31E-13, 5.85E-13, 1.454E-12, 3.31E-13, 5.7532599454570106E-07, 1.173337676450172E-10, 1.454E-12
DataValue, -1.6, 0.1, 0, 1.904E-12, -1.5630000000000001E-12, 1.128E-12, 1.904E-12, 1.3798550648528273E-06, 1.0486761154622791E-10, 1.128E-12
DataValue, -1.55, 0.1, 0, 2.5580000000000002E-12, 2.265E-12, 1.18E-13, 2.5580000000000002E-12, 1.5993748778819806E-06, 8.6359821457422548E-11, 1.18E-13
DataValue, -1.5, 0.1, 0, 2.0300000000000002E-13, -1.5630000000000001E-12, 3.6110000000000003E-12, 2.0300000000000002E-13, 4.5055521304275243E-07, 1.5882511811483771E-10, 3.6110000000000003E-12
DataValue, -1.4500000000000002, 0.1, 0, 1.1500000000000002E-13, 3.5320000000000003E-12, -3.3740000000000004E-12, 1.1500000000000002E-13, 3.3911649915626343E-07, 3.3806451836700056E-11, 3.3740000000000004E-12
DataValue, -1.4000000000000001, 0.1, 0, 1.065E-12, 4.147E-12, -3.9660000000000007E-12, 1.065E-12, 1.0319883720275146E-06, 1.6158553209395718E-10, 3.9660000000000007E-12
DataValue, -1.35, 0.1, 0, -2.5930000000000004E-12, 1.095E-12, -3.1180000000000002E-12, 2.5930000000000004E-12, 1.6102794788483149E-06, 3.6471632154105989E-13, 3.1180000000000002E-12
DataValue, -1.3, 0.1, 0, 9.44E-13, -6.1200000000000006E-12, 1.0800000000000001E-13, 9.44E-13, 9.7159662411928953E-07, 1.1958713992001683E-10, 1.0800000000000001E-13
DataValue, -1.25, 0.1, 0, -2.67E-13, -9.44E-13, 1.667E-12, 2.67E-13, 5.167204273105525E-07, 3.757897116305935E-11, 1.667E-12
DataValue, -1.2, 0.1, 0, -2.511E-12, 3.7000000000000004E-13, 1.404E-12, 2.511E-12, 1.5846135175493109E-06, 4.6857984549951967E-11, 1.404E-12
DataValue, -1.1500000000000001, 0.1, 0, 1.4430000000000002E-12, -9.0000000000000008E-14, 7.4200000000000007E-13, 1.4430000000000002E-12, 1.20124934963562E-06, 7.12915602541121E-11, 7.4200000000000007E-13
DataValue, -1.1, 0.1, 0, -5.4800000000000009E-13, 9.0300000000000009E-13, -8.2700000000000011E-13, 5.4800000000000009E-13, 7.4027022093287E-07, 1.0628692140647424E-10, 8.2700000000000011E-13
DataValue, -1.05, 0.1, 0, -2.9E-14, -2.065E-12, 2.7630000000000002E-12, 2.9E-14, 1.7029386365926402E-07, 4.4090789044833237E-11, 2.7630000000000002E-12
DataValue, -1, 0.1, 0, -1.972E-12, 6.1800000000000009E-13, -3.6000000000000004E-14, 1.972E-12, 1.4042791745233568E-06, 3.7258333613935874E-12, 3.6000000000000004E-14
DataValue, -0.95000000000000007, 0.1, 0, 1.3200000000000002E-13, 1.5500000000000002E-13, 2.226E-12, 1.3200000000000002E-13, 3.63318042491699E-07, 3.514039885868412E-14, 2.226E-12
DataValue, -0.9, 0.1, 0, -2.0250000000000004E-12, 1.906E-12, 1.8000000000000002E-13, 2.0250000000000004E-12, 1.4230249470757709E-06, 5.7205527673087219E-12, 1.8000000000000002E-13
DataValue, -0.85000000000000009, 0.1, 0, 3.63E-13, 9.78E-13, -2.4170000000000003E-12, 3.63E-13, 6.024948132556827E-07, 7.1712195575402664E-11, 2.4170000000000003E-12
DataValue, -0.8, 0.1, 0, 3.3200000000000005E-13, -2.6300000000000004E-13, -2.5300000000000003E-13, 3.3200000000000005E-13, 5.7619441163551742E-07, 2.4761962177616298E-11, 2.5300000000000003E-13
DataValue, -0.75, 0.1, 0, 1.1E-14, -1.7E-13, 2.81E-13, 1.1E-14, 1.0488088481701516E-07, 5.9025424071177633E-12, 2.81E-13
DataValue, -0.70000000000000007, 0.1, 0, 6.7100000000000007E-13, 3.04E-13, -5.9E-14, 6.7100000000000007E-13, 8.1914589665089576E-07, 1.7829139195527219E-10, 5.9E-14
DataValue, -0.65, 0.1, 0, -2.0740000000000003E-12, 6.15E-13, 5.2900000000000007E-13, 2.0740000000000003E-12, 1.4401388821915754E-06, 2.6608149561522612E-11, 5.2900000000000007E-13
DataValue, -0.6, 0.1, 0, -9.2000000000000012E-14, 1.8400000000000002E-13, -8.0300000000000011E-13, 9.2000000000000012E-14, 3.0331501776206206E-07, 1.2491383310739973E-10, 8.0300000000000011E-13
DataValue, -0.55, 0.1, 0, 1.0400000000000001E-13, -9.0000000000000011E-15, 4.8000000000000004E-14, 1.0400000000000001E-13, 3.22490309931942E-07, 2.3390805665503653E-13, 4.8000000000000004E-14
DataValue, -0.5, 0.1, 0, 6.5E-14, 3.4400000000000005E-13, 3.3300000000000005E-13, 6.5E-14, 2.5495097567963926E-07, 4.3687968348713351E-13, 3.3300000000000005E-13
DataValue, -0.45, 0.1, 0, -1.5100000000000001E-13, 1.3800000000000002E-13, 7.1300000000000009E-13, 1.5100000000000001E-13, 3.8858718455450897E-07, 1.46739485985005E-13, 7.1300000000000009E-13
DataValue, -0.4, 0.1, 0, -8.6000000000000012E-14, 1.7900000000000002E-13, -1.161E-12, 8.6000000000000012E-14, 2.9325756597230364E-07, 1.0911705696113082E-10, 1.161E-12
DataValue, -0.35000000000000003, 0.1, 0, 2.0540000000000003E-12, 3.03E-13, 4.33E-13, 2.0540000000000003E-12, 1.4331782861877306E-06, 9.0529054295770487E-12, 4.33E-13
DataValue, -0.3, 0.1, 0, 3.53E-13, 3.4E-14, -1.4110000000000002E-12, 3.53E-13, 5.9413803110051788E-07, 1.4022829692378074E-10, 1.4110000000000002E-12
DataValue, -0.25, 0.1, 0, 6.2E-14, 1.4900000000000002E-13, 2.6E-13, 6.2E-14, 2.4899799195977466E-07, 7.4306170786990493E-13, 2.6E-13
DataValue, -0.2, 0.1, 0, -2.58E-13, -1.8000000000000002E-13, -4.3100000000000003E-13, 2.58E-13, 5.0793700396801182E-07, 1.0346056443033611E-12, 4.3100000000000003E-13
DataValue, -0.15, 0.1, 0, 1.23E-13, 2.93E-13, -2.92E-13, 1.23E-13, 3.5071355833500363E-07, 1.1165548137793486E-10, 2.92E-13
DataValue, -0.1, 0.1, 0, -2.448E-12, 6.56E-13, 4.36E-13, 2.448E-12, 1.5646085772486356E-06, 3.457470860740508E-12, 4.36E-13
DataValue, -0.05, 0.1, 0, -2.8800000000000004E-13, 1.5500000000000002E-13, -6.0400000000000005E-13, 2.8800000000000004E-13, 5.3665631459994953E-07, 1.6429237320998823E-10, 6.0400000000000005E-13
DataValue, 0, 0.1, 0, 8.0000000000000013E-14, -3.4E-14, -4.0200000000000005E-13, 8.0000000000000013E-14, 2.8284271247461903E-07, 4.9290065292713057E-12, 4.0200000000000005E-13
DataValue, 0.05, 0.1, 0, 9.9000000000000007E-14, -6.1E-14, 6.2000000000000008E-13, 9.9000000000000007E-14, 3.1464265445104548E-07, 3.7888911741853881E-12, 6.2000000000000008E-13
DataValue, 0.1, 0.1, 0, -2.2800000000000004E-13, 7E-14, 2.2000000000000002E-13, 2.2800000000000004E-13, 4.7749345545253292E-07, 1.0685142900437274E-10, 2.2000000000000002E-13
DataValue, 0.15, 0.1, 0, -1.8180000000000001E-12, 6.1900000000000009E-13, 1.9800000000000002E-13, 1.8180000000000001E-12, 1.3483323032546539E-06, 3.2867263608068158E-12, 1.9800000000000002E-13
DataValue, 0.2, 0.1, 0, 4.34E-13, 2.0700000000000003E-13, 5.0500000000000007E-13, 4.34E-13, 6.587867636800242E-07, 4.3925988846457935E-11, 5.0500000000000007E-13
DataValue, 0.25, 0.1, 0, 4.7E-13, 4E-15, -7.3E-13, 4.7E-13, 6.8556546004010438E-07, 2.2660466830569021E-12, 7.3E-13
DataValue, 0.3, 0.1, 0, -6.55E-13, 3.1200000000000003E-13, 9.3100000000000017E-13, 6.55E-13, 8.0932070281193227E-07, 3.2256531562278391E-12, 9.3100000000000017E-13
DataValue, 0.35000000000000003, 0.1, 0, -2.56E-13, 4.3000000000000004E-13, 2.2900000000000003E-13, 2.56E-13, 5.0596442562694067E-07, 5.681387156049559E-12, 2.2900000000000003E-13
DataValue, 0.4, 0.1, 0, 3.26E-13, -1.1300000000000001E-13, 4.74E-13, 3.26E-13, 5.70964096944808E-07, 9.0000000000000031E-13, 4.74E-13
DataValue, 0.45, 0.1, 0, 3.6100000000000003E-13, -9.27E-13, 5.42E-13, 3.6100000000000003E-13, 6.00832755431992E-07, 4.5756186515524679E-11, 5.42E-13
DataValue, 0.5, 0.1, 0, 1.556E-12, -1.7950000000000001E-12, -6.9000000000000009E-14, 1.556E-12, 1.2473972903610142E-06, 2.7891343015824311E-10, 6.9000000000000009E-14
DataValue, 0.55, 0.1, 0, 5.1570000000000007E-12, -2.975E-12, -8.5E-14, 5.1570000000000007E-12, 2.2709029041330677E-06, 1.0956345564868922E-10, 8.5E-14
DataValue, 0.6, 0.1, 0, 5.2630000000000005E-12, -4.7030000000000005E-12, 1.0400000000000001E-13, 5.2630000000000005E-12, 2.2941229260874406E-06, 3.3687876504625149E-11, 1.0400000000000001E-13
DataValue, 0.65, 0.1, 0, 8.13E-12, -8E-12, -6.08E-13, 8.13E-12, 2.8513154858766506E-06, 2.1477820303626268E-10, 6.08E-13
DataValue, 0.70000000000000007, 0.1, 0, 1.4135000000000002E-11, -1.2933E-11, 7.6400000000000008E-13, 1.4135000000000002E-11, 3.7596542394214924E-06, 3.2753769824708608E-10, 7.6400000000000008E-13
DataValue, 0.75, 0.1, 0, 2.1726E-11, -1.9536000000000002E-11, 5.68E-13, 2.1726E-11, 4.6611157462564692E-06, 3.6771169038120685E-10, 5.68E-13
DataValue, 0.8, 0.1, 0, 3.2231000000000004E-11, -3.0571E-11, 6.82E-13, 3.2231000000000004E-11, 5.677235242615899E-06, 5.5594968841936982E-10, 6.82E-13
DataValue, 0.85000000000000009, 0.1, 0, 4.9266000000000006E-11, -4.5903000000000004E-11, -9.82E-13, 4.9266000000000006E-11, 7.0189742840389436E-06, 8.4929824093832553E-10, 9.82E-13
DataValue, 0.9, 0.1, 0, 7.381400000000001E-11, -6.837200000000001E-11, -1.379E-12, 7.381400000000001E-11, 8.59150743467059E-06, 1.2334004143188662E-09, 1.379E-12
DataValue, 0.95000000000000007, 0.1, 0, 1.1090100000000001E-10, -1.0497900000000001E-10, -3.7300000000000003E-13, 1.1090100000000001E-10, 1.0530954372705258E-05, 1.64118845718617E-09, 3.7300000000000003E-13
DataValue, 1, 0.1, 0, 1.5983700000000001E-10, -1.4961600000000001E-10, 1.87E-13, 1.5983700000000001E-10, 1.264266585811711E-05, 2.2206450204954158E-09, 1.87E-13
DataValue, 1.05, 0.1, 0, 2.3235900000000003E-10, -2.1371200000000002E-10, -3.51E-13, 2.3235900000000003E-10, 1.5243326408628795E-05, 2.7190025451695169E-09, 3.51E-13
DataValue, 1.1, 0.1, 0, 3.1887500000000005E-10, -3.0061800000000003E-10, 4.96E-13, 3.1887500000000005E-10, 1.7857071428428573E-05, 3.8629476952211446E-09, 4.96E-13
DataValue, 1.1500000000000001, 0.1, 0, 4.60471E-10, -4.2530700000000003E-10, 1.7160000000000002E-12, 4.60471E-10, 2.1458588024378491E-05, 5.2929094554913385E-09, 1.7160000000000002E-12
DataValue, 1.2, 0.1, 0, 6.31633E-10, -5.85476E-10, 5.3200000000000006E-13, 6.31633E-10, 2.5132309881903018E-05, 3.4370654897496608E-09, 5.3200000000000006E-13
DataValue, 1.25, 0.1, 0, 7.4645E-10, -7.19653E-10, 3.9600000000000003E-13, 7.4645E-10, 2.7321237160860779E-05, 4.0675923017575556E-09, 3.9600000000000003E-13
DataValue, 1.3, 0.1, 0, 9.9288500000000013E-10, -9.08416E-10, -3.8800000000000004E-12, 9.9288500000000013E-10, 3.151007775299833E-05, 5.5796566550184724E-09, 3.8800000000000004E-12
DataValue, 1.35, 0.1, 0, 1.21041E-09, -1.15804E-09, 1.6140000000000002E-12, 1.21041E-09, 3.4790947098347296E-05, 8.7101004307819322E-09, 1.6140000000000002E-12
DataValue, 1.4000000000000001, 0.1, 0, 1.66814E-09, -1.63815E-09, 2.3880000000000003E-12, 1.66814E-09, 4.0842869634735513E-05, 1.4725705844202793E-08, 2.3880000000000003E-12
DataValue, 1.4500000000000002, 0.1, 0, 2.20204E-09, -2.14337E-09, -1.644E-12, 2.20204E-09, 4.692589903241066E-05, 1.4804362890378364E-08, 1.644E-12
DataValue, 1.5, 0.1, 0, 2.81008E-09, -2.71452E-09, -4.3000000000000006E-14, 2.81008E-09, 5.3010187700101571E-05, 1.2745810748910855E-08, 4.3000000000000006E-14
DataValue, 1.55, 0.1, 0, 3.38906E-09, -3.35014E-09, 4.97E-13, 3.38906E-09, 5.8215633639083583E-05, 1.3155830186381903E-08, 4.97E-13
DataValue, 1.6, 0.1, 0, 4.15768E-09, -4.09667E-09, 1.416E-12, 4.15768E-09, 6.448007444164437E-05, 1.3813809981167545E-08, 1.416E-12
DataValue, 1.6500000000000001, 0.1, 0, 4.89564E-09, -4.82073E-09, 2.1330000000000003E-12, 4.89564E-09, 6.9968850212076515E-05, 1.5315632977310127E-08, 2.1330000000000003E-12
DataValue, 1.7000000000000002, 0.1, 0, 5.9068E-09, -5.7618E-09, -1.147E-12, 5.9068E-09, 7.6855708961664E-05, 1.5605130353951572E-08, 1.147E-12
DataValue, 1.75, 0.1, 0, 6.7998E-09, -6.68851E-09, -1.2690000000000002E-12, 6.7998E-09, 8.2460899825311139E-05, 1.3308788195899784E-08, 1.2690000000000002E-12
DataValue, 1.8, 0.1, 0, 7.81316E-09, -7.64967E-09, 5.3100000000000006E-13, 7.81316E-09, 8.8392081093274419E-05, 1.2618306274092479E-08, 5.3100000000000006E-13
DataValue, 1.85, 0.1, 0, 8.77857E-09, -8.63765E-09, 4.5000000000000004E-14, 8.77857E-09, 9.3694023288574819E-05, 1.2302996752465835E-08, 4.5000000000000004E-14
DataValue, 1.9000000000000001, 0.1, 0, 9.89706E-09, -9.81128E-09, -8.6000000000000012E-14, 9.89706E-09, 9.9483968557753067E-05, 1.1428282661195698E-08, 8.6000000000000012E-14
DataValue, 1.9500000000000002, 0.1, 0, 1.089609E-08, -1.0589099999999999E-08, 6.640000000000001E-13, 1.089609E-08, 0.0001043843379056456, 7.3321211321729852E-09, 6.640000000000001E-13
DataValue, 2, 0.1, 0, 1.16741E-08, -1.15433E-08, 1.086E-12, 1.16741E-08, 0.00010804674914128606, 1.0703516789843421E-08, 1.086E-12
DataValue, 2.05, 0.1, 0, 1.3162999999999999E-08, -1.29651E-08, -1.24E-13, 1.3162999999999999E-08, 0.00011473011810331235, 1.5582317331722648E-08, 1.24E-13
DataValue, 2.1, 0.1, 0, 1.4527399999999998E-08, -1.4402999999999998E-08, 5.2800000000000007E-13, 1.4527399999999998E-08, 0.0001205296643984376, 1.4735789212770679E-08, 5.2800000000000007E-13
DataValue, 2.15, 0.1, 0, 1.60958E-08, -1.5862699999999998E-08, -4.72E-13, 1.60958E-08, 0.00012686922400645476, 1.2765053751217853E-08, 4.72E-13
DataValue, 2.2, 0.1, 0, 1.7378599999999998E-08, -1.72962E-08, 5.9400000000000009E-13, 1.7378599999999998E-08, 0.00013182791813572722, 1.144284537973468E-08, 5.9400000000000009E-13
