
SetupTitle, Transfer sat
PrimitiveTest, I/V Sweep
TestParameter, Context.MainFrame, 4155C
TestParameter, Channel.UnitType, SMU, SMU, SMU
TestParameter, Channel.Unit, SMU3:MP, SMU1:MP, SMU4:MP
TestParameter, Channel.IName, ID, IS, IG
TestParameter, Channel.VName, VD, VS, VG
TestParameter, Channel.Mode, V, COMMON, V
TestParameter, Channel.Func, CONST, CONST, VAR1
TestParameter, Channel.Index, 
TestParameter, Channel.Time, 
TestParameter, Measurement.Port.Unit, SMU3:MP, SMU1:MP, SMU4:MP
TestParameter, Measurement.Port.SeriesResistor, NONE, NONE, NONE
TestParameter, Measurement.Port.Filter, ON, ON, ON
TestParameter, Measurement.Primary.Locus, Double
TestParameter, Measurement.Primary.Scale, LINEAR
TestParameter, Measurement.Primary.Start, -2
TestParameter, Measurement.Primary.Stop, 3
TestParameter, Measurement.Primary.Step, 0.05
TestParameter, Measurement.Primary.Compliance, 0.001
TestParameter, Measurement.Primary.PowerCompliance, 0
TestParameter, Measurement.Aborting.Condition, CONTINUE AT ANY
TestParameter, Measurement.PostOutput.Value, START
TestParameter, Measurement.PostOutput.Retention, OFF
TestParameter, Measurement.Bias.Source, 5, 0, -2
TestParameter, Measurement.Bias.Compliance, 0.001, 0.1, 0.001
TestParameter, Measurement.Monitor.Unit, SMU3:MP, SMU1:MP, SMU4:MP
TestParameter, Measurement.Monitor.Adc, HR ADC, HR ADC, HR ADC
TestParameter, Measurement.Monitor.RangingMode, AUTO, AUTO, AUTO
TestParameter, Measurement.Monitor.RangeBoundary, , , 
TestParameter, Measurement.Monitor.RangeRating, BY FULL RANGE, BY FULL RANGE, BY FULL RANGE
TestParameter, Measurement.Monitor.RangeRatingCoeff, 50, 50, 50
TestParameter, Measurement.Timing.Hold, 0.5
TestParameter, Measurement.Timing.Delay, 0.05
TestParameter, Measurement.Adc.HighResolution.AutoZero, OFF
TestParameter, Measurement.Adc.HighResolution.Mode, AUTO
TestParameter, Measurement.Adc.HighResolution.Coeff, 1
TestParameter, Measurement.Ag16440ASelector.SemiconductorRelay.Channel1, DEFAULT
TestParameter, Measurement.Ag16440ASelector.SemiconductorRelay.Channel3, DEFAULT
TestParameter, Function.User.Name, absID, sqrtID, gm2, absIG
TestParameter, Function.User.Unit, A, A, A/V, A
TestParameter, Function.User.Definition, abs(ID), sqrt(abs(ID)), (delta(sqrtID)/delta(VG))^2, abs(IG)
TestParameter, Output.Graph.Enabled, true
TestParameter, Output.Graph.XAxis.Data, VG
TestParameter, Output.Graph.XAxis.Scale, Linear
TestParameter, Output.Graph.XAxis.Left, -5
TestParameter, Output.Graph.XAxis.Right, 7
TestParameter, Output.Graph.YAxis.Data, ID, absIG, gm2
TestParameter, Output.Graph.YAxis.Scale, Log, Log, Linear
TestParameter, Output.Graph.YAxis.Bottom, 1E-14, 1E-14, 0
TestParameter, Output.Graph.YAxis.Top, 0.01, 0.01, 1E-05
TestParameter, Output.Graph.YAxis.Group, , , 
TestParameter, Output.List.Data, VG, IG, VD, ID, VS, IS, sqrtID, gm2, absIG
TestParameter, AutoAnalysis.Interpolation, false
TestParameter, AutoAnalysis.Line1.Enabled, false
TestParameter, AutoAnalysis.Line1.Type, 1
TestParameter, AutoAnalysis.Line1.Fix, True
TestParameter, AutoAnalysis.Line1.YAxis, 0
TestParameter, AutoAnalysis.Line1.Point1.Type, 0
TestParameter, AutoAnalysis.Line1.Point1.XY.X, 
TestParameter, AutoAnalysis.Line1.Point1.XY.Y, 
TestParameter, AutoAnalysis.Line1.Point1.Data.Var, 
TestParameter, AutoAnalysis.Line1.Point1.Data.Condition, 
TestParameter, AutoAnalysis.Line1.Point1.Data.Start, false
TestParameter, AutoAnalysis.Line1.Point1.Data.StartVar, 
TestParameter, AutoAnalysis.Line1.Point1.Data.StartCondition, 
TestParameter, AutoAnalysis.Line1.Point2.Type, 0
TestParameter, AutoAnalysis.Line1.Point2.XY.X, 
TestParameter, AutoAnalysis.Line1.Point2.XY.Y, 
TestParameter, AutoAnalysis.Line1.Point2.Data.Var, 
TestParameter, AutoAnalysis.Line1.Point2.Data.Condition, 
TestParameter, AutoAnalysis.Line1.Point2.Data.Start, false
TestParameter, AutoAnalysis.Line1.Point2.Data.StartVar, 
TestParameter, AutoAnalysis.Line1.Point2.Data.StartCondition, 
TestParameter, AutoAnalysis.Line1.GradientExpr, 0
TestParameter, AutoAnalysis.Line2.Enabled, false
TestParameter, AutoAnalysis.Line2.Type, 1
TestParameter, AutoAnalysis.Line2.Fix, True
TestParameter, AutoAnalysis.Line2.YAxis, 0
TestParameter, AutoAnalysis.Line2.Point1.Type, 0
TestParameter, AutoAnalysis.Line2.Point1.XY.X, 
TestParameter, AutoAnalysis.Line2.Point1.XY.Y, 
TestParameter, AutoAnalysis.Line2.Point1.Data.Var, 
TestParameter, AutoAnalysis.Line2.Point1.Data.Condition, 
TestParameter, AutoAnalysis.Line2.Point1.Data.Start, false
TestParameter, AutoAnalysis.Line2.Point1.Data.StartVar, 
TestParameter, AutoAnalysis.Line2.Point1.Data.StartCondition, 
TestParameter, AutoAnalysis.Line2.Point2.Type, 0
TestParameter, AutoAnalysis.Line2.Point2.XY.X, 
TestParameter, AutoAnalysis.Line2.Point2.XY.Y, 
TestParameter, AutoAnalysis.Line2.Point2.Data.Var, 
TestParameter, AutoAnalysis.Line2.Point2.Data.Condition, 
TestParameter, AutoAnalysis.Line2.Point2.Data.Start, false
TestParameter, AutoAnalysis.Line2.Point2.Data.StartVar, 
TestParameter, AutoAnalysis.Line2.Point2.Data.StartCondition, 
TestParameter, AutoAnalysis.Line2.GradientExpr, 0
TestParameter, AutoAnalysis.Marker.Enabled, false
TestParameter, AutoAnalysis.Marker.Data.Var, 
TestParameter, AutoAnalysis.Marker.Data.Condition, 
TestParameter, AutoAnalysis.Marker.Data.Start, false
TestParameter, AutoAnalysis.Marker.Data.StartVar, 
TestParameter, AutoAnalysis.Marker.Data.StartCondition, 
MetaData, TestRecord.EntryPoint, true
MetaData, TestRecord.RecordTime, 05/02/2019 15:01:04
MetaData, TestRecord.TestTarget, 350-300-20-20
MetaData, TestRecord.IterationIndex, 1
MetaData, TestRecord.Preservation, true
MetaData, TestRecord.Flag, 
MetaData, TestRecord.Remarks, good
MetaData, TestRecord.LinkKey, d71a735d-acf2-4bae-a235-42c3eca86dd6
Dimension1, 202, 202, 202, 202, 202, 202, 202, 202, 202, 202
Dimension2, 1, 1, 1, 1, 1, 1, 1, 1, 1, 1
DataName, VG, VD, VS, ID, IS, IG, absID, sqrtID, gm2, absIG
DataValue, -2, 5, 0, 1.3683000000000001E-11, -6.119E-12, -4.2790000000000006E-12, 1.3683000000000001E-11, 3.699053933102355E-06, 8.1074891598300639E-11, 4.2790000000000006E-12
DataValue, -1.9500000000000002, 5, 0, 1.0555000000000001E-11, -6.384E-12, -3.4460000000000005E-12, 1.0555000000000001E-11, 3.2488459489486417E-06, 3.446630280149089E-12, 3.4460000000000005E-12
DataValue, -1.9000000000000001, 5, 0, 1.2344000000000002E-11, -6.6190000000000008E-12, -5.14E-12, 1.2344000000000002E-11, 3.5134029088620056E-06, 8.7955918781593747E-12, 5.14E-12
DataValue, -1.85, 5, 0, 1.2570000000000002E-11, -6.8330000000000005E-12, -5.098E-12, 1.2570000000000002E-11, 3.5454195802471674E-06, 4.5847685632545815E-14, 5.098E-12
DataValue, -1.8, 5, 0, 1.2194E-11, -5.3360000000000007E-12, -4.3760000000000007E-12, 1.2194E-11, 3.4919908361849979E-06, 1.6115555011164961E-16, 4.3760000000000007E-12
DataValue, -1.75, 5, 0, 1.2561E-11, -6.3650000000000004E-12, -5.132E-12, 1.2561E-11, 3.5441501096877938E-06, 5.892473350224303E-13, 5.132E-12
DataValue, -1.7000000000000002, 5, 0, 1.2736E-11, -6.3060000000000008E-12, -4.296E-12, 1.2736E-11, 3.568753283711274E-06, 4.9463352898494662E-12, 4.296E-12
DataValue, -1.6500000000000001, 5, 0, 1.1034000000000002E-11, -6.847E-12, 1.8780000000000003E-12, 1.1034000000000002E-11, 3.3217465285599384E-06, 1.6750042009104575E-12, 1.8780000000000003E-12
DataValue, -1.6, 5, 0, 1.1829E-11, -6.8530000000000008E-12, -4.625E-12, 1.1829E-11, 3.4393313303605978E-06, 1.3891412311995071E-13, 4.625E-12
DataValue, -1.55, 5, 0, 1.1283E-11, -3.804E-12, -2.775E-12, 1.1283E-11, 3.3590177135585337E-06, 1.1555871567202278E-12, 2.775E-12
DataValue, -1.5, 5, 0, 1.2580000000000002E-11, -4.452E-12, -8.831E-12, 1.2580000000000002E-11, 3.54682957019364E-06, 1.5113201368300198E-12, 8.831E-12
DataValue, -1.4500000000000002, 5, 0, 1.2124000000000001E-11, -5.924E-12, -4.8450000000000005E-12, 1.2124000000000001E-11, 3.4819534747035323E-06, 8.3611362396718618E-13, 4.8450000000000005E-12
DataValue, -1.4000000000000001, 5, 0, 1.3237000000000001E-11, -6.9740000000000008E-12, -8.993000000000001E-12, 1.3237000000000001E-11, 3.6382688190951477E-06, 1.6307913326996392E-12, 8.993000000000001E-12
DataValue, -1.35, 5, 0, 1.1251E-11, -6.939E-12, -2.615E-12, 1.1251E-11, 3.3542510341356386E-06, 1.1054397350326103E-12, 2.615E-12
DataValue, -1.3, 5, 0, 1.2483000000000002E-11, -5.39E-12, -4.2740000000000006E-12, 1.2483000000000002E-11, 3.5331289249049492E-06, 2.5011001642301264E-13, 4.2740000000000006E-12
DataValue, -1.25, 5, 0, 1.1589000000000002E-11, -6.5190000000000008E-12, -5.7910000000000007E-12, 1.1589000000000002E-11, 3.4042620345678448E-06, 6.1602854767263321E-14, 5.7910000000000007E-12
DataValue, -1.2, 5, 0, 1.2659000000000001E-11, -6.468E-12, -5.024E-12, 1.2659000000000001E-11, 3.5579488472995224E-06, 1.4243397911173455E-11, 5.024E-12
DataValue, -1.1500000000000001, 5, 0, 1.4301E-11, -5.169E-12, -4.314E-12, 1.4301E-11, 3.7816662993976612E-06, 2.2417127241890424E-12, 4.314E-12
DataValue, -1.1, 5, 0, 1.1616E-11, -6.844E-12, -4.715E-12, 1.1616E-11, 3.408225344662527E-06, 5.0923212785786042E-11, 4.715E-12
DataValue, -1.05, 5, 0, 9.4130000000000012E-12, -5.364E-12, -3.063E-12, 9.4130000000000012E-12, 3.0680612770934027E-06, 9.868020774990875E-13, 3.063E-12
DataValue, -1, 5, 0, 1.2303E-11, -7.904E-12, -8.196000000000001E-12, 1.2303E-11, 3.507563256735365E-06, 8.500244967271409E-12, 8.196000000000001E-12
DataValue, -0.95000000000000007, 5, 0, 1.1287E-11, -7.574E-12, -3.23E-12, 1.1287E-11, 3.3596130729594444E-06, 2.7480828340262757E-13, 3.23E-12
DataValue, -0.9, 5, 0, 1.1938E-11, -6.3980000000000008E-12, -3.3360000000000003E-12, 1.1938E-11, 3.4551410969741889E-06, 1.3260237873131541E-12, 3.3360000000000003E-12
DataValue, -0.85000000000000009, 5, 0, 1.2074E-11, -7.759E-12, -5.393E-12, 1.2074E-11, 3.47476617918386E-06, 4.6169003293417876E-15, 5.393E-12
DataValue, -0.8, 5, 0, 1.1985000000000001E-11, -6.952E-12, -1.019E-12, 1.1985000000000001E-11, 3.4619358746227523E-06, 4.2545780194590332E-12, 1.019E-12
DataValue, -0.75, 5, 0, 1.3550000000000001E-11, -7.469E-12, -3.146E-12, 1.3550000000000001E-11, 3.6810324638611925E-06, 7.2308940370547587E-13, 3.146E-12
DataValue, -0.70000000000000007, 5, 0, 1.2581E-11, -3.1810000000000003E-12, -1.6910000000000002E-12, 1.2581E-11, 3.54697053836087E-06, 7.627703907030463E-12, 1.6910000000000002E-12
DataValue, -0.65, 5, 0, 1.1593E-11, -1.3159E-11, 3.5330000000000004E-12, 1.1593E-11, 3.404849482723135E-06, 3.160415604450562E-11, 3.5330000000000004E-12
DataValue, -0.6, 5, 0, 8.9090000000000009E-12, -4.286E-12, -4.2690000000000005E-12, 8.9090000000000009E-12, 2.9847948003171007E-06, 2.1832262019380798E-13, 4.2690000000000005E-12
DataValue, -0.55, 5, 0, 1.1277E-11, -7.478E-12, -2.599E-12, 1.1277E-11, 3.3581244765493732E-06, 8.301566179356345E-12, 2.599E-12
DataValue, -0.5, 5, 0, 1.0712E-11, -6.5460000000000006E-12, -9.3E-13, 1.0712E-11, 3.2729191862922615E-06, 3.4973876536800334E-12, 9.3E-13
DataValue, -0.45, 5, 0, 1.2568E-11, -7.4350000000000013E-12, -9.3420000000000012E-12, 1.2568E-11, 3.5451375149632773E-06, 8.8640569277088245E-14, 9.3420000000000012E-12
DataValue, -0.4, 5, 0, 1.0518E-11, -8.378E-12, -6.1640000000000008E-12, 1.0518E-11, 3.2431466201823192E-06, 2.6706741585696747E-12, 6.1640000000000008E-12
DataValue, -0.35000000000000003, 5, 0, 1.1436000000000001E-11, -6.8220000000000006E-12, -5.4620000000000008E-12, 1.1436000000000001E-11, 3.3817155409643786E-06, 1.8130638829089659E-13, 5.4620000000000008E-12
DataValue, -0.3, 5, 0, 1.0796E-11, -8.041000000000001E-12, -2.4330000000000002E-12, 1.0796E-11, 3.2857267080510516E-06, 4.9512026107016545E-14, 2.4330000000000002E-12
DataValue, -0.25, 5, 0, 1.1286E-11, -6.5090000000000006E-12, -4.21E-12, 1.1286E-11, 3.3594642430006604E-06, 4.9648379332661892E-13, 4.21E-12
DataValue, -0.2, 5, 0, 1.1264E-11, -6.613E-12, -1.37E-12, 1.1264E-11, 3.3561883141444851E-06, 4.9403082747656516E-12, 1.37E-12
DataValue, -0.15, 5, 0, 9.8420000000000011E-12, -5.2680000000000006E-12, -4.209E-12, 9.8420000000000011E-12, 3.1371962004312067E-06, 1.1125178590952311E-13, 4.209E-12
DataValue, -0.1, 5, 0, 1.1489000000000002E-11, -7.55E-12, -4.7020000000000008E-12, 1.1489000000000002E-11, 3.3895427420228828E-06, 3.5858566979764859E-12, 4.7020000000000008E-12
DataValue, -0.05, 5, 0, 1.1066000000000002E-11, -8.553E-12, -1.968E-12, 1.1066000000000002E-11, 3.3265597845221423E-06, 1.1386725444991525E-12, 1.968E-12
DataValue, 0, 5, 0, 1.0777E-11, -6.5570000000000004E-12, -1.395E-12, 1.0777E-11, 3.2828341414089138E-06, 8.34259708606063E-14, 1.395E-12
DataValue, 0.05, 5, 0, 1.1259000000000001E-11, -6.2490000000000005E-12, -4.273E-12, 1.1259000000000001E-11, 3.3554433388153048E-06, 1.8597110335896556E-13, 4.273E-12
DataValue, 0.1, 5, 0, 1.1062000000000001E-11, -7.552E-12, -3.897E-12, 1.1062000000000001E-11, 3.3259585084603809E-06, 1.8801946395281824E-12, 3.897E-12
DataValue, 0.15, 5, 0, 1.2198000000000001E-11, -8.223E-12, -2.737E-12, 1.2198000000000001E-11, 3.4925635284129049E-06, 2.492016929258957E-12, 2.737E-12
DataValue, 0.2, 5, 0, 1.2137000000000001E-11, -8.236E-12, -3.15E-12, 1.2137000000000001E-11, 3.4838197427536347E-06, 1.3277152021459904E-11, 3.15E-12
DataValue, 0.25, 5, 0, 1.4876000000000002E-11, -1.0778000000000001E-11, -2.3130000000000003E-12, 1.4876000000000002E-11, 3.8569417937013261E-06, 1.5905689964877659E-10, 2.3130000000000003E-12
DataValue, 0.3, 5, 0, 2.2515000000000003E-11, -1.7544E-11, -3.926E-12, 2.2515000000000003E-11, 4.7449973656473195E-06, 6.6619240063406081E-10, 3.926E-12
DataValue, 0.35000000000000003, 5, 0, 4.1448000000000005E-11, -3.7045E-11, -2.9980000000000004E-12, 4.1448000000000005E-11, 6.43801211555244E-06, 2.1196445798103805E-09, 2.9980000000000004E-12
DataValue, 0.4, 5, 0, 8.7403E-11, -8.1084E-11, -3.0890000000000003E-12, 8.7403E-11, 9.348957161095562E-06, 5.3402159478008464E-09, 3.0890000000000003E-12
DataValue, 0.45, 5, 0, 1.88944E-10, -1.7866400000000002E-10, -3.5420000000000005E-12, 1.88944E-10, 1.3745690233669606E-05, 1.0562971842856118E-08, 3.5420000000000005E-12
DataValue, 0.5, 5, 0, 3.8520300000000005E-10, -3.68764E-10, -2.737E-12, 3.8520300000000005E-10, 1.9626589107636609E-05, 1.8090815422731109E-08, 2.737E-12
DataValue, 0.55, 5, 0, 7.3961700000000005E-10, -7.1019700000000007E-10, -3.0640000000000003E-12, 7.3961700000000005E-10, 2.7195900426351027E-05, 2.530031240563016E-08, 3.0640000000000003E-12
DataValue, 0.6, 5, 0, 1.26257E-09, -1.20698E-09, -3.3520000000000003E-12, 1.26257E-09, 3.5532661031788766E-05, 3.83847457962696E-08, 3.3520000000000003E-12
DataValue, 0.65, 5, 0, 2.18911E-09, -2.15808E-09, -1.86E-12, 2.18911E-09, 4.6787925792879517E-05, 5.85550549909453E-08, 1.86E-12
DataValue, 0.70000000000000007, 5, 0, 3.56777E-09, -3.52299E-09, -1.456E-12, 3.56777E-09, 5.9730812818845853E-05, 7.5144397853749944E-08, 1.456E-12
DataValue, 0.75, 5, 0, 5.5057E-09, -5.4331499999999996E-09, -2.569E-12, 5.5057E-09, 7.4200404311566934E-05, 8.92085003794286E-08, 2.569E-12
DataValue, 0.8, 5, 0, 8.02791E-09, -7.94188E-09, -2.991E-12, 8.02791E-09, 8.9598604899853208E-05, 9.3349289215690892E-08, 2.991E-12
DataValue, 0.85000000000000009, 5, 0, 1.09733E-08, -1.0733E-08, -1.6990000000000001E-12, 1.09733E-08, 0.00010475352022724582, 1.1073277801415173E-07, 1.6990000000000001E-12
DataValue, 0.9, 5, 0, 1.5098299999999997E-08, -1.49843E-08, -1.0120000000000001E-12, 1.5098299999999997E-08, 0.00012287513987784508, 1.4130139755917673E-07, 1.0120000000000001E-12
DataValue, 0.95000000000000007, 5, 0, 2.0261699999999997E-08, -2.01043E-08, -3.5770000000000002E-12, 2.0261699999999997E-08, 0.00014234359838081936, 1.5856058347072843E-07, 3.5770000000000002E-12
DataValue, 1, 5, 0, 2.6469599999999996E-08, -2.6284799999999996E-08, -2.1870000000000003E-12, 2.6469599999999996E-08, 0.00016269480630923654, 1.7331508305688347E-07, 2.1870000000000003E-12
DataValue, 1.05, 5, 0, 3.3846699999999996E-08, -3.36178E-08, -2.783E-12, 3.3846699999999996E-08, 0.00018397472652513985, 1.8878221602491062E-07, 2.783E-12
DataValue, 1.1, 5, 0, 4.2495299999999994E-08, -4.2243099999999995E-08, -3.3940000000000003E-12, 4.2495299999999994E-08, 0.00020614388179133523, 2.0389875091637314E-07, 3.3940000000000003E-12
DataValue, 1.1500000000000001, 5, 0, 5.2500499999999994E-08, -5.2239799999999992E-08, -2.2590000000000004E-12, 5.2500499999999994E-08, 0.00022912987583464535, 2.1707728111056974E-07, 2.2590000000000004E-12
DataValue, 1.2, 5, 0, 6.3875199999999992E-08, -6.3590799999999993E-08, -1.985E-12, 6.3875199999999992E-08, 0.00025273543479298663, 2.2919462794288622E-07, 1.985E-12
DataValue, 1.25, 5, 0, 7.673129999999999E-08, -7.63966E-08, -2.7000000000000002E-12, 7.673129999999999E-08, 0.00027700415159343731, 2.4216818603986872E-07, 2.7000000000000002E-12
DataValue, 1.3, 5, 0, 9.1171399999999985E-08, -9.0786399999999985E-08, -2.5050000000000003E-12, 9.1171399999999985E-08, 0.00030194602166612493, 2.5765096027619481E-07, 2.5050000000000003E-12
DataValue, 1.35, 5, 0, 1.0742889999999998E-07, -1.0691039999999999E-07, -1.711E-12, 1.0742889999999998E-07, 0.00032776348179746928, 2.47476662743229E-07, 1.711E-12
DataValue, 1.4000000000000001, 5, 0, 1.23688E-07, -1.22842E-07, -1.5760000000000002E-12, 1.23688E-07, 0.00035169304798360741, 2.5988762731809804E-07, 1.5760000000000002E-12
DataValue, 1.4500000000000002, 5, 0, 1.43446E-07, -1.42987E-07, -1.224E-12, 1.43446E-07, 0.00037874265669448959, 3.0421642928500993E-07, 1.224E-12
DataValue, 1.5, 5, 0, 1.65526E-07, -1.64975E-07, -1.341E-12, 1.65526E-07, 0.0004068488662882078, 3.2301004431221331E-07, 1.341E-12
DataValue, 1.55, 5, 0, 1.89727E-07, -1.89369E-07, -1.03E-13, 1.89727E-07, 0.00043557662930878186, 3.3117166123461887E-07, 1.03E-13
DataValue, 1.6, 5, 0, 2.15664E-07, -2.1490999999999998E-07, 3.74E-13, 2.15664E-07, 0.00046439638241485044, 3.4239414920967427E-07, 3.74E-13
DataValue, 1.6500000000000001, 5, 0, 2.44126E-07, -2.43486E-07, 1.1E-14, 2.44126E-07, 0.0004940910847202163, 3.4955806536016512E-07, 1.1E-14
DataValue, 1.7000000000000002, 5, 0, 2.74073E-07, -2.73545E-07, 1.6600000000000003E-13, 2.74073E-07, 0.00052351981815400262, 3.5723340682345843E-07, 1.6600000000000003E-13
DataValue, 1.75, 5, 0, 3.06761E-07, -3.0614599999999997E-07, 2.6960000000000002E-12, 3.06761E-07, 0.0005538600906366156, 3.7724593605181745E-07, 2.6960000000000002E-12
DataValue, 1.8, 5, 0, 3.42155E-07, -3.41417E-07, 4.451E-12, 3.42155E-07, 0.00058494016788044234, 3.853906720618894E-07, 4.451E-12
DataValue, 1.85, 5, 0, 3.79382E-07, -3.78952E-07, 7.0220000000000006E-12, 3.79382E-07, 0.00061593993213624333, 4.0090077460860969E-07, 7.0220000000000006E-12
DataValue, 1.9000000000000001, 5, 0, 4.20237E-07, -4.19445E-07, 8.409000000000001E-12, 4.20237E-07, 0.00064825689352293039, 4.1343609478648216E-07, 8.409000000000001E-12
DataValue, 1.9500000000000002, 5, 0, 4.62725E-07, -4.61983E-07, 1.24E-11, 4.62725E-07, 0.00068023892861258678, 4.1657365331262186E-07, 1.24E-11
DataValue, 2, 5, 0, 5.08083E-07, -5.0709E-07, 1.4602E-11, 5.08083E-07, 0.00071279941077416725, 4.2756329296835922E-07, 1.4602E-11
DataValue, 2.05, 5, 0, 5.5596E-07, -5.55093E-07, 1.9167E-11, 5.5596E-07, 0.0007456272527208216, 4.3738538229711587E-07, 1.9167E-11
DataValue, 2.1, 5, 0, 6.06739E-07, -6.06407E-07, 2.5059000000000003E-11, 6.06739E-07, 0.00077893452869929962, 4.51144743441881E-07, 2.5059000000000003E-11
DataValue, 2.15, 5, 0, 6.60635E-07, -6.59807E-07, 3.0624E-11, 6.60635E-07, 0.00081279456198968258, 4.5914476165242621E-07, 3.0624E-11
DataValue, 2.2, 5, 0, 7.16892E-07, -7.15855E-07, 3.7475000000000005E-11, 7.16892E-07, 0.00084669475019040952, 4.7062422272430346E-07, 3.7475000000000005E-11
DataValue, 2.25, 5, 0, 7.7686E-07, -7.75887E-07, 4.6941000000000004E-11, 7.7686E-07, 0.00088139661900871842, 4.8340571880764866E-07, 4.6941000000000004E-11
DataValue, 2.3000000000000003, 5, 0, 8.39463E-07, -8.3856E-07, 5.7494E-11, 8.39463E-07, 0.00091622213463766523, 4.8619909867138977E-07, 5.7494E-11
DataValue, 2.35, 5, 0, 9.04638E-07, -9.04028E-07, 6.9266E-11, 9.04638E-07, 0.00095112459751601423, 4.9608535537570541E-07, 6.9266E-11
