
SetupTitle, Transfer sat
PrimitiveTest, I/V Sweep
TestParameter, Context.MainFrame, 4155C
TestParameter, Channel.UnitType, SMU, SMU, SMU
TestParameter, Channel.Unit, SMU1:MP, SMU3:MP, SMU4:MP
TestParameter, Channel.IName, IS, ID, IG
TestParameter, Channel.VName, VS, VD, VG
TestParameter, Channel.Mode, COMMON, V, V
TestParameter, Channel.Func, CONST, CONST, VAR1
TestParameter, Channel.Index, 
TestParameter, Channel.Time, 
TestParameter, Measurement.Port.Unit, SMU1:MP, SMU3:MP, SMU4:MP
TestParameter, Measurement.Port.SeriesResistor, NONE, NONE, NONE
TestParameter, Measurement.Port.Filter, ON, ON, ON
TestParameter, Measurement.Primary.Locus, Double
TestParameter, Measurement.Primary.Scale, LINEAR
TestParameter, Measurement.Primary.Start, -2
TestParameter, Measurement.Primary.Stop, 3
TestParameter, Measurement.Primary.Step, 0.05
TestParameter, Measurement.Primary.Compliance, 0.001
TestParameter, Measurement.Primary.PowerCompliance, 0
TestParameter, Measurement.Aborting.Condition, CONTINUE AT ANY
TestParameter, Measurement.PostOutput.Value, START
TestParameter, Measurement.PostOutput.Retention, OFF
TestParameter, Measurement.Bias.Source, 0, 5, -2
TestParameter, Measurement.Bias.Compliance, 0.1, 0.001, 0.001
TestParameter, Measurement.Monitor.Unit, SMU3:MP, SMU1:MP, SMU4:MP
TestParameter, Measurement.Monitor.Adc, HR ADC, HR ADC, HR ADC
TestParameter, Measurement.Monitor.RangingMode, AUTO, AUTO, AUTO
TestParameter, Measurement.Monitor.RangeBoundary, , , 
TestParameter, Measurement.Monitor.RangeRating, BY FULL RANGE, BY FULL RANGE, BY FULL RANGE
TestParameter, Measurement.Monitor.RangeRatingCoeff, 50, 50, 50
TestParameter, Measurement.Timing.Hold, 0.5
TestParameter, Measurement.Timing.Delay, 0.05
TestParameter, Measurement.Adc.HighResolution.AutoZero, OFF
TestParameter, Measurement.Adc.HighResolution.Mode, AUTO
TestParameter, Measurement.Adc.HighResolution.Coeff, 1
TestParameter, Measurement.Ag16440ASelector.SemiconductorRelay.Channel1, DEFAULT
TestParameter, Measurement.Ag16440ASelector.SemiconductorRelay.Channel3, DEFAULT
TestParameter, Function.User.Name, absID, sqrtID, gm2, absIG
TestParameter, Function.User.Unit, A, A, A/V, A
TestParameter, Function.User.Definition, abs(ID), sqrt(abs(ID)), (delta(sqrtID)/delta(VG))^2, abs(IG)
TestParameter, Output.Graph.Enabled, true
TestParameter, Output.Graph.XAxis.Data, VG
TestParameter, Output.Graph.XAxis.Scale, Linear
TestParameter, Output.Graph.XAxis.Left, -5
TestParameter, Output.Graph.XAxis.Right, 7
TestParameter, Output.Graph.YAxis.Data, ID, absIG, gm2
TestParameter, Output.Graph.YAxis.Scale, Log, Log, Linear
TestParameter, Output.Graph.YAxis.Bottom, 1E-14, 1E-14, 0
TestParameter, Output.Graph.YAxis.Top, 0.01, 0.01, 1E-05
TestParameter, Output.Graph.YAxis.Group, , , 
TestParameter, Output.List.Data, VG, IG, VD, ID, VS, IS, sqrtID, gm2, absIG
TestParameter, AutoAnalysis.Interpolation, false
TestParameter, AutoAnalysis.Line1.Enabled, false
TestParameter, AutoAnalysis.Line1.Type, 1
TestParameter, AutoAnalysis.Line1.Fix, True
TestParameter, AutoAnalysis.Line1.YAxis, 0
TestParameter, AutoAnalysis.Line1.Point1.Type, 0
TestParameter, AutoAnalysis.Line1.Point1.XY.X, 
TestParameter, AutoAnalysis.Line1.Point1.XY.Y, 
TestParameter, AutoAnalysis.Line1.Point1.Data.Var, 
TestParameter, AutoAnalysis.Line1.Point1.Data.Condition, 
TestParameter, AutoAnalysis.Line1.Point1.Data.Start, false
TestParameter, AutoAnalysis.Line1.Point1.Data.StartVar, 
TestParameter, AutoAnalysis.Line1.Point1.Data.StartCondition, 
TestParameter, AutoAnalysis.Line1.Point2.Type, 0
TestParameter, AutoAnalysis.Line1.Point2.XY.X, 
TestParameter, AutoAnalysis.Line1.Point2.XY.Y, 
TestParameter, AutoAnalysis.Line1.Point2.Data.Var, 
TestParameter, AutoAnalysis.Line1.Point2.Data.Condition, 
TestParameter, AutoAnalysis.Line1.Point2.Data.Start, false
TestParameter, AutoAnalysis.Line1.Point2.Data.StartVar, 
TestParameter, AutoAnalysis.Line1.Point2.Data.StartCondition, 
TestParameter, AutoAnalysis.Line1.GradientExpr, 0
TestParameter, AutoAnalysis.Line2.Enabled, false
TestParameter, AutoAnalysis.Line2.Type, 1
TestParameter, AutoAnalysis.Line2.Fix, True
TestParameter, AutoAnalysis.Line2.YAxis, 0
TestParameter, AutoAnalysis.Line2.Point1.Type, 0
TestParameter, AutoAnalysis.Line2.Point1.XY.X, 
TestParameter, AutoAnalysis.Line2.Point1.XY.Y, 
TestParameter, AutoAnalysis.Line2.Point1.Data.Var, 
TestParameter, AutoAnalysis.Line2.Point1.Data.Condition, 
TestParameter, AutoAnalysis.Line2.Point1.Data.Start, false
TestParameter, AutoAnalysis.Line2.Point1.Data.StartVar, 
TestParameter, AutoAnalysis.Line2.Point1.Data.StartCondition, 
TestParameter, AutoAnalysis.Line2.Point2.Type, 0
TestParameter, AutoAnalysis.Line2.Point2.XY.X, 
TestParameter, AutoAnalysis.Line2.Point2.XY.Y, 
TestParameter, AutoAnalysis.Line2.Point2.Data.Var, 
TestParameter, AutoAnalysis.Line2.Point2.Data.Condition, 
TestParameter, AutoAnalysis.Line2.Point2.Data.Start, false
TestParameter, AutoAnalysis.Line2.Point2.Data.StartVar, 
TestParameter, AutoAnalysis.Line2.Point2.Data.StartCondition, 
TestParameter, AutoAnalysis.Line2.GradientExpr, 0
TestParameter, AutoAnalysis.Marker.Enabled, false
TestParameter, AutoAnalysis.Marker.Data.Var, 
TestParameter, AutoAnalysis.Marker.Data.Condition, 
TestParameter, AutoAnalysis.Marker.Data.Start, false
TestParameter, AutoAnalysis.Marker.Data.StartVar, 
TestParameter, AutoAnalysis.Marker.Data.StartCondition, 
MetaData, TestRecord.EntryPoint, true
MetaData, TestRecord.RecordTime, 05/02/2019 18:50:39
MetaData, TestRecord.TestTarget, 350-300-100-20
MetaData, TestRecord.IterationIndex, 1
MetaData, TestRecord.Preservation, true
MetaData, TestRecord.Flag, 
MetaData, TestRecord.Remarks, good
MetaData, TestRecord.LinkKey, 64443153-8638-495e-af25-8dd578836c0f
Dimension1, 202, 202, 202, 202, 202, 202, 202, 202, 202, 202
Dimension2, 1, 1, 1, 1, 1, 1, 1, 1, 1, 1
DataName, VG, VS, VD, ID, IS, IG, absID, sqrtID, gm2, absIG
DataValue, -2, 0, 5, 2.361E-12, -2.3790000000000003E-12, -2.411E-12, 2.361E-12, 1.536554587380481E-06, 3.35674361254326E-10, 2.411E-12
DataValue, -1.9500000000000002, 0, 5, 3.8500000000000003E-13, 1.389E-12, 7.717E-12, 3.8500000000000003E-13, 6.2048368229954285E-07, 6.1575799437499171E-12, 7.717E-12
DataValue, -1.9000000000000001, 0, 5, 1.6600000000000002E-12, 1.1741E-11, -1.0647E-11, 1.6600000000000002E-12, 1.2884098726725127E-06, 1.0018717734696906E-10, 1.0647E-11
DataValue, -1.85, 0, 5, 2.6290000000000002E-12, -4.515E-12, -6.4700000000000007E-13, 2.6290000000000002E-12, 1.6214191315017841E-06, 2.0407792348610124E-11, 6.4700000000000007E-13
DataValue, -1.8, 0, 5, 7E-13, -7.05E-13, 7.501E-12, 7E-13, 8.3666002653407557E-07, 3.2347159941111163E-14, 7.501E-12
DataValue, -1.75, 0, 5, -2.5710000000000003E-12, -6.410000000000001E-13, 1.1818000000000002E-11, 2.5710000000000003E-12, 1.6034338152851836E-06, 2.2576371732558837E-12, 1.1818000000000002E-11
DataValue, -1.7000000000000002, 0, 5, -9.74E-13, -1.473E-12, 3.062E-12, 9.74E-13, 9.8691438331802636E-07, 5.4841217506493179E-13, 3.062E-12
DataValue, -1.6500000000000001, 0, 5, 2.339E-12, -7.1E-14, -1.7638000000000002E-11, 2.339E-12, 1.5293789589241771E-06, 2.7152623745970828E-11, 1.7638000000000002E-11
DataValue, -1.6, 0, 5, -2.17E-13, -4.462E-12, 4.2560000000000004E-12, 2.17E-13, 4.6583258795408467E-07, 6.4633863340519565E-12, 4.2560000000000004E-12
DataValue, -1.55, 0, 5, 1.6260000000000001E-12, 4.11E-13, -2.9800000000000002E-12, 1.6260000000000001E-12, 1.2751470503436064E-06, 3.5558165330057517E-13, 2.9800000000000002E-12
DataValue, -1.5, 0, 5, 1.65E-13, -4.0770000000000005E-12, 1.0147E-11, 1.65E-13, 4.0620192023179803E-07, 1.032872739541839E-10, 1.0147E-11
DataValue, -1.4500000000000002, 0, 5, 6.7E-14, -1.5530000000000002E-12, -2.967E-12, 6.7E-14, 2.588435821108957E-07, 5.220267179464837E-11, 2.967E-12
DataValue, -1.4000000000000001, 0, 5, 1.274E-12, -1.303E-12, 2.207E-12, 1.274E-12, 1.1287160847617969E-06, 1.7526933410378816E-11, 2.207E-12
DataValue, -1.35, 0, 5, 4.5900000000000006E-13, 1.205E-12, 1.1600000000000001E-12, 4.5900000000000006E-13, 6.77495387438173E-07, 4.5019986851581471E-12, 1.1600000000000001E-12
DataValue, -1.3, 0, 5, 1.7980000000000002E-12, -1.0600000000000001E-12, -3.414E-12, 1.7980000000000002E-12, 1.3408952233489387E-06, 1.9038462207846776E-12, 3.414E-12
DataValue, -1.25, 0, 5, 6.6500000000000009E-13, 2.31E-12, -4.8200000000000007E-13, 6.6500000000000009E-13, 8.1547532151500462E-07, 5.6941813833834483E-12, 4.8200000000000007E-13
DataValue, -1.2, 0, 5, 1.2150000000000002E-12, 1.86E-12, -5.5130000000000004E-12, 1.2150000000000002E-12, 1.1022703842524302E-06, 4.0284038593586772E-11, 5.5130000000000004E-12
DataValue, -1.1500000000000001, 0, 5, 2.1030000000000002E-12, -2.8650000000000004E-12, -2.219E-12, 2.1030000000000002E-12, 1.4501724035437994E-06, 1.335062326989374E-11, 2.219E-12
DataValue, -1.1, 0, 5, 5.43E-13, -1.258E-12, 2.261E-12, 5.43E-13, 7.3688533707762162E-07, 5.469177600105318E-11, 2.261E-12
DataValue, -1.05, 0, 5, 5.0500000000000007E-13, 1.3610000000000002E-12, -9.6000000000000007E-14, 5.0500000000000007E-13, 7.1063352017759482E-07, 2.7152378938803939E-12, 9.6000000000000007E-14
DataValue, -1, 0, 5, 8.1300000000000007E-13, 2.55E-13, -5.0000000000000008E-15, 8.1300000000000007E-13, 9.0166512630798806E-07, 2.4575581699355711E-13, 5.0000000000000008E-15
DataValue, -0.95000000000000007, 0, 5, 4.3700000000000006E-13, 6.16E-13, -7.53E-13, 4.3700000000000006E-13, 6.6105975524153645E-07, 2.8352363772079772E-12, 7.53E-13
DataValue, -0.9, 0, 5, 1.145E-12, 2.4000000000000002E-14, -7.76E-13, 1.145E-12, 1.0700467279516349E-06, 1.2241629517639271E-11, 7.76E-13
DataValue, -0.85000000000000009, 0, 5, 1.022E-12, -8.300000000000001E-13, -1.4500000000000001E-13, 1.022E-12, 1.010940156488009E-06, 3.4080476642873366E-12, 1.4500000000000001E-13
DataValue, -0.8, 0, 5, 7.8400000000000009E-13, 1E-15, 8.760000000000001E-13, 7.8400000000000009E-13, 8.8543774484714628E-07, 2.4504703334912105E-12, 8.760000000000001E-13
DataValue, -0.75, 0, 5, 7.3E-13, -1.3200000000000002E-13, 4.189E-12, 7.3E-13, 8.544003745317531E-07, 5.0004073323979607E-12, 4.189E-12
DataValue, -0.70000000000000007, 0, 5, -1.23E-12, -2.0200000000000002E-13, 1.856E-12, 1.23E-12, 1.1090536506409417E-06, 3.136560796062986E-12, 1.856E-12
DataValue, -0.65, 0, 5, 1.0640000000000001E-12, 6.6000000000000009E-14, 9.59E-13, 1.0640000000000001E-12, 1.03150375665821E-06, 3.6444083753161374E-12, 9.59E-13
DataValue, -0.6, 0, 5, 8.43E-13, 7.1800000000000007E-13, 3.7270000000000006E-12, 8.43E-13, 9.1815031449104239E-07, 1.0848075608226729E-11, 3.7270000000000006E-12
DataValue, -0.55, 0, 5, 4.93E-13, -3.9100000000000005E-13, -2.641E-12, 4.93E-13, 7.0213958726167839E-07, 1.235489496881991E-11, 2.641E-12
DataValue, -0.5, 0, 5, 1.6120000000000002E-12, -1.1500000000000002E-12, 1.19E-13, 1.6120000000000002E-12, 1.2696456198483104E-06, 2.9076966524787638E-11, 1.19E-13
DataValue, -0.45, 0, 5, -1.5410000000000002E-12, 7.03E-13, -1.2900000000000002E-12, 1.5410000000000002E-12, 1.2413702106946179E-06, 1.7555083981778541E-12, 1.2900000000000002E-12
DataValue, -0.4, 0, 5, 1.9660000000000003E-12, -8.1000000000000008E-13, -3.9100000000000005E-13, 1.9660000000000003E-12, 1.4021412197064888E-06, 2.6213059554257207E-11, 3.9100000000000005E-13
DataValue, -0.35000000000000003, 0, 5, 5.3200000000000006E-13, -3.5700000000000004E-13, 6.85E-13, 5.3200000000000006E-13, 7.2938330115241876E-07, 3.4779017647627525E-11, 6.85E-13
DataValue, -0.3, 0, 5, 6.6E-13, -2.81E-13, 7.6400000000000008E-13, 6.6E-13, 8.1240384046359606E-07, 1.9158846079420809E-14, 7.6400000000000008E-13
DataValue, -0.25, 0, 5, 5.12E-13, 5.35E-13, -4.5400000000000003E-13, 5.12E-13, 7.1554175279993274E-07, 7.2750870894570926E-12, 4.5400000000000003E-13
DataValue, -0.2, 0, 5, 1.1710000000000002E-12, 1.22E-13, -9.26E-13, 1.1710000000000002E-12, 1.0821275340735029E-06, 9.067519658837229E-14, 9.26E-13
DataValue, -0.15, 0, 5, 5.5600000000000005E-13, -6.4600000000000007E-13, 3.65E-13, 5.5600000000000005E-13, 7.4565407529229E-07, 5.2459104585741456E-13, 3.65E-13
DataValue, -0.1, 0, 5, 1.333E-12, -1.065E-12, 5.46E-13, 1.333E-12, 1.1545561917897284E-06, 1.1633840669928885E-11, 5.46E-13
DataValue, -0.05, 0, 5, 1.1810000000000001E-12, -3.2200000000000004E-13, 1.2130000000000002E-12, 1.1810000000000001E-12, 1.0867382389517727E-06, 2.0655278600274031E-11, 1.2130000000000002E-12
DataValue, 0, 0, 5, 2.5890000000000004E-12, -1.496E-12, 1.5180000000000002E-12, 2.5890000000000004E-12, 1.6090369790654286E-06, 1.192012777208369E-10, 1.5180000000000002E-12
DataValue, 0.05, 0, 5, 4.746E-12, -4.446E-12, -3.8E-14, 4.746E-12, 2.1785316155612707E-06, 2.9359523008920316E-10, 3.8E-14
DataValue, 0.1, 0, 5, 1.1039000000000001E-11, -1.0165000000000001E-11, -9.0800000000000007E-13, 1.1039000000000001E-11, 3.3224990594430576E-06, 8.70431970963025E-10, 9.0800000000000007E-13
DataValue, 0.15, 0, 5, 2.6305000000000003E-11, -2.4192E-11, -1.23E-13, 2.6305000000000003E-11, 5.12884002480093E-06, 2.0659023000712765E-09, 1.23E-13
DataValue, 0.2, 0, 5, 6.1901000000000009E-11, -5.8503E-11, -5.0500000000000007E-13, 6.1901000000000009E-11, 7.86771885618697E-06, 4.8113635269321621E-09, 5.0500000000000007E-13
DataValue, 0.25, 0, 5, 1.4557000000000002E-10, -1.3667100000000001E-10, 1.341E-12, 1.4557000000000002E-10, 1.2065239326262866E-05, 1.0062088439308736E-08, 1.341E-12
DataValue, 0.3, 0, 5, 3.20364E-10, -3.04304E-10, -1.7220000000000001E-12, 3.20364E-10, 1.7898715037677983E-05, 1.9514872680799011E-08, 1.7220000000000001E-12
DataValue, 0.35000000000000003, 0, 5, 6.7781100000000007E-10, -6.47241E-10, -2.119E-12, 6.7781100000000007E-10, 2.603480362898864E-05, 3.241114476406268E-08, 2.119E-12
DataValue, 0.4, 0, 5, 1.28894E-09, -1.23002E-09, 1.147E-12, 1.28894E-09, 3.5901810539302892E-05, 6.02546057185247E-08, 1.147E-12
DataValue, 0.45, 0, 5, 2.5585E-09, -2.5151E-09, -5.0300000000000008E-13, 2.5585E-09, 5.05816172141619E-05, 1.0858069170222729E-07, 5.0300000000000008E-13
DataValue, 0.5, 0, 5, 4.74079E-09, -4.6646E-09, 6.78E-13, 4.74079E-09, 6.88533949780256E-05, 1.587464032867253E-07, 6.78E-13
DataValue, 0.55, 0, 5, 8.17661E-09, -8.06135E-09, 2.059E-12, 8.17661E-09, 9.04246094821537E-05, 1.9334706260781036E-07, 2.059E-12
DataValue, 0.6, 0, 5, 1.27294E-08, -1.2411899999999999E-08, 9.8700000000000014E-13, 1.27294E-08, 0.00011282464269830417, 2.6368804898004858E-07, 9.8700000000000014E-13
DataValue, 0.65, 0, 5, 2.01002E-08, -1.9902899999999998E-08, -6.83E-13, 2.01002E-08, 0.00014177517413143954, 3.7816216794983264E-07, 6.83E-13
DataValue, 0.70000000000000007, 0, 5, 3.0387299999999996E-08, -3.0078999999999994E-08, -2.8270000000000004E-12, 3.0387299999999996E-08, 0.00017431953418937303, 4.6142386960596109E-07, 2.8270000000000004E-12
DataValue, 0.75, 0, 5, 4.3975499999999996E-08, -4.3564499999999993E-08, 1.826E-12, 4.3975499999999996E-08, 0.0002097033619186874, 5.3150003355307665E-07, 1.826E-12
DataValue, 0.8, 0, 5, 6.11195E-08, -6.063799999999999E-08, 2.1400000000000002E-13, 6.11195E-08, 0.00024722358301747834, 6.1574084205891381E-07, 2.1400000000000002E-13
DataValue, 0.85000000000000009, 0, 5, 8.3043399999999993E-08, -8.2332299999999989E-08, -4.2800000000000004E-13, 8.3043399999999993E-08, 0.00028817251777364195, 6.6062889422465E-07, 4.2800000000000004E-13
DataValue, 0.9, 0, 5, 1.07914E-07, -1.06384E-07, 2.223E-12, 1.07914E-07, 0.00032850266361172779, 7.5077786862308426E-07, 2.223E-12
DataValue, 0.95000000000000007, 0, 5, 1.4049E-07, -1.39715E-07, -1.379E-12, 1.4049E-07, 0.00037481995677925156, 9.1062313625639706E-07, 1.379E-12
DataValue, 1, 0, 5, 1.79716E-07, -1.78537E-07, 3.0100000000000003E-13, 1.79716E-07, 0.00042392923937846044, 1.0076355865770205E-06, 3.0100000000000003E-13
DataValue, 1.05, 0, 5, 2.25816E-07, -2.2457599999999999E-07, 1.6260000000000001E-12, 2.25816E-07, 0.00047520101009993653, 1.0933609505690259E-06, 1.6260000000000001E-12
DataValue, 1.1, 0, 5, 2.79305E-07, -2.7792E-07, 2.34E-13, 2.79305E-07, 0.00052849314092048535, 1.1779338731352789E-06, 2.34E-13
DataValue, 1.1500000000000001, 0, 5, 3.40745E-07, -3.39219E-07, -8.2700000000000011E-13, 3.40745E-07, 0.0005837336721485236, 1.2630950874076593E-06, 8.2700000000000011E-13
DataValue, 1.2, 0, 5, 4.1072799999999997E-07, -4.09082E-07, 3.321E-12, 4.1072799999999997E-07, 0.0006408806441140191, 1.3563899874984448E-06, 3.321E-12
DataValue, 1.25, 0, 5, 4.90277E-07, -4.88526E-07, 1.5510000000000002E-12, 4.90277E-07, 0.00070019782918829447, 1.4582268756221409E-06, 1.5510000000000002E-12
DataValue, 1.3, 0, 5, 5.80092E-07, -5.77714E-07, 2.9E-12, 5.80092E-07, 0.00076163770915048574, 1.5456419761529245E-06, 2.9E-12
DataValue, 1.35, 0, 5, 6.79836E-07, -6.77302E-07, -4.9660000000000004E-12, 6.79836E-07, 0.0008245216795209208, 1.6301897009911812E-06, 4.9660000000000004E-12
DataValue, 1.4000000000000001, 0, 5, 7.90884E-07, -7.88559E-07, -3.342E-12, 7.90884E-07, 0.000889316591546565, 1.7121442271720645E-06, 3.342E-12
DataValue, 1.4500000000000002, 0, 5, 9.12733E-07, -9.1035E-07, 2.1490000000000002E-12, 9.12733E-07, 0.00095537060871684763, 1.8045815996054815E-06, 2.1490000000000002E-12
DataValue, 1.5, 0, 5, 1.047862E-06, -1.045336E-06, 4.7740000000000005E-12, 1.047862E-06, 0.0010236513078192202, 1.8048565724935444E-06, 4.7740000000000005E-12
DataValue, 1.55, 0, 5, 1.1874800000000002E-06, -1.1834700000000002E-06, 2.0540000000000003E-12, 1.1874800000000002E-06, 0.001089715559217175, 1.8915444918997914E-06, 2.0540000000000003E-12
DataValue, 1.6, 0, 5, 1.3483500000000002E-06, -1.3462100000000002E-06, 4.0240000000000006E-12, 1.3483500000000002E-06, 0.0011611847398239439, 2.0953123357100521E-06, 4.0240000000000006E-12
DataValue, 1.6500000000000001, 0, 5, 1.5239100000000002E-06, -1.5210400000000002E-06, -2.4010000000000004E-12, 1.5239100000000002E-06, 0.001234467496534437, 2.1771383658770417E-06, 2.4010000000000004E-12
DataValue, 1.7000000000000002, 0, 5, 1.71279E-06, -1.7096800000000002E-06, 3.258E-12, 1.71279E-06, 0.00130873603144408, 2.2429598019675057E-06, 3.258E-12
DataValue, 1.75, 0, 5, 1.9161E-06, -1.9136800000000003E-06, -6.7580000000000009E-12, 1.9161E-06, 0.0013842326394071195, 2.3259303814410463E-06, 6.7580000000000009E-12
DataValue, 1.8, 0, 5, 2.13524E-06, -2.13228E-06, 1.159E-12, 2.13524E-06, 0.0014612460436216758, 2.3897554194548695E-06, 1.159E-12
DataValue, 1.85, 0, 5, 2.36797E-06, -2.3650200000000004E-06, 4.6000000000000006E-12, 2.36797E-06, 0.0015388209772419922, 2.446688486462545E-06, 4.6000000000000006E-12
DataValue, 1.9000000000000001, 0, 5, 2.6168400000000003E-06, -2.61418E-06, 4.4550000000000007E-12, 2.6168400000000003E-06, 0.0016176649838579064, 2.5213045317015152E-06, 4.4550000000000007E-12
DataValue, 1.9500000000000002, 0, 5, 2.8818700000000003E-06, -2.8794000000000003E-06, -4.5700000000000007E-13, 2.8818700000000003E-06, 0.0016976071394760332, 2.581978984279656E-06, 4.5700000000000007E-13
DataValue, 2, 0, 5, 3.16253E-06, -3.15877E-06, 1.6470000000000002E-12, 3.16253E-06, 0.0017783503591812272, 2.6243240953924925E-06, 1.6470000000000002E-12
DataValue, 2.05, 0, 5, 3.4581300000000004E-06, -3.4559800000000003E-06, 4.347E-12, 3.4581300000000004E-06, 0.0018596047967242933, 2.6887986276162827E-06, 4.347E-12
DataValue, 2.1, 0, 5, 3.7726300000000005E-06, -3.76935E-06, 3.3990000000000004E-12, 3.7726300000000005E-06, 0.0019423259252761881, 2.7634331080953826E-06, 3.3990000000000004E-12
DataValue, 2.15, 0, 5, 4.10403E-06, -4.1016500000000008E-06, 4.1500000000000005E-13, 4.10403E-06, 0.0020258405662835367, 2.814400497355355E-06, 4.1500000000000005E-13
DataValue, 2.2, 0, 5, 4.4524700000000006E-06, -4.45066E-06, 1.4260000000000002E-12, 4.4524700000000006E-06, 0.0021100876759035394, 2.8677754450098481E-06, 1.4260000000000002E-12
DataValue, 2.25, 0, 5, 4.8188400000000006E-06, -4.8157900000000007E-06, 9.42E-13, 4.8188400000000006E-06, 0.0021951856413524578, 2.9160016710663946E-06, 9.42E-13
DataValue, 2.3000000000000003, 0, 5, 5.2022800000000004E-06, -5.2001E-06, 2.6250000000000002E-12, 5.2022800000000004E-06, 0.0022808507184820317, 2.9546383279082449E-06, 2.6250000000000002E-12
