
SetupTitle, Transfer sat
PrimitiveTest, I/V Sweep
TestParameter, Context.MainFrame, 4155C
TestParameter, Channel.UnitType, SMU, SMU, SMU
TestParameter, Channel.Unit, SMU1:MP, SMU3:MP, SMU4:MP
TestParameter, Channel.IName, IS, ID, IG
TestParameter, Channel.VName, VS, VD, VG
TestParameter, Channel.Mode, COMMON, V, V
TestParameter, Channel.Func, CONST, CONST, VAR1
TestParameter, Channel.Index, 
TestParameter, Channel.Time, 
TestParameter, Measurement.Port.Unit, SMU1:MP, SMU3:MP, SMU4:MP
TestParameter, Measurement.Port.SeriesResistor, NONE, NONE, NONE
TestParameter, Measurement.Port.Filter, ON, ON, ON
TestParameter, Measurement.Primary.Locus, Double
TestParameter, Measurement.Primary.Scale, LINEAR
TestParameter, Measurement.Primary.Start, -2
TestParameter, Measurement.Primary.Stop, 3
TestParameter, Measurement.Primary.Step, 0.05
TestParameter, Measurement.Primary.Compliance, 0.001
TestParameter, Measurement.Primary.PowerCompliance, 0
TestParameter, Measurement.Aborting.Condition, CONTINUE AT ANY
TestParameter, Measurement.PostOutput.Value, START
TestParameter, Measurement.PostOutput.Retention, OFF
TestParameter, Measurement.Bias.Source, 0, 5, -2
TestParameter, Measurement.Bias.Compliance, 0.1, 0.001, 0.001
TestParameter, Measurement.Monitor.Unit, SMU3:MP, SMU1:MP, SMU4:MP
TestParameter, Measurement.Monitor.Adc, HR ADC, HR ADC, HR ADC
TestParameter, Measurement.Monitor.RangingMode, AUTO, AUTO, AUTO
TestParameter, Measurement.Monitor.RangeBoundary, , , 
TestParameter, Measurement.Monitor.RangeRating, BY FULL RANGE, BY FULL RANGE, BY FULL RANGE
TestParameter, Measurement.Monitor.RangeRatingCoeff, 50, 50, 50
TestParameter, Measurement.Timing.Hold, 0.5
TestParameter, Measurement.Timing.Delay, 0.05
TestParameter, Measurement.Adc.HighResolution.AutoZero, OFF
TestParameter, Measurement.Adc.HighResolution.Mode, AUTO
TestParameter, Measurement.Adc.HighResolution.Coeff, 1
TestParameter, Measurement.Ag16440ASelector.SemiconductorRelay.Channel1, DEFAULT
TestParameter, Measurement.Ag16440ASelector.SemiconductorRelay.Channel3, DEFAULT
TestParameter, Function.User.Name, absID, sqrtID, gm2, absIG
TestParameter, Function.User.Unit, A, A, A/V, A
TestParameter, Function.User.Definition, abs(ID), sqrt(abs(ID)), (delta(sqrtID)/delta(VG))^2, abs(IG)
TestParameter, Output.Graph.Enabled, true
TestParameter, Output.Graph.XAxis.Data, VG
TestParameter, Output.Graph.XAxis.Scale, Linear
TestParameter, Output.Graph.XAxis.Left, -5
TestParameter, Output.Graph.XAxis.Right, 7
TestParameter, Output.Graph.YAxis.Data, ID, absIG, gm2
TestParameter, Output.Graph.YAxis.Scale, Log, Log, Linear
TestParameter, Output.Graph.YAxis.Bottom, 1E-14, 1E-14, 0
TestParameter, Output.Graph.YAxis.Top, 0.01, 0.01, 1E-05
TestParameter, Output.Graph.YAxis.Group, , , 
TestParameter, Output.List.Data, VG, IG, VD, ID, VS, IS, sqrtID, gm2, absIG
TestParameter, AutoAnalysis.Interpolation, false
TestParameter, AutoAnalysis.Line1.Enabled, false
TestParameter, AutoAnalysis.Line1.Type, 1
TestParameter, AutoAnalysis.Line1.Fix, True
TestParameter, AutoAnalysis.Line1.YAxis, 0
TestParameter, AutoAnalysis.Line1.Point1.Type, 0
TestParameter, AutoAnalysis.Line1.Point1.XY.X, 
TestParameter, AutoAnalysis.Line1.Point1.XY.Y, 
TestParameter, AutoAnalysis.Line1.Point1.Data.Var, 
TestParameter, AutoAnalysis.Line1.Point1.Data.Condition, 
TestParameter, AutoAnalysis.Line1.Point1.Data.Start, false
TestParameter, AutoAnalysis.Line1.Point1.Data.StartVar, 
TestParameter, AutoAnalysis.Line1.Point1.Data.StartCondition, 
TestParameter, AutoAnalysis.Line1.Point2.Type, 0
TestParameter, AutoAnalysis.Line1.Point2.XY.X, 
TestParameter, AutoAnalysis.Line1.Point2.XY.Y, 
TestParameter, AutoAnalysis.Line1.Point2.Data.Var, 
TestParameter, AutoAnalysis.Line1.Point2.Data.Condition, 
TestParameter, AutoAnalysis.Line1.Point2.Data.Start, false
TestParameter, AutoAnalysis.Line1.Point2.Data.StartVar, 
TestParameter, AutoAnalysis.Line1.Point2.Data.StartCondition, 
TestParameter, AutoAnalysis.Line1.GradientExpr, 0
TestParameter, AutoAnalysis.Line2.Enabled, false
TestParameter, AutoAnalysis.Line2.Type, 1
TestParameter, AutoAnalysis.Line2.Fix, True
TestParameter, AutoAnalysis.Line2.YAxis, 0
TestParameter, AutoAnalysis.Line2.Point1.Type, 0
TestParameter, AutoAnalysis.Line2.Point1.XY.X, 
TestParameter, AutoAnalysis.Line2.Point1.XY.Y, 
TestParameter, AutoAnalysis.Line2.Point1.Data.Var, 
TestParameter, AutoAnalysis.Line2.Point1.Data.Condition, 
TestParameter, AutoAnalysis.Line2.Point1.Data.Start, false
TestParameter, AutoAnalysis.Line2.Point1.Data.StartVar, 
TestParameter, AutoAnalysis.Line2.Point1.Data.StartCondition, 
TestParameter, AutoAnalysis.Line2.Point2.Type, 0
TestParameter, AutoAnalysis.Line2.Point2.XY.X, 
TestParameter, AutoAnalysis.Line2.Point2.XY.Y, 
TestParameter, AutoAnalysis.Line2.Point2.Data.Var, 
TestParameter, AutoAnalysis.Line2.Point2.Data.Condition, 
TestParameter, AutoAnalysis.Line2.Point2.Data.Start, false
TestParameter, AutoAnalysis.Line2.Point2.Data.StartVar, 
TestParameter, AutoAnalysis.Line2.Point2.Data.StartCondition, 
TestParameter, AutoAnalysis.Line2.GradientExpr, 0
TestParameter, AutoAnalysis.Marker.Enabled, false
TestParameter, AutoAnalysis.Marker.Data.Var, 
TestParameter, AutoAnalysis.Marker.Data.Condition, 
TestParameter, AutoAnalysis.Marker.Data.Start, false
TestParameter, AutoAnalysis.Marker.Data.StartVar, 
TestParameter, AutoAnalysis.Marker.Data.StartCondition, 
MetaData, TestRecord.EntryPoint, true
MetaData, TestRecord.RecordTime, 05/02/2019 19:08:23
MetaData, TestRecord.TestTarget, 350-300-2-2
MetaData, TestRecord.IterationIndex, 2
MetaData, TestRecord.Preservation, true
MetaData, TestRecord.Flag, 
MetaData, TestRecord.Remarks, bad
MetaData, TestRecord.LinkKey, e390d415-7a5e-4914-ad11-b2344f3e2dc5
Dimension1, 202, 202, 202, 202, 202, 202, 202, 202, 202, 202
Dimension2, 1, 1, 1, 1, 1, 1, 1, 1, 1, 1
DataName, VG, VS, VD, ID, IS, IG, absID, sqrtID, gm2, absIG
DataValue, -2, 0, 5, 0.001000173, -0.001000164, 1.918E-12, 0.001000173, 0.031625511853565311, 0, 1.918E-12
DataValue, -1.9500000000000002, 0, 5, 0.001000173, -0.001000166, -2.256E-12, 0.001000173, 0.031625511853565311, 2.4995663261732603E-14, 2.256E-12
DataValue, -1.9000000000000001, 0, 5, 0.0010001740000000002, -0.001000168, 8.6300000000000006E-13, 0.0010001740000000002, 0.031625527663582155, 2.4995663261732492E-14, 8.6300000000000006E-13
DataValue, -1.85, 0, 5, 0.0010001740000000002, -0.001000166, -1.0480000000000002E-12, 0.0010001740000000002, 0.031625527663582155, 2.4995663261732492E-14, 1.0480000000000002E-12
DataValue, -1.8, 0, 5, 0.001000173, -0.0010001670000000002, -4.604E-12, 0.001000173, 0.031625511853565311, 0, 4.604E-12
DataValue, -1.75, 0, 5, 0.0010001740000000002, -0.0010001670000000002, 5.143E-12, 0.0010001740000000002, 0.031625527663582155, 0, 5.143E-12
DataValue, -1.7000000000000002, 0, 5, 0.001000173, -0.001000166, -1.1496E-11, 0.001000173, 0.031625511853565311, 2.4995663261732603E-14, 1.1496E-11
DataValue, -1.6500000000000001, 0, 5, 0.001000173, -0.001000168, -1.0290000000000002E-12, 0.001000173, 0.031625511853565311, 2.4995663261732492E-14, 1.0290000000000002E-12
DataValue, -1.6, 0, 5, 0.0010001740000000002, -0.0010001670000000002, 2.1460000000000003E-12, 0.0010001740000000002, 0.031625527663582155, 0, 2.1460000000000003E-12
DataValue, -1.55, 0, 5, 0.001000173, -0.001000168, 3.87E-13, 0.001000173, 0.031625511853565311, 0, 3.87E-13
DataValue, -1.5, 0, 5, 0.0010001740000000002, -0.0010001670000000002, -9.97E-13, 0.0010001740000000002, 0.031625527663582155, 0, 9.97E-13
DataValue, -1.4500000000000002, 0, 5, 0.001000173, -0.001000168, -1.734E-12, 0.001000173, 0.031625511853565311, 2.4995663261732603E-14, 1.734E-12
DataValue, -1.4000000000000001, 0, 5, 0.001000173, -0.0010001670000000002, -1.0960000000000002E-12, 0.001000173, 0.031625511853565311, 2.4995663261732492E-14, 1.0960000000000002E-12
DataValue, -1.35, 0, 5, 0.0010001740000000002, -0.001000169, 6.3560000000000008E-12, 0.0010001740000000002, 0.031625527663582155, 2.4995663261732492E-14, 6.3560000000000008E-12
DataValue, -1.3, 0, 5, 0.0010001740000000002, -0.0010001670000000002, 1.2071E-11, 0.0010001740000000002, 0.031625527663582155, 0, 1.2071E-11
DataValue, -1.25, 0, 5, 0.0010001740000000002, -0.001000168, -6.9770000000000007E-12, 0.0010001740000000002, 0.031625527663582155, 9.9982702984210431E-14, 6.9770000000000007E-12
DataValue, -1.2, 0, 5, 0.0010001720000000001, -0.001000169, 3.3110000000000003E-12, 0.0010001720000000001, 0.03162549604354057, 2.4995663261732603E-14, 3.3110000000000003E-12
DataValue, -1.1500000000000001, 0, 5, 0.001000173, -0.0010001670000000002, -5.953E-12, 0.001000173, 0.031625511853565311, 2.4995688230375951E-14, 5.953E-12
DataValue, -1.1, 0, 5, 0.001000173, -0.001000168, -3.414E-12, 0.001000173, 0.031625511853565311, 0, 3.414E-12
DataValue, -1.05, 0, 5, 0.001000173, -0.001000168, -8.5870000000000013E-12, 0.001000173, 0.031625511853565311, 0, 8.5870000000000013E-12
DataValue, -1, 0, 5, 0.001000173, -0.00100017, 3.3740000000000004E-12, 0.001000173, 0.031625511853565311, 0, 3.3740000000000004E-12
DataValue, -0.95000000000000007, 0, 5, 0.001000173, -0.001000169, -7.76E-13, 0.001000173, 0.031625511853565311, 0, 7.76E-13
DataValue, -0.9, 0, 5, 0.001000173, -0.001000169, -1.28E-13, 0.001000173, 0.031625511853565311, 0, 1.28E-13
DataValue, -0.85000000000000009, 0, 5, 0.001000173, -0.001000171, -3.3E-13, 0.001000173, 0.031625511853565311, 0, 3.3E-13
DataValue, -0.8, 0, 5, 0.001000173, -0.00100017, -4.4260000000000007E-12, 0.001000173, 0.031625511853565311, 0, 4.4260000000000007E-12
DataValue, -0.75, 0, 5, 0.001000173, -0.00100017, 1.36E-13, 0.001000173, 0.031625511853565311, 0, 1.36E-13
DataValue, -0.70000000000000007, 0, 5, 0.001000173, -0.001000169, -4.6000000000000006E-14, 0.001000173, 0.031625511853565311, 0, 4.6000000000000006E-14
DataValue, -0.65, 0, 5, 0.001000173, -0.001000169, -9.8700000000000014E-13, 0.001000173, 0.031625511853565311, 2.4995688230375841E-14, 9.8700000000000014E-13
DataValue, -0.6, 0, 5, 0.0010001720000000001, -0.001000171, 2.9600000000000003E-12, 0.0010001720000000001, 0.03162549604354057, 0, 2.9600000000000003E-12
DataValue, -0.55, 0, 5, 0.001000173, -0.001000171, 2.8940000000000004E-12, 0.001000173, 0.031625511853565311, 0, 2.8940000000000004E-12
DataValue, -0.5, 0, 5, 0.0010001720000000001, -0.00100017, -3.376E-12, 0.0010001720000000001, 0.03162549604354057, 0, 3.376E-12
DataValue, -0.45, 0, 5, 0.001000173, -0.001000171, 8.9E-13, 0.001000173, 0.031625511853565311, 2.4995688230375892E-14, 8.9E-13
DataValue, -0.4, 0, 5, 0.001000173, -0.001000171, -1.3860000000000002E-12, 0.001000173, 0.031625511853565311, 0, 1.3860000000000002E-12
DataValue, -0.35000000000000003, 0, 5, 0.001000173, -0.0010001720000000001, 3.522E-12, 0.001000173, 0.031625511853565311, 0, 3.522E-12
DataValue, -0.3, 0, 5, 0.001000173, -0.0010001720000000001, -1.145E-12, 0.001000173, 0.031625511853565311, 2.4995663261732517E-14, 1.145E-12
DataValue, -0.25, 0, 5, 0.0010001740000000002, -0.0010001740000000002, 5.388E-12, 0.0010001740000000002, 0.031625527663582155, 2.4995663261732543E-14, 5.388E-12
DataValue, -0.2, 0, 5, 0.0010001740000000002, -0.001000173, 5.2600000000000006E-12, 0.0010001740000000002, 0.031625527663582155, 0, 5.2600000000000006E-12
DataValue, -0.15, 0, 5, 0.0010001740000000002, -0.001000173, -2.8380000000000002E-12, 0.0010001740000000002, 0.031625527663582155, 0, 2.8380000000000002E-12
DataValue, -0.1, 0, 5, 0.0010001740000000002, -0.0010001720000000001, 1.162E-12, 0.0010001740000000002, 0.031625527663582155, 0, 1.162E-12
DataValue, -0.05, 0, 5, 0.0010001740000000002, -0.0010001740000000002, -1.6790000000000002E-12, 0.0010001740000000002, 0.031625527663582155, 0, 1.6790000000000002E-12
DataValue, 0, 0, 5, 0.0010001740000000002, -0.0010001720000000001, 1.29E-13, 0.0010001740000000002, 0.031625527663582155, 0, 1.29E-13
DataValue, 0.05, 0, 5, 0.0010001740000000002, -0.001000173, -2.879E-12, 0.0010001740000000002, 0.031625527663582155, 0, 2.879E-12
DataValue, 0.1, 0, 5, 0.0010001740000000002, -0.0010001720000000001, 6.208E-12, 0.0010001740000000002, 0.031625527663582155, 0, 6.208E-12
DataValue, 0.15, 0, 5, 0.0010001740000000002, -0.0010001720000000001, 1.6260000000000001E-12, 0.0010001740000000002, 0.031625527663582155, 0, 1.6260000000000001E-12
DataValue, 0.2, 0, 5, 0.0010001740000000002, -0.0010001740000000002, -6.0000000000000007E-13, 0.0010001740000000002, 0.031625527663582155, 2.4995663261732533E-14, 6.0000000000000007E-13
DataValue, 0.25, 0, 5, 0.001000173, -0.0010001720000000001, 1.047E-12, 0.001000173, 0.031625511853565311, 2.4995663261732543E-14, 1.047E-12
DataValue, 0.3, 0, 5, 0.001000173, -0.0010001720000000001, 1.186E-12, 0.001000173, 0.031625511853565311, 0, 1.186E-12
DataValue, 0.35000000000000003, 0, 5, 0.001000173, -0.001000171, -4.2000000000000003E-13, 0.001000173, 0.031625511853565311, 2.4995663261732517E-14, 4.2000000000000003E-13
DataValue, 0.4, 0, 5, 0.0010001740000000002, -0.001000171, 2.201E-12, 0.0010001740000000002, 0.031625527663582155, 2.4995663261732543E-14, 2.201E-12
DataValue, 0.45, 0, 5, 0.0010001740000000002, -0.001000169, -3.804E-12, 0.0010001740000000002, 0.031625527663582155, 0, 3.804E-12
DataValue, 0.5, 0, 5, 0.0010001740000000002, -0.001000171, 3.413E-12, 0.0010001740000000002, 0.031625527663582155, 2.4995663261732517E-14, 3.413E-12
DataValue, 0.55, 0, 5, 0.001000173, -0.0010001720000000001, -3.3300000000000005E-13, 0.001000173, 0.031625511853565311, 2.4995663261732543E-14, 3.3300000000000005E-13
DataValue, 0.6, 0, 5, 0.001000173, -0.0010001720000000001, 6.1770000000000008E-12, 0.001000173, 0.031625511853565311, 0, 6.1770000000000008E-12
DataValue, 0.65, 0, 5, 0.001000173, -0.001000171, -4.0850000000000005E-12, 0.001000173, 0.031625511853565311, 0, 4.0850000000000005E-12
DataValue, 0.70000000000000007, 0, 5, 0.001000173, -0.001000173, 9.118E-12, 0.001000173, 0.031625511853565311, 0, 9.118E-12
DataValue, 0.75, 0, 5, 0.001000173, -0.0010001720000000001, -3.2610000000000003E-12, 0.001000173, 0.031625511853565311, 0, 3.2610000000000003E-12
DataValue, 0.8, 0, 5, 0.001000173, -0.0010001740000000002, -5.1290000000000005E-12, 0.001000173, 0.031625511853565311, 0, 5.1290000000000005E-12
DataValue, 0.85000000000000009, 0, 5, 0.001000173, -0.0010001740000000002, -1.6240000000000002E-12, 0.001000173, 0.031625511853565311, 0, 1.6240000000000002E-12
DataValue, 0.9, 0, 5, 0.001000173, -0.0010001740000000002, 4.678E-12, 0.001000173, 0.031625511853565311, 2.4995688230375892E-14, 4.678E-12
DataValue, 0.95000000000000007, 0, 5, 0.0010001720000000001, -0.0010001740000000002, 7.65E-12, 0.0010001720000000001, 0.03162549604354057, 2.4995688230375892E-14, 7.65E-12
DataValue, 1, 0, 5, 0.0010001720000000001, -0.0010001740000000002, 2.177E-12, 0.0010001720000000001, 0.03162549604354057, 2.4995688230375892E-14, 2.177E-12
DataValue, 1.05, 0, 5, 0.001000173, -0.0010001740000000002, -2.485E-12, 0.001000173, 0.031625511853565311, 0, 2.485E-12
DataValue, 1.1, 0, 5, 0.0010001720000000001, -0.0010001740000000002, -1.717E-12, 0.0010001720000000001, 0.03162549604354057, 9.9982802946572067E-14, 1.717E-12
DataValue, 1.1500000000000001, 0, 5, 0.001000171, -0.0010001740000000002, 7.77E-13, 0.001000171, 0.031625480233507919, 2.4995688230375951E-14, 7.77E-13
DataValue, 1.2, 0, 5, 0.001000173, -0.001000173, -4.483E-12, 0.001000173, 0.031625511853565311, 2.4995713242913427E-14, 4.483E-12
DataValue, 1.25, 0, 5, 0.0010001720000000001, -0.0010001740000000002, 4.2290000000000007E-12, 0.0010001720000000001, 0.03162549604354057, 2.4995688230375841E-14, 4.2290000000000007E-12
DataValue, 1.3, 0, 5, 0.0010001720000000001, -0.0010001720000000001, -3.0050000000000002E-12, 0.0010001720000000001, 0.03162549604354057, 0, 3.0050000000000002E-12
DataValue, 1.35, 0, 5, 0.0010001720000000001, -0.001000173, 4.751E-12, 0.0010001720000000001, 0.03162549604354057, 0, 4.751E-12
DataValue, 1.4000000000000001, 0, 5, 0.0010001720000000001, -0.0010001740000000002, -1.531E-12, 0.0010001720000000001, 0.03162549604354057, 2.4995688230375841E-14, 1.531E-12
DataValue, 1.4500000000000002, 0, 5, 0.001000173, -0.0010001720000000001, 3.5490000000000003E-12, 0.001000173, 0.031625511853565311, 0, 3.5490000000000003E-12
DataValue, 1.5, 0, 5, 0.0010001720000000001, -0.001000173, -1.032E-12, 0.0010001720000000001, 0.03162549604354057, 0, 1.032E-12
DataValue, 1.55, 0, 5, 0.001000173, -0.001000173, 1.6600000000000002E-12, 0.001000173, 0.031625511853565311, 2.4995688230375841E-14, 1.6600000000000002E-12
DataValue, 1.6, 0, 5, 0.001000173, -0.001000171, -9.0800000000000007E-13, 0.001000173, 0.031625511853565311, 0, 9.0800000000000007E-13
DataValue, 1.6500000000000001, 0, 5, 0.001000173, -0.001000173, 1.228E-12, 0.001000173, 0.031625511853565311, 2.4995688230375841E-14, 1.228E-12
DataValue, 1.7000000000000002, 0, 5, 0.0010001720000000001, -0.0010001720000000001, -1.2590000000000002E-12, 0.0010001720000000001, 0.03162549604354057, 0, 1.2590000000000002E-12
DataValue, 1.75, 0, 5, 0.001000173, -0.0010001740000000002, 1.6870000000000002E-12, 0.001000173, 0.031625511853565311, 0, 1.6870000000000002E-12
DataValue, 1.8, 0, 5, 0.0010001720000000001, -0.0010001720000000001, -1.9600000000000002E-13, 0.0010001720000000001, 0.03162549604354057, 0, 1.9600000000000002E-13
DataValue, 1.85, 0, 5, 0.001000173, -0.0010001720000000001, 2.494E-12, 0.001000173, 0.031625511853565311, 9.9982702984210431E-14, 2.494E-12
DataValue, 1.9000000000000001, 0, 5, 0.0010001740000000002, -0.0010001740000000002, 2.1900000000000003E-13, 0.0010001740000000002, 0.031625527663582155, 2.4995663261732492E-14, 2.1900000000000003E-13
DataValue, 1.9500000000000002, 0, 5, 0.0010001740000000002, -0.0010001740000000002, 1.913E-12, 0.0010001740000000002, 0.031625527663582155, 0, 1.913E-12
DataValue, 2, 0, 5, 0.0010001740000000002, -0.0010001720000000001, 1.6950000000000002E-12, 0.0010001740000000002, 0.031625527663582155, 0, 1.6950000000000002E-12
DataValue, 2.05, 0, 5, 0.0010001740000000002, -0.0010001740000000002, -3.1070000000000004E-12, 0.0010001740000000002, 0.031625527663582155, 2.4995663261732492E-14, 3.1070000000000004E-12
DataValue, 2.1, 0, 5, 0.001000173, -0.001000176, 8.336E-12, 0.001000173, 0.031625511853565311, 0, 8.336E-12
DataValue, 2.15, 0, 5, 0.0010001740000000002, -0.001000176, -1.182E-12, 0.0010001740000000002, 0.031625527663582155, 9.9982603021898777E-14, 1.182E-12
DataValue, 2.2, 0, 5, 0.001000175, -0.001000177, 4.462E-12, 0.001000175, 0.031625543473591089, 2.4995663261732492E-14, 4.462E-12
DataValue, 2.25, 0, 5, 0.001000173, -0.001000178, 5.92E-13, 0.001000173, 0.031625511853565311, 2.4995638249220024E-14, 5.92E-13
DataValue, 2.3000000000000003, 0, 5, 0.0010001740000000002, -0.001000178, 7.304E-12, 0.0010001740000000002, 0.031625527663582155, 2.4995663261732492E-14, 7.304E-12
DataValue, 2.35, 0, 5, 0.0010001740000000002, -0.001000176, -2.548E-12, 0.0010001740000000002, 0.031625527663582155, 2.499566326173271E-14, 2.548E-12
DataValue, 2.4, 0, 5, 0.001000173, -0.001000177, 6.508E-12, 0.001000173, 0.031625511853565311, 0, 6.508E-12
DataValue, 2.45, 0, 5, 0.0010001740000000002, -0.001000178, -5.0180000000000006E-12, 0.0010001740000000002, 0.031625527663582155, 2.4995663261732492E-14, 5.0180000000000006E-12
DataValue, 2.5, 0, 5, 0.0010001740000000002, -0.001000176, 5.0100000000000009E-13, 0.0010001740000000002, 0.031625527663582155, 0, 5.0100000000000009E-13
DataValue, 2.5500000000000003, 0, 5, 0.0010001740000000002, -0.001000177, 6.1E-13, 0.0010001740000000002, 0.031625527663582155, 0, 6.1E-13
DataValue, 2.6, 0, 5, 0.0010001740000000002, -0.001000177, 1.0330000000000001E-12, 0.0010001740000000002, 0.031625527663582155, 0, 1.0330000000000001E-12
DataValue, 2.65, 0, 5, 0.0010001740000000002, -0.001000177, 7.75E-13, 0.0010001740000000002, 0.031625527663582155, 0, 7.75E-13
DataValue, 2.7, 0, 5, 0.0010001740000000002, -0.001000176, 3.9600000000000003E-13, 0.0010001740000000002, 0.031625527663582155, 9.9982702984210431E-14, 3.9600000000000003E-13
