
SetupTitle, Transfer lin
PrimitiveTest, I/V Sweep
TestParameter, Context.MainFrame, 4155C
TestParameter, Channel.UnitType, SMU, SMU, SMU
TestParameter, Channel.Unit, SMU3:MP, SMU1:MP, SMU4:MP
TestParameter, Channel.IName, ID, IS, IG
TestParameter, Channel.VName, VD, VS, VG
TestParameter, Channel.Mode, V, COMMON, V
TestParameter, Channel.Func, CONST, CONST, VAR1
TestParameter, Channel.Index, 
TestParameter, Channel.Time, 
TestParameter, Measurement.Port.Unit, SMU3:MP, SMU1:MP, SMU4:MP
TestParameter, Measurement.Port.SeriesResistor, NONE, NONE, NONE
TestParameter, Measurement.Port.Filter, ON, ON, ON
TestParameter, Measurement.Primary.Locus, Double
TestParameter, Measurement.Primary.Scale, LINEAR
TestParameter, Measurement.Primary.Start, -2
TestParameter, Measurement.Primary.Stop, 3
TestParameter, Measurement.Primary.Step, 0.05
TestParameter, Measurement.Primary.Compliance, 0.001
TestParameter, Measurement.Primary.PowerCompliance, 0
TestParameter, Measurement.Aborting.Condition, CONTINUE AT ANY
TestParameter, Measurement.PostOutput.Value, START
TestParameter, Measurement.PostOutput.Retention, OFF
TestParameter, Measurement.Bias.Source, 0.1, 0, -2
TestParameter, Measurement.Bias.Compliance, 0.001, 0.1, 0.001
TestParameter, Measurement.Monitor.Unit, SMU3:MP, SMU1:MP, SMU4:MP
TestParameter, Measurement.Monitor.Adc, HR ADC, HR ADC, HR ADC
TestParameter, Measurement.Monitor.RangingMode, AUTO, AUTO, AUTO
TestParameter, Measurement.Monitor.RangeBoundary, , , 
TestParameter, Measurement.Monitor.RangeRating, BY FULL RANGE, BY FULL RANGE, BY FULL RANGE
TestParameter, Measurement.Monitor.RangeRatingCoeff, 50, 50, 50
TestParameter, Measurement.Timing.Hold, 0.5
TestParameter, Measurement.Timing.Delay, 0.05
TestParameter, Measurement.Adc.HighResolution.AutoZero, OFF
TestParameter, Measurement.Adc.HighResolution.Mode, AUTO
TestParameter, Measurement.Adc.HighResolution.Coeff, 1
TestParameter, Measurement.Ag16440ASelector.SemiconductorRelay.Channel1, DEFAULT
TestParameter, Measurement.Ag16440ASelector.SemiconductorRelay.Channel3, DEFAULT
TestParameter, Function.User.Name, absID, sqrtID, gm2, absIG
TestParameter, Function.User.Unit, A, A, A/V, A
TestParameter, Function.User.Definition, abs(ID), sqrt(abs(ID)), (delta(sqrtID)/delta(VG))^2, abs(IG)
TestParameter, Output.Graph.Enabled, true
TestParameter, Output.Graph.XAxis.Data, VG
TestParameter, Output.Graph.XAxis.Scale, Linear
TestParameter, Output.Graph.XAxis.Left, -5
TestParameter, Output.Graph.XAxis.Right, 7
TestParameter, Output.Graph.YAxis.Data, ID, absIG, gm2
TestParameter, Output.Graph.YAxis.Scale, Log, Log, Linear
TestParameter, Output.Graph.YAxis.Bottom, 1E-14, 1E-14, 0
TestParameter, Output.Graph.YAxis.Top, 0.01, 0.01, 1E-05
TestParameter, Output.Graph.YAxis.Group, , , 
TestParameter, Output.List.Data, VG, IG, VD, ID, VS, IS, sqrtID, gm2, absIG
TestParameter, AutoAnalysis.Interpolation, false
TestParameter, AutoAnalysis.Line1.Enabled, false
TestParameter, AutoAnalysis.Line1.Type, 1
TestParameter, AutoAnalysis.Line1.Fix, True
TestParameter, AutoAnalysis.Line1.YAxis, 0
TestParameter, AutoAnalysis.Line1.Point1.Type, 0
TestParameter, AutoAnalysis.Line1.Point1.XY.X, 
TestParameter, AutoAnalysis.Line1.Point1.XY.Y, 
TestParameter, AutoAnalysis.Line1.Point1.Data.Var, 
TestParameter, AutoAnalysis.Line1.Point1.Data.Condition, 
TestParameter, AutoAnalysis.Line1.Point1.Data.Start, false
TestParameter, AutoAnalysis.Line1.Point1.Data.StartVar, 
TestParameter, AutoAnalysis.Line1.Point1.Data.StartCondition, 
TestParameter, AutoAnalysis.Line1.Point2.Type, 0
TestParameter, AutoAnalysis.Line1.Point2.XY.X, 
TestParameter, AutoAnalysis.Line1.Point2.XY.Y, 
TestParameter, AutoAnalysis.Line1.Point2.Data.Var, 
TestParameter, AutoAnalysis.Line1.Point2.Data.Condition, 
TestParameter, AutoAnalysis.Line1.Point2.Data.Start, false
TestParameter, AutoAnalysis.Line1.Point2.Data.StartVar, 
TestParameter, AutoAnalysis.Line1.Point2.Data.StartCondition, 
TestParameter, AutoAnalysis.Line1.GradientExpr, 0
TestParameter, AutoAnalysis.Line2.Enabled, false
TestParameter, AutoAnalysis.Line2.Type, 1
TestParameter, AutoAnalysis.Line2.Fix, True
TestParameter, AutoAnalysis.Line2.YAxis, 0
TestParameter, AutoAnalysis.Line2.Point1.Type, 0
TestParameter, AutoAnalysis.Line2.Point1.XY.X, 
TestParameter, AutoAnalysis.Line2.Point1.XY.Y, 
TestParameter, AutoAnalysis.Line2.Point1.Data.Var, 
TestParameter, AutoAnalysis.Line2.Point1.Data.Condition, 
TestParameter, AutoAnalysis.Line2.Point1.Data.Start, false
TestParameter, AutoAnalysis.Line2.Point1.Data.StartVar, 
TestParameter, AutoAnalysis.Line2.Point1.Data.StartCondition, 
TestParameter, AutoAnalysis.Line2.Point2.Type, 0
TestParameter, AutoAnalysis.Line2.Point2.XY.X, 
TestParameter, AutoAnalysis.Line2.Point2.XY.Y, 
TestParameter, AutoAnalysis.Line2.Point2.Data.Var, 
TestParameter, AutoAnalysis.Line2.Point2.Data.Condition, 
TestParameter, AutoAnalysis.Line2.Point2.Data.Start, false
TestParameter, AutoAnalysis.Line2.Point2.Data.StartVar, 
TestParameter, AutoAnalysis.Line2.Point2.Data.StartCondition, 
TestParameter, AutoAnalysis.Line2.GradientExpr, 0
TestParameter, AutoAnalysis.Marker.Enabled, false
TestParameter, AutoAnalysis.Marker.Data.Var, 
TestParameter, AutoAnalysis.Marker.Data.Condition, 
TestParameter, AutoAnalysis.Marker.Data.Start, false
TestParameter, AutoAnalysis.Marker.Data.StartVar, 
TestParameter, AutoAnalysis.Marker.Data.StartCondition, 
MetaData, TestRecord.EntryPoint, true
MetaData, TestRecord.RecordTime, 05/02/2019 10:42:14
MetaData, TestRecord.TestTarget, 250-300-20-20
MetaData, TestRecord.IterationIndex, 1
MetaData, TestRecord.Preservation, true
MetaData, TestRecord.Flag, 
MetaData, TestRecord.Remarks, bad
MetaData, TestRecord.LinkKey, c4175b09-195f-4c9a-af95-41a364ef4fd9
Dimension1, 202, 202, 202, 202, 202, 202, 202, 202, 202, 202
Dimension2, 1, 1, 1, 1, 1, 1, 1, 1, 1, 1
DataName, VG, VD, VS, ID, IS, IG, absID, sqrtID, gm2, absIG
DataValue, -2, 0.1, 0, 1.208E-11, 1.3761000000000002E-11, -2.9687E-11, 1.208E-11, 3.4756294393965533E-06, 3.3115324172970658E-17, 2.9687E-11
DataValue, -1.9500000000000002, 0.1, 0, 1.2078000000000001E-11, 9.7100000000000012E-12, -2.5665000000000003E-11, 1.2078000000000001E-11, 3.4753417098178992E-06, 4.3874967342880422E-15, 2.5665000000000003E-11
DataValue, -1.9000000000000001, 0.1, 0, 1.2034000000000001E-11, 9.104E-12, -2.5172000000000003E-11, 1.2034000000000001E-11, 3.469005621211935E-06, 2.1426491678446473E-12, 2.5172000000000003E-11
DataValue, -1.85, 0.1, 0, 1.1082000000000001E-11, 9.9070000000000013E-12, -2.0923E-11, 1.1082000000000001E-11, 3.3289638027470352E-06, 9.7869053986763382E-11, 2.0923E-11
DataValue, -1.8, 0.1, 0, 6.1490000000000006E-12, 8.476E-12, -2.0889000000000003E-11, 6.1490000000000006E-12, 2.4797177258712331E-06, 1.8604885675526371E-14, 2.0889000000000003E-11
DataValue, -1.75, 0.1, 0, 1.1173E-11, 6.2800000000000007E-12, -2.8291000000000002E-11, 1.1173E-11, 3.3426037755019664E-06, 5.208338800653737E-11, 2.8291000000000002E-11
DataValue, -1.7000000000000002, 0.1, 0, 1.0249000000000001E-11, 6.237E-12, -1.7583000000000002E-11, 1.0249000000000001E-11, 3.2014059411452338E-06, 4.9323503612919306E-15, 1.7583000000000002E-11
DataValue, -1.6500000000000001, 0.1, 0, 1.1220000000000001E-11, 1.1779000000000001E-11, -1.808E-11, 1.1220000000000001E-11, 3.3496268448888455E-06, 1.9405746627224144E-14, 1.808E-11
DataValue, -1.6, 0.1, 0, 1.016E-11, 6.137E-12, -1.6428E-11, 1.016E-11, 3.1874754901018453E-06, 4.8088717940748517E-12, 1.6428E-11
DataValue, -1.55, 0.1, 0, 9.799E-12, 9.534E-12, -2.0079E-11, 9.799E-12, 3.13033544528378E-06, 3.6404597258391862E-13, 2.0079E-11
DataValue, -1.5, 0.1, 0, 9.779E-12, 6.0890000000000004E-12, -1.7525000000000002E-11, 9.779E-12, 3.1271392677653484E-06, 1.0093612196991408E-14, 1.7525000000000002E-11
DataValue, -1.4500000000000002, 0.1, 0, 9.8620000000000014E-12, 6.7820000000000008E-12, -1.8807E-11, 9.8620000000000014E-12, 3.140382142351469E-06, 1.1955875811136564E-11, 1.8807E-11
DataValue, -1.4000000000000001, 0.1, 0, 7.736E-12, 4.314E-12, -1.478E-11, 7.736E-12, 2.7813665705907951E-06, 6.4974645495857653E-12, 1.478E-11
DataValue, -1.35, 0.1, 0, 8.326E-12, 7.757000000000001E-12, -1.5191E-11, 8.326E-12, 2.885480895795361E-06, 2.0160497655869411E-12, 1.5191E-11
DataValue, -1.3, 0.1, 0, 8.546E-12, 4.665E-12, -1.5911000000000002E-11, 8.546E-12, 2.923354237857602E-06, 3.3043869830306851E-12, 1.5911000000000002E-11
DataValue, -1.25, 0.1, 0, 7.31E-12, 5.219E-12, -1.5980000000000003E-11, 7.31E-12, 2.7037011669191551E-06, 1.4434050896893835E-12, 1.5980000000000003E-11
DataValue, -1.2, 0.1, 0, 7.858E-12, 3.9090000000000004E-12, -1.3878E-11, 7.858E-12, 2.8032124428947587E-06, 2.8765914721944053E-14, 1.3878E-11
DataValue, -1.1500000000000001, 0.1, 0, 7.402000000000001E-12, 4.796E-12, -1.2391000000000001E-11, 7.402000000000001E-12, 2.7206616842231597E-06, 3.8007966903627039E-12, 1.2391000000000001E-11
DataValue, -1.1, 0.1, 0, 6.8030000000000008E-12, 4.383E-12, -1.3661000000000002E-11, 6.8030000000000008E-12, 2.6082561223928911E-06, 4.8674967446103231E-16, 1.3661000000000002E-11
DataValue, -1.05, 0.1, 0, 7.39E-12, 2.765E-12, -1.2032E-11, 7.39E-12, 2.7184554438136371E-06, 4.3837247283261751E-13, 1.2032E-11
DataValue, -1, 0.1, 0, 6.4620000000000005E-12, 4.059E-12, -1.1231E-11, 6.4620000000000005E-12, 2.5420464197177832E-06, 7.0489211941527961E-12, 1.1231E-11
DataValue, -0.95000000000000007, 0.1, 0, 6.0170000000000007E-12, 3.263E-12, -8.775E-12, 6.0170000000000007E-12, 2.4529573987332111E-06, 7.4744373296394339E-11, 8.775E-12
DataValue, -0.9, 0.1, 0, 2.8140000000000003E-12, 2.085E-12, -8.7260000000000014E-12, 2.8140000000000003E-12, 1.6774981371077586E-06, 4.0457260745126189E-13, 8.7260000000000014E-12
DataValue, -0.85000000000000009, 0.1, 0, 5.7090000000000008E-12, 1.7750000000000002E-12, -5.6180000000000005E-12, 5.7090000000000008E-12, 2.3893513764199693E-06, 1.3914521283340306E-10, 5.6180000000000005E-12
DataValue, -0.8, 0.1, 0, 8.163E-12, 2.382E-12, -7.2670000000000004E-12, 8.163E-12, 2.8570964281941902E-06, 8.7591680573123966E-13, 7.2670000000000004E-12
DataValue, -0.75, 0.1, 0, 6.1650000000000005E-12, 1.6800000000000001E-12, -2.0545000000000002E-11, 6.1650000000000005E-12, 2.4829418035870274E-06, 9.9847984840077666E-13, 2.0545000000000002E-11
DataValue, -0.70000000000000007, 0.1, 0, 7.6020000000000009E-12, 2.044E-12, -1.0308E-11, 7.6020000000000009E-12, 2.7571724646818887E-06, 1.2608569198864795E-12, 1.0308E-11
DataValue, -0.65, 0.1, 0, 5.6200000000000007E-12, 4.74E-13, -1.0394000000000001E-11, 5.6200000000000007E-12, 2.3706539182259396E-06, 5.6240334098310277E-11, 1.0394000000000001E-11
DataValue, -0.6, 0.1, 0, 4.0290000000000007E-12, -2.089E-12, -1.1500000000000002E-12, 4.0290000000000007E-12, 2.00723690679501E-06, 6.5799161482758408E-11, 1.1500000000000002E-12
DataValue, -0.55, 0.1, 0, 2.432E-12, 2.148E-12, -3.6360000000000003E-12, 2.432E-12, 1.5594870951694343E-06, 5.4915115051900706E-13, 3.6360000000000003E-12
DataValue, -0.5, 0.1, 0, 3.737E-12, 1.0790000000000002E-12, -4.1080000000000007E-12, 3.737E-12, 1.9331321734428817E-06, 9.7587621241808454E-11, 4.1080000000000007E-12
DataValue, -0.45, 0.1, 0, 6.489E-12, 1.6260000000000001E-12, -6.623E-12, 6.489E-12, 2.5473515658424538E-06, 1.9377791035185656E-15, 6.623E-12
DataValue, -0.4, 0.1, 0, 3.72E-12, -5.62E-13, -1.569E-12, 3.72E-12, 1.9287301521985911E-06, 8.5222338670100471E-11, 1.569E-12
DataValue, -0.35000000000000003, 0.1, 0, 2.6380000000000003E-12, -1.83E-12, -1.9530000000000003E-12, 2.6380000000000003E-12, 1.6241921068642097E-06, 1.0683500786716328E-11, 1.9530000000000003E-12
DataValue, -0.3, 0.1, 0, 2.566E-12, -1.7310000000000002E-12, -1.921E-12, 2.566E-12, 1.6018739026527649E-06, 4.0290479294716577E-11, 1.921E-12
DataValue, -0.25, 0.1, 0, 9.7900000000000017E-13, 1.53E-13, -5.7400000000000008E-13, 9.7900000000000017E-13, 9.89444288477123E-07, 3.3845681250144144E-13, 5.7400000000000008E-13
DataValue, -0.2, 0.1, 0, 2.3830000000000002E-12, -6.08E-13, -3.14E-13, 2.3830000000000002E-12, 1.5436968614336172E-06, 6.7785088189867832E-12, 3.14E-13
DataValue, -0.15, 0.1, 0, 1.5620000000000002E-12, -1.1100000000000001E-13, -2.8880000000000002E-12, 1.5620000000000002E-12, 1.2497999839974397E-06, 4.976956746371773E-12, 2.8880000000000002E-12
DataValue, -0.1, 0.1, 0, 1.744E-12, -1.6100000000000002E-12, -8.300000000000001E-13, 1.744E-12, 1.3206059215375342E-06, 1.0712579862187763E-12, 8.300000000000001E-13
DataValue, -0.05, 0.1, 0, 1.314E-12, -2.286E-12, 9.5E-13, 1.314E-12, 1.146298390472568E-06, 1.2515891403797647E-12, 9.5E-13
DataValue, 0, 0.1, 0, -2.052E-12, -2.0290000000000003E-12, 1.6450000000000002E-12, 2.052E-12, 1.4324803663575987E-06, 1.8055173069842163E-12, 1.6450000000000002E-12
DataValue, 0.05, 0.1, 0, 1.024E-12, -2.322E-12, 1.7750000000000002E-12, 1.024E-12, 1.0119288512538813E-06, 4.382920417670718E-11, 1.7750000000000002E-12
DataValue, 0.1, 0.1, 0, 4.3870000000000006E-12, -3.836E-12, 1.8910000000000003E-12, 4.3870000000000006E-12, 2.0945166506857855E-06, 2.3160062402534076E-10, 1.8910000000000003E-12
DataValue, 0.15, 0.1, 0, 6.4200000000000005E-12, -8.521E-12, 1.8940000000000002E-12, 6.4200000000000005E-12, 2.5337718918639855E-06, 4.7012167510494776E-10, 1.8940000000000002E-12
DataValue, 0.2, 0.1, 0, 1.8171000000000002E-11, -2.0154E-11, 3.342E-12, 1.8171000000000002E-11, 4.2627455940977763E-06, 1.8816824306916143E-09, 3.342E-12
DataValue, 0.25, 0.1, 0, 4.7219000000000004E-11, -4.9505E-11, 3.889E-12, 4.7219000000000004E-11, 6.8716082542589694E-06, 4.3621227199415121E-09, 3.889E-12
DataValue, 0.3, 0.1, 0, 1.181E-10, -1.16798E-10, 4.649E-12, 1.181E-10, 1.0867382389517726E-05, 8.2900448659200442E-09, 4.649E-12
DataValue, 0.35000000000000003, 0.1, 0, 2.5525100000000003E-10, -2.5077300000000003E-10, 5.1860000000000007E-12, 2.5525100000000003E-10, 1.5976576604517003E-05, 1.3382306708337887E-08, 5.1860000000000007E-12
DataValue, 0.4, 0.1, 0, 5.0335500000000007E-10, -4.90221E-10, 5.8460000000000007E-12, 5.0335500000000007E-10, 2.24355744299093E-05, 1.9164947032820422E-08, 5.8460000000000007E-12
DataValue, 0.45, 0.1, 0, 8.89252E-10, -8.6356100000000007E-10, 5.8910000000000006E-12, 8.89252E-10, 2.9820328636686755E-05, 2.1584822269887634E-08, 5.8910000000000006E-12
DataValue, 0.5, 0.1, 0, 1.37844E-09, -1.33525E-09, 6.694E-12, 1.37844E-09, 3.7127348410571958E-05, 2.6724486332403556E-08, 6.694E-12
DataValue, 0.55, 0.1, 0, 2.13148E-09, -2.11163E-09, 6.694E-12, 2.13148E-09, 4.61679542540061E-05, 3.411192566468386E-08, 6.694E-12
DataValue, 0.6, 0.1, 0, 3.091E-09, -3.06836E-09, 7.005E-12, 3.091E-09, 5.5596762495670554E-05, 3.5332278753071739E-08, 7.005E-12
DataValue, 0.65, 0.1, 0, 4.22043E-09, -4.18119E-09, 8.593000000000001E-12, 4.22043E-09, 6.4964836642602281E-05, 3.4822656541946334E-08, 8.593000000000001E-12
DataValue, 0.70000000000000007, 0.1, 0, 5.51419E-09, -5.47735E-09, 8.8800000000000009E-12, 5.51419E-09, 7.4257592204433879E-05, 3.3732575088748964E-08, 8.8800000000000009E-12
DataValue, 0.75, 0.1, 0, 6.9441E-09, -6.90121E-09, 8.869E-12, 6.9441E-09, 8.3331266641039359E-05, 3.2241275889944638E-08, 8.869E-12
DataValue, 0.8, 0.1, 0, 8.50332E-09, -8.45662E-09, 9.5650000000000013E-12, 8.50332E-09, 9.2213448043113535E-05, 3.1279316742220078E-08, 9.5650000000000013E-12
DataValue, 0.85000000000000009, 0.1, 0, 1.020448E-08, -1.015145E-08, 1.0606E-11, 1.020448E-08, 0.00010101722625374348, 2.7375223463436386E-08, 1.0606E-11
DataValue, 0.9, 0.1, 0, 1.1828499999999999E-08, -1.1699299999999999E-08, 1.0384000000000001E-11, 1.1828499999999999E-08, 0.0001087589076811642, 2.655327994107423E-08, 1.0384000000000001E-11
DataValue, 0.95000000000000007, 0.1, 0, 1.3762199999999999E-08, -1.3729999999999998E-08, 1.1899000000000002E-11, 1.3762199999999999E-08, 0.00011731240343629483, 2.9287691065456097E-08, 1.1899000000000002E-11
DataValue, 1, 0.1, 0, 1.5843899999999997E-08, -1.5793599999999997E-08, 1.2571E-11, 1.5843899999999997E-08, 0.00012587255459392248, 2.8591615299048544E-08, 1.2571E-11
DataValue, 1.05, 0.1, 0, 1.8015399999999998E-08, -1.7982699999999997E-08, 1.3175E-11, 1.8015399999999998E-08, 0.0001342214587910592, 2.7467177245952041E-08, 1.3175E-11
DataValue, 1.1, 0.1, 0, 2.02908E-08, -2.02446E-08, 1.5144E-11, 2.02908E-08, 0.00014244577915824673, 2.6516939974575931E-08, 1.5144E-11
DataValue, 1.1500000000000001, 0.1, 0, 2.2651899999999998E-08, -2.2621399999999996E-08, 1.6534000000000002E-11, 2.2651899999999998E-08, 0.00015050548162774669, 2.5524668317534942E-08, 1.6534000000000002E-11
DataValue, 1.2, 0.1, 0, 2.50976E-08, -2.5046899999999997E-08, 1.8131000000000002E-11, 2.50976E-08, 0.000158422220663643, 2.4871795888516307E-08, 1.8131000000000002E-11
DataValue, 1.25, 0.1, 0, 2.7647799999999996E-08, -2.7604199999999998E-08, 2.1786E-11, 2.7647799999999996E-08, 0.00016627627611899418, 2.4079044887021589E-08, 2.1786E-11
DataValue, 1.3, 0.1, 0, 3.0254999999999995E-08, -3.0217199999999996E-08, 2.5286000000000002E-11, 3.0254999999999995E-08, 0.00017393964470470782, 2.3338739631773266E-08, 2.5286000000000002E-11
DataValue, 1.35, 0.1, 0, 3.29616E-08, -3.2942E-08, 2.9661E-11, 3.29616E-08, 0.0001815532979595799, 2.2827468297175597E-08, 2.9661E-11
DataValue, 1.4000000000000001, 0.1, 0, 3.5739299999999996E-08, -3.57009E-08, 3.5938E-11, 3.5739299999999996E-08, 0.00018904840649949949, 2.1703045838807116E-08, 3.5938E-11
DataValue, 1.4500000000000002, 0.1, 0, 3.8527899999999994E-08, -3.8512399999999996E-08, 4.4052000000000003E-11, 3.8527899999999994E-08, 0.00019628525161101635, 2.1106611790029063E-08, 4.4052000000000003E-11
DataValue, 1.5, 0.1, 0, 4.14434E-08, -4.1409199999999995E-08, 5.3556000000000005E-11, 4.14434E-08, 0.00020357652123955747, 2.1053747729000302E-08, 5.3556000000000005E-11
DataValue, 1.55, 0.1, 0, 4.44346E-08, -4.4448599999999995E-08, 6.5121E-11, 4.44346E-08, 0.00021079516123478735, 2.0581263599250987E-08, 6.5121E-11
DataValue, 1.6, 0.1, 0, 4.7490299999999993E-08, -4.7516499999999994E-08, 7.9324000000000012E-11, 4.7490299999999993E-08, 0.00021792269271464135, 1.981250655600333E-08, 7.9324000000000012E-11
DataValue, 1.6500000000000001, 0.1, 0, 5.0566899999999993E-08, -5.06059E-08, 9.7055000000000008E-11, 5.0566899999999993E-08, 0.00022487085182388577, 1.9496088386389289E-08, 9.7055000000000008E-11
DataValue, 1.7000000000000002, 0.1, 0, 5.3770899999999993E-08, -5.3804399999999992E-08, 1.18394E-10, 5.3770899999999993E-08, 0.00023188553210582154, 1.941821905138474E-08, 1.18394E-10
DataValue, 1.75, 0.1, 0, 5.70282E-08, -5.7122599999999993E-08, 1.44067E-10, 5.70282E-08, 0.00023880577882455021, 1.8914005653794105E-08, 1.44067E-10
DataValue, 1.8, 0.1, 0, 6.0338199999999992E-08, -6.0446899999999993E-08, 1.7346300000000001E-10, 6.0338199999999992E-08, 0.0002456383520543972, 1.8705200841001946E-08, 1.7346300000000001E-10
DataValue, 1.85, 0.1, 0, 6.374739999999999E-08, -6.38797E-08, 2.08949E-10, 6.374739999999999E-08, 0.00025248247463933017, 1.8502174269121758E-08, 2.08949E-10
DataValue, 1.9000000000000001, 0.1, 0, 6.72057E-08, -6.7402E-08, 2.4850200000000004E-10, 6.72057E-08, 0.000259240621816875, 1.7855889227877987E-08, 2.4850200000000004E-10
DataValue, 1.9500000000000002, 0.1, 0, 7.0673599999999993E-08, -7.09113E-08, 2.9588300000000004E-10, 7.0673599999999993E-08, 0.00026584506766159872, 1.749484347708451E-08, 2.9588300000000004E-10
DataValue, 2, 0.1, 0, 7.42385E-08, -7.4517399999999987E-08, 3.4821700000000004E-10, 7.42385E-08, 0.00027246742924613942, 1.7254808706151482E-08, 3.4821700000000004E-10
DataValue, 2.05, 0.1, 0, 7.7830299999999993E-08, -7.8173099999999987E-08, 4.0849300000000003E-10, 7.7830299999999993E-08, 0.00027898082371374561, 1.6969957461250457E-08, 4.0849300000000003E-10
DataValue, 2.1, 0.1, 0, 8.150699999999999E-08, -8.1933399999999992E-08, 4.77011E-10, 8.150699999999999E-08, 0.00028549430817443629, 1.6741845336029434E-08, 4.77011E-10
