
SetupTitle, Transfer lin
PrimitiveTest, I/V Sweep
TestParameter, Context.MainFrame, 4155C
TestParameter, Channel.UnitType, SMU, SMU, SMU
TestParameter, Channel.Unit, SMU3:MP, SMU1:MP, SMU4:MP
TestParameter, Channel.IName, ID, IS, IG
TestParameter, Channel.VName, VD, VS, VG
TestParameter, Channel.Mode, V, COMMON, V
TestParameter, Channel.Func, CONST, CONST, VAR1
TestParameter, Channel.Index, 
TestParameter, Channel.Time, 
TestParameter, Measurement.Port.Unit, SMU3:MP, SMU1:MP, SMU4:MP
TestParameter, Measurement.Port.SeriesResistor, NONE, NONE, NONE
TestParameter, Measurement.Port.Filter, ON, ON, ON
TestParameter, Measurement.Primary.Locus, Double
TestParameter, Measurement.Primary.Scale, LINEAR
TestParameter, Measurement.Primary.Start, -2
TestParameter, Measurement.Primary.Stop, 3
TestParameter, Measurement.Primary.Step, 0.05
TestParameter, Measurement.Primary.Compliance, 0.001
TestParameter, Measurement.Primary.PowerCompliance, 0
TestParameter, Measurement.Aborting.Condition, CONTINUE AT ANY
TestParameter, Measurement.PostOutput.Value, START
TestParameter, Measurement.PostOutput.Retention, OFF
TestParameter, Measurement.Bias.Source, 0.1, 0, -2
TestParameter, Measurement.Bias.Compliance, 0.001, 0.1, 0.001
TestParameter, Measurement.Monitor.Unit, SMU3:MP, SMU1:MP, SMU4:MP
TestParameter, Measurement.Monitor.Adc, HR ADC, HR ADC, HR ADC
TestParameter, Measurement.Monitor.RangingMode, AUTO, AUTO, AUTO
TestParameter, Measurement.Monitor.RangeBoundary, , , 
TestParameter, Measurement.Monitor.RangeRating, BY FULL RANGE, BY FULL RANGE, BY FULL RANGE
TestParameter, Measurement.Monitor.RangeRatingCoeff, 50, 50, 50
TestParameter, Measurement.Timing.Hold, 0.5
TestParameter, Measurement.Timing.Delay, 0.05
TestParameter, Measurement.Adc.HighResolution.AutoZero, OFF
TestParameter, Measurement.Adc.HighResolution.Mode, AUTO
TestParameter, Measurement.Adc.HighResolution.Coeff, 1
TestParameter, Measurement.Ag16440ASelector.SemiconductorRelay.Channel1, DEFAULT
TestParameter, Measurement.Ag16440ASelector.SemiconductorRelay.Channel3, DEFAULT
TestParameter, Function.User.Name, absID, sqrtID, gm2, absIG
TestParameter, Function.User.Unit, A, A, A/V, A
TestParameter, Function.User.Definition, abs(ID), sqrt(abs(ID)), (delta(sqrtID)/delta(VG))^2, abs(IG)
TestParameter, Output.Graph.Enabled, true
TestParameter, Output.Graph.XAxis.Data, VG
TestParameter, Output.Graph.XAxis.Scale, Linear
TestParameter, Output.Graph.XAxis.Left, -5
TestParameter, Output.Graph.XAxis.Right, 7
TestParameter, Output.Graph.YAxis.Data, ID, absIG, gm2
TestParameter, Output.Graph.YAxis.Scale, Log, Log, Linear
TestParameter, Output.Graph.YAxis.Bottom, 1E-14, 1E-14, 0
TestParameter, Output.Graph.YAxis.Top, 0.01, 0.01, 1E-05
TestParameter, Output.Graph.YAxis.Group, , , 
TestParameter, Output.List.Data, VG, IG, VD, ID, VS, IS, sqrtID, gm2, absIG
TestParameter, AutoAnalysis.Interpolation, false
TestParameter, AutoAnalysis.Line1.Enabled, false
TestParameter, AutoAnalysis.Line1.Type, 1
TestParameter, AutoAnalysis.Line1.Fix, True
TestParameter, AutoAnalysis.Line1.YAxis, 0
TestParameter, AutoAnalysis.Line1.Point1.Type, 0
TestParameter, AutoAnalysis.Line1.Point1.XY.X, 
TestParameter, AutoAnalysis.Line1.Point1.XY.Y, 
TestParameter, AutoAnalysis.Line1.Point1.Data.Var, 
TestParameter, AutoAnalysis.Line1.Point1.Data.Condition, 
TestParameter, AutoAnalysis.Line1.Point1.Data.Start, false
TestParameter, AutoAnalysis.Line1.Point1.Data.StartVar, 
TestParameter, AutoAnalysis.Line1.Point1.Data.StartCondition, 
TestParameter, AutoAnalysis.Line1.Point2.Type, 0
TestParameter, AutoAnalysis.Line1.Point2.XY.X, 
TestParameter, AutoAnalysis.Line1.Point2.XY.Y, 
TestParameter, AutoAnalysis.Line1.Point2.Data.Var, 
TestParameter, AutoAnalysis.Line1.Point2.Data.Condition, 
TestParameter, AutoAnalysis.Line1.Point2.Data.Start, false
TestParameter, AutoAnalysis.Line1.Point2.Data.StartVar, 
TestParameter, AutoAnalysis.Line1.Point2.Data.StartCondition, 
TestParameter, AutoAnalysis.Line1.GradientExpr, 0
TestParameter, AutoAnalysis.Line2.Enabled, false
TestParameter, AutoAnalysis.Line2.Type, 1
TestParameter, AutoAnalysis.Line2.Fix, True
TestParameter, AutoAnalysis.Line2.YAxis, 0
TestParameter, AutoAnalysis.Line2.Point1.Type, 0
TestParameter, AutoAnalysis.Line2.Point1.XY.X, 
TestParameter, AutoAnalysis.Line2.Point1.XY.Y, 
TestParameter, AutoAnalysis.Line2.Point1.Data.Var, 
TestParameter, AutoAnalysis.Line2.Point1.Data.Condition, 
TestParameter, AutoAnalysis.Line2.Point1.Data.Start, false
TestParameter, AutoAnalysis.Line2.Point1.Data.StartVar, 
TestParameter, AutoAnalysis.Line2.Point1.Data.StartCondition, 
TestParameter, AutoAnalysis.Line2.Point2.Type, 0
TestParameter, AutoAnalysis.Line2.Point2.XY.X, 
TestParameter, AutoAnalysis.Line2.Point2.XY.Y, 
TestParameter, AutoAnalysis.Line2.Point2.Data.Var, 
TestParameter, AutoAnalysis.Line2.Point2.Data.Condition, 
TestParameter, AutoAnalysis.Line2.Point2.Data.Start, false
TestParameter, AutoAnalysis.Line2.Point2.Data.StartVar, 
TestParameter, AutoAnalysis.Line2.Point2.Data.StartCondition, 
TestParameter, AutoAnalysis.Line2.GradientExpr, 0
TestParameter, AutoAnalysis.Marker.Enabled, false
TestParameter, AutoAnalysis.Marker.Data.Var, 
TestParameter, AutoAnalysis.Marker.Data.Condition, 
TestParameter, AutoAnalysis.Marker.Data.Start, false
TestParameter, AutoAnalysis.Marker.Data.StartVar, 
TestParameter, AutoAnalysis.Marker.Data.StartCondition, 
MetaData, TestRecord.EntryPoint, true
MetaData, TestRecord.RecordTime, 05/02/2019 10:16:57
MetaData, TestRecord.TestTarget, 250-300-20-10
MetaData, TestRecord.IterationIndex, 1
MetaData, TestRecord.Preservation, true
MetaData, TestRecord.Flag, 
MetaData, TestRecord.Remarks, good
MetaData, TestRecord.LinkKey, eca28078-280e-4e17-8cb1-1c2fa2c33e3d
Dimension1, 202, 202, 202, 202, 202, 202, 202, 202, 202, 202
Dimension2, 1, 1, 1, 1, 1, 1, 1, 1, 1, 1
DataName, VG, VD, VS, ID, IS, IG, absID, sqrtID, gm2, absIG
DataValue, -2, 0.1, 0, 1.6491E-11, 1.4765E-11, -3.522E-11, 1.6491E-11, 4.0609112277911225E-06, 1.1273877410192319E-12, 3.522E-11
DataValue, -1.9500000000000002, 0.1, 0, 1.6925000000000002E-11, 1.3882000000000001E-11, -3.4407E-11, 1.6925000000000002E-11, 4.1140004861448428E-06, 1.1568770804139635E-12, 3.4407E-11
DataValue, -1.9000000000000001, 0.1, 0, 1.5629E-11, 1.4454000000000001E-11, -3.2472E-11, 1.5629E-11, 3.9533530072585217E-06, 5.6483229871627369E-12, 3.2472E-11
DataValue, -1.85, 0.1, 0, 1.5026E-11, 1.3331000000000001E-11, -3.2580000000000005E-11, 1.5026E-11, 3.8763384785129382E-06, 2.9015310342523385E-13, 3.2580000000000005E-11
DataValue, -1.8, 0.1, 0, 1.5206E-11, 1.4209000000000001E-11, -3.1194E-11, 1.5206E-11, 3.899487145766735E-06, 6.0608022485988819E-12, 3.1194E-11
DataValue, -1.75, 0.1, 0, 1.3178E-11, 1.2160000000000002E-11, -2.7772000000000002E-11, 1.3178E-11, 3.6301515119895479E-06, 5.4233600058906626E-12, 2.7772000000000002E-11
DataValue, -1.7000000000000002, 0.1, 0, 1.3444000000000001E-11, 1.2501000000000001E-11, -2.8754000000000003E-11, 1.3444000000000001E-11, 3.6666060601051758E-06, 5.1327746792652785E-14, 2.8754000000000003E-11
DataValue, -1.6500000000000001, 0.1, 0, 1.3343E-11, 1.2293E-11, -2.9264E-11, 1.3343E-11, 3.65280713972145E-06, 1.4927572388326021E-11, 2.9264E-11
DataValue, -1.6, 0.1, 0, 1.076E-11, 1.0981000000000001E-11, -2.7252E-11, 1.076E-11, 3.280243893371345E-06, 8.1066406657112838E-12, 2.7252E-11
DataValue, -1.55, 0.1, 0, 1.1344E-11, 1.1466000000000001E-11, -2.5928000000000003E-11, 1.1344E-11, 3.3680855096033414E-06, 3.3011976051061697E-12, 2.5928000000000003E-11
DataValue, -1.5, 0.1, 0, 1.1985000000000001E-11, 1.1164E-11, -2.6203E-11, 1.1985000000000001E-11, 3.4619358746227523E-06, 1.8433359907656119E-12, 2.6203E-11
DataValue, -1.4500000000000002, 0.1, 0, 1.2277E-11, 1.0279E-11, -2.4935000000000002E-11, 1.2277E-11, 3.5038550198317284E-06, 3.9955017708006186E-14, 2.4935000000000002E-11
DataValue, -1.4000000000000001, 0.1, 0, 1.1847000000000002E-11, 9.6170000000000015E-12, -2.2815E-11, 1.1847000000000002E-11, 3.4419471233591026E-06, 1.0273026223438156E-12, 2.2815E-11
DataValue, -1.35, 0.1, 0, 1.1577E-11, 9.743E-12, -2.4515000000000002E-11, 1.1577E-11, 3.4024990815575543E-06, 3.2372637596374795E-11, 2.4515000000000002E-11
DataValue, -1.3, 0.1, 0, 8.254000000000001E-12, 9.353E-12, -2.1366E-11, 8.254000000000001E-12, 2.8729775495120044E-06, 1.7877630259268849E-12, 2.1366E-11
DataValue, -1.25, 0.1, 0, 1.0685000000000001E-11, 9.2710000000000012E-12, -2.2338000000000003E-11, 1.0685000000000001E-11, 3.2687918257362307E-06, 6.7438105114241113E-11, 2.2338000000000003E-11
DataValue, -1.2, 0.1, 0, 1.3647000000000001E-11, 8.267000000000001E-12, -2.0311E-11, 1.3647000000000001E-11, 3.6941846191006753E-06, 7.8672442911034067E-13, 2.0311E-11
DataValue, -1.1500000000000001, 0.1, 0, 1.0113000000000001E-11, 8.221E-12, -2.0257000000000003E-11, 1.0113000000000001E-11, 3.1800943382233175E-06, 3.81303890822402E-11, 2.0257000000000003E-11
DataValue, -1.1, 0.1, 0, 9.466E-12, 7.445E-12, -1.8447000000000002E-11, 9.466E-12, 3.0766865293688924E-06, 5.9498526541968526E-15, 1.8447000000000002E-11
DataValue, -1.05, 0.1, 0, 1.0064E-11, 7.723E-12, -1.6924E-11, 1.0064E-11, 3.1723808094237363E-06, 4.993149591760576E-14, 1.6924E-11
DataValue, -1, 0.1, 0, 9.3290000000000011E-12, 6.7820000000000008E-12, -1.8952E-11, 9.3290000000000011E-12, 3.0543411728227091E-06, 7.2696831511949084E-12, 1.8952E-11
DataValue, -0.95000000000000007, 0.1, 0, 8.4260000000000015E-12, 5.7230000000000006E-12, -1.539E-11, 8.4260000000000015E-12, 2.9027573098693595E-06, 9.479558448428547E-12, 1.539E-11
DataValue, -0.9, 0.1, 0, 7.543E-12, 7.684E-12, -1.6704E-11, 7.543E-12, 2.7464522570035692E-06, 8.8064952917174155E-13, 1.6704E-11
DataValue, -0.85000000000000009, 0.1, 0, 7.8900000000000013E-12, 5.501E-12, -1.502E-11, 7.8900000000000013E-12, 2.808914381037628E-06, 1.6096845003451692E-12, 1.502E-11
DataValue, -0.8, 0.1, 0, 8.256E-12, 5.5420000000000004E-12, -1.4527E-11, 8.256E-12, 2.8733255993708754E-06, 6.0855357125245322E-12, 1.4527E-11
DataValue, -0.75, 0.1, 0, 6.565E-12, 4.7950000000000005E-12, -1.1967E-11, 6.565E-12, 2.5622255950637913E-06, 8.814602260308671E-12, 1.1967E-11
DataValue, -0.70000000000000007, 0.1, 0, 6.6380000000000006E-12, 4.814E-12, -1.3001000000000001E-11, 6.6380000000000006E-12, 2.5764316408552352E-06, 2.8739869002044447E-12, 1.3001000000000001E-11
DataValue, -0.65, 0.1, 0, 5.7250000000000007E-12, 4.7370000000000005E-12, -9.402E-12, 5.7250000000000007E-12, 2.39269722280108E-06, 8.9677823364864094E-13, 9.402E-12
DataValue, -0.6, 0.1, 0, 6.1590000000000007E-12, 3.6160000000000003E-12, -1.3708000000000001E-11, 6.1590000000000007E-12, 2.4817332652805379E-06, 5.8233191373731406E-13, 1.3708000000000001E-11
DataValue, -0.55, 0.1, 0, 6.0960000000000007E-12, 3.5290000000000004E-12, -1.1782000000000001E-11, 6.0960000000000007E-12, 2.4690078979217545E-06, 9.4175850275436151E-11, 1.1782000000000001E-11
DataValue, -0.5, 0.1, 0, 2.2840000000000004E-12, 2.724E-12, -1.2227000000000001E-11, 2.2840000000000004E-12, 1.5112908389850049E-06, 1.3285219504649259E-11, 1.2227000000000001E-11
DataValue, -0.45, 0.1, 0, 4.4290000000000006E-12, 1.661E-12, -7.424E-12, 4.4290000000000006E-12, 2.1045189474081722E-06, 3.1545862333871509E-14, 7.424E-12
DataValue, -0.4, 0.1, 0, 2.3380000000000003E-12, 2.932E-12, -1.0511000000000002E-11, 2.3380000000000003E-12, 1.5290519938837922E-06, 5.3864548810241528E-12, 1.0511000000000002E-11
DataValue, -0.35000000000000003, 0.1, 0, 3.5060000000000002E-12, 1.3000000000000001E-12, -3.4520000000000002E-12, 3.5060000000000002E-12, 1.872431574183687E-06, 4.0201640213673649E-11, 3.4520000000000002E-12
DataValue, -0.3, 0.1, 0, 4.6790000000000006E-12, 2.0700000000000003E-13, -1.2210000000000002E-12, 4.6790000000000006E-12, 2.1630996278488885E-06, 4.1036962736429235E-13, 1.2210000000000002E-12
DataValue, -0.25, 0.1, 0, 3.75E-12, 3.921E-12, -5.427E-12, 3.75E-12, 1.9364916731037084E-06, 2.4270289356220038E-11, 5.427E-12
DataValue, -0.2, 0.1, 0, 7.0530000000000007E-12, -7.74E-13, -6.7450000000000008E-12, 7.0530000000000007E-12, 2.655748482066779E-06, 7.8799286889974675E-11, 6.7450000000000008E-12
DataValue, -0.15, 0.1, 0, 7.976E-12, -5.4420000000000004E-12, -2.394E-12, 7.976E-12, 2.8241812972966168E-06, 1.0089052777370583E-10, 2.394E-12
DataValue, -0.1, 0.1, 0, 1.3397E-11, -1.2398000000000001E-11, 7.6730000000000009E-12, 1.3397E-11, 3.6601912518337073E-06, 9.5342357538343368E-10, 7.6730000000000009E-12
DataValue, -0.05, 0.1, 0, 3.4951E-11, -3.2225000000000004E-11, 5.6E-14, 3.4951E-11, 5.9119370767964036E-06, 2.8127845408454223E-09, 5.6E-14
DataValue, 0, 0.1, 0, 8.0349E-11, -7.582E-11, 3.2600000000000002E-12, 8.0349E-11, 8.9637603716297554E-06, 5.3271059272999242E-09, 3.2600000000000002E-12
DataValue, 0.05, 0.1, 0, 1.7452100000000002E-10, -1.6362300000000003E-10, -1.3000000000000001E-12, 1.7452100000000002E-10, 1.3210639651432477E-05, 1.0243831164487839E-08, 1.3000000000000001E-12
DataValue, 0.1, 0.1, 0, 3.6423500000000004E-10, -3.4211800000000004E-10, -3.708E-12, 3.6423500000000004E-10, 1.908494170805874E-05, 1.7511475207789976E-08, 3.708E-12
DataValue, 0.15, 0.1, 0, 6.99271E-10, -6.63196E-10, 1.2840000000000002E-12, 6.99271E-10, 2.6443732716846162E-05, 2.2306018067338154E-08, 1.2840000000000002E-12
DataValue, 0.2, 0.1, 0, 1.15737E-09, -1.09536E-09, 2.535E-12, 1.15737E-09, 3.4020141093181846E-05, 3.36649382639054E-08, 2.535E-12
DataValue, 0.25, 0.1, 0, 2.0063E-09, -1.97376E-09, 2.111E-12, 2.0063E-09, 4.4791740310016982E-05, 5.13532213078408E-08, 2.111E-12
DataValue, 0.3, 0.1, 0, 3.21278E-09, -3.15805E-09, 2.7810000000000004E-12, 3.21278E-09, 5.6681390244065119E-05, 5.7072811657924253E-08, 2.7810000000000004E-12
DataValue, 0.35000000000000003, 0.1, 0, 4.71717E-09, -4.6298E-09, 5.6840000000000004E-12, 4.71717E-09, 6.8681656939826365E-05, 5.8935145307836325E-08, 5.6840000000000004E-12
DataValue, 0.4, 0.1, 0, 6.55419E-09, -6.44244E-09, 7.1320000000000007E-12, 6.55419E-09, 8.09579520491965E-05, 5.8251075700963278E-08, 7.1320000000000007E-12
DataValue, 0.45, 0.1, 0, 8.61498E-09, -8.50947E-09, 7.829E-12, 8.61498E-09, 9.2816916561583751E-05, 5.0072746220933535E-08, 7.829E-12
DataValue, 0.5, 0.1, 0, 1.0678099999999999E-08, -1.062723E-08, 7.516E-12, 1.0678099999999999E-08, 0.00010333489246135595, 5.0432155582852474E-08, 7.516E-12
DataValue, 0.55, 0.1, 0, 1.3288099999999998E-08, -1.29509E-08, 9.503000000000001E-12, 1.3288099999999998E-08, 0.00011527402135780637, 5.4040914352277158E-08, 9.503000000000001E-12
DataValue, 0.6, 0.1, 0, 1.60229E-08, -1.59091E-08, 9.069E-12, 1.60229E-08, 0.000126581594238657, 5.3058034933665342E-08, 9.069E-12
DataValue, 0.65, 0.1, 0, 1.91292E-08, -1.89619E-08, 1.3135000000000002E-11, 1.91292E-08, 0.00013830835115783861, 5.28961047254791E-08, 1.3135000000000002E-11
DataValue, 0.70000000000000007, 0.1, 0, 2.2374399999999998E-08, -2.22452E-08, 1.3703000000000002E-11, 2.2374399999999998E-08, 0.00014958074742425911, 4.9645132663055632E-08, 1.3703000000000002E-11
DataValue, 0.75, 0.1, 0, 2.5788999999999997E-08, -2.5603899999999997E-08, 1.1239000000000001E-11, 2.5788999999999997E-08, 0.00016058953888718904, 4.5194267934638875E-08, 1.1239000000000001E-11
DataValue, 0.8, 0.1, 0, 2.9186199999999998E-08, -2.9050999999999997E-08, 1.2141000000000002E-11, 2.9186199999999998E-08, 0.00017083969093861063, 4.2589050651038881E-08, 1.2141000000000002E-11
DataValue, 0.85000000000000009, 0.1, 0, 3.28431E-08, -3.26987E-08, 1.3162E-11, 3.28431E-08, 0.00018122665366882433, 4.2525836463237753E-08, 1.3162E-11
DataValue, 0.9, 0.1, 0, 3.6657499999999996E-08, -3.6453499999999996E-08, 1.4689E-11, 3.6657499999999996E-08, 0.00019146148437740681, 4.07739515948622E-08, 1.4689E-11
DataValue, 0.95000000000000007, 0.1, 0, 4.0569699999999996E-08, -4.0370199999999994E-08, 1.6539E-11, 4.0569699999999996E-08, 0.00020141921457497543, 3.9484545624330479E-08, 1.6539E-11
DataValue, 1, 0.1, 0, 4.4661299999999995E-08, -4.4542299999999992E-08, 1.6278E-11, 4.4661299999999995E-08, 0.00021133220294124603, 3.8666508971532219E-08, 1.6278E-11
DataValue, 1.05, 0.1, 0, 4.8877699999999993E-08, -4.8737999999999996E-08, 1.8103E-11, 4.8877699999999993E-08, 0.00022108301608219478, 3.8321992982548135E-08, 1.8103E-11
DataValue, 1.1, 0.1, 0, 5.3318599999999994E-08, -5.3133299999999993E-08, 1.9399E-11, 5.3318599999999994E-08, 0.000230908206870176, 3.6829425701957232E-08, 1.9399E-11
DataValue, 1.1500000000000001, 0.1, 0, 5.7731599999999995E-08, -5.75723E-08, 2.1739000000000002E-11, 5.7731599999999995E-08, 0.00024027401024663485, 3.6419878913474442E-08, 2.1739000000000002E-11
DataValue, 1.2, 0.1, 0, 6.24961E-08, -6.2424199999999988E-08, 2.3925E-11, 6.24961E-08, 0.0002499921998783162, 3.5276233171746865E-08, 2.3925E-11
DataValue, 1.25, 0.1, 0, 6.711E-08, -6.7016599999999989E-08, 2.7039000000000002E-11, 6.711E-08, 0.00025905597850657682, 3.3740417152973932E-08, 2.7039000000000002E-11
DataValue, 1.3, 0.1, 0, 7.201749999999999E-08, -7.1811899999999989E-08, 2.8744E-11, 7.201749999999999E-08, 0.000268360764643418, 3.4965744245918839E-08, 2.8744E-11
DataValue, 1.35, 0.1, 0, 7.7147899999999992E-08, -7.6989199999999986E-08, 3.3048E-11, 7.7147899999999992E-08, 0.000277755107963832, 3.4233395356219954E-08, 3.3048E-11
DataValue, 1.4000000000000001, 0.1, 0, 8.2290399999999986E-08, -8.2083699999999993E-08, 3.9001E-11, 8.2290399999999986E-08, 0.00028686303351948292, 3.4491574231589553E-08, 3.9001E-11
DataValue, 1.4500000000000002, 0.1, 0, 8.7809699999999987E-08, -8.7514099999999991E-08, 4.276E-11, 8.7809699999999987E-08, 0.000296327015305726, 3.4094364291579264E-08, 4.276E-11
DataValue, 1.5, 0.1, 0, 9.3224999999999989E-08, -9.2998299999999986E-08, 4.9864000000000005E-11, 9.3224999999999989E-08, 0.00030532769281544047, 3.33201831926618E-08, 4.9864000000000005E-11
DataValue, 1.55, 0.1, 0, 9.8961099999999987E-08, -9.8726E-08, 5.6346E-11, 9.8961099999999987E-08, 0.00031458083221963794, 3.3337710039672235E-08, 5.6346E-11
DataValue, 1.6, 0.1, 0, 1.0470809999999999E-07, -1.0451879999999999E-07, 6.3866E-11, 1.0470809999999999E-07, 0.00032358630996999856, 3.3132300930899153E-08, 6.3866E-11
DataValue, 1.6500000000000001, 0.1, 0, 1.107446E-07, -1.1059599999999999E-07, 7.4674000000000008E-11, 1.107446E-07, 0.00033278311255230484, 2.8111378554252321E-08, 7.4674000000000008E-11
DataValue, 1.7000000000000002, 0.1, 0, 1.1584E-07, -1.15666E-07, 8.198600000000001E-11, 1.1584E-07, 0.00034035275817892235, 2.8073519589899926E-08, 8.198600000000001E-11
DataValue, 1.75, 0.1, 0, 1.22177E-07, -1.2205199999999999E-07, 9.7421000000000007E-11, 1.22177E-07, 0.00034953826686072583, 3.400724902147859E-08, 9.7421000000000007E-11
DataValue, 1.8, 0.1, 0, 1.28733E-07, -1.2855E-07, 1.1223900000000001E-10, 1.28733E-07, 0.00035879381265568113, 3.374822241949544E-08, 1.1223900000000001E-10
DataValue, 1.85, 0.1, 0, 1.3535699999999999E-07, -1.35235E-07, 1.32645E-10, 1.3535699999999999E-07, 0.00036790895612909448, 3.3796646690865179E-08, 1.32645E-10
DataValue, 1.9000000000000001, 0.1, 0, 1.42263E-07, -1.42151E-07, 1.5160000000000002E-10, 1.42263E-07, 0.00037717767696405363, 3.2247543783290424E-08, 1.5160000000000002E-10
DataValue, 1.9500000000000002, 0.1, 0, 1.48893E-07, -1.48822E-07, 1.75936E-10, 1.48893E-07, 0.00038586655724485893, 3.0716100418463109E-08, 1.75936E-10
DataValue, 2, 0.1, 0, 1.55791E-07, -1.55901E-07, 2.0160800000000002E-10, 1.55791E-07, 0.00039470368632684442, 3.2256656621273248E-08, 2.0160800000000002E-10
DataValue, 2.05, 0.1, 0, 1.63076E-07, -1.63166E-07, 2.3231500000000001E-10, 1.63076E-07, 0.00040382669550191949, 3.2350590620070116E-08, 2.3231500000000001E-10
DataValue, 2.1, 0.1, 0, 1.70313E-07, -1.70449E-07, 2.65814E-10, 1.70313E-07, 0.00041268995626256766, 3.0969904233774848E-08, 2.65814E-10
DataValue, 2.15, 0.1, 0, 1.77599E-07, -1.77803E-07, 3.03182E-10, 1.77599E-07, 0.00042142496366494477, 3.1203628317274368E-08, 3.03182E-10
