
SetupTitle, Transfer lin
PrimitiveTest, I/V Sweep
TestParameter, Context.MainFrame, 4155C
TestParameter, Channel.UnitType, SMU, SMU, SMU
TestParameter, Channel.Unit, SMU1:MP, SMU3:MP, SMU4:MP
TestParameter, Channel.IName, ID, IS, IG
TestParameter, Channel.VName, VD, VS, VG
TestParameter, Channel.Mode, V, COMMON, V
TestParameter, Channel.Func, CONST, CONST, VAR1
TestParameter, Channel.Index, 
TestParameter, Channel.Time, 
TestParameter, Measurement.Port.Unit, SMU1:MP, SMU3:MP, SMU4:MP
TestParameter, Measurement.Port.SeriesResistor, NONE, NONE, NONE
TestParameter, Measurement.Port.Filter, ON, ON, ON
TestParameter, Measurement.Primary.Locus, Double
TestParameter, Measurement.Primary.Scale, LINEAR
TestParameter, Measurement.Primary.Start, -2
TestParameter, Measurement.Primary.Stop, 3
TestParameter, Measurement.Primary.Step, 0.05
TestParameter, Measurement.Primary.Compliance, 0.001
TestParameter, Measurement.Primary.PowerCompliance, 0
TestParameter, Measurement.Aborting.Condition, CONTINUE AT ANY
TestParameter, Measurement.PostOutput.Value, START
TestParameter, Measurement.PostOutput.Retention, OFF
TestParameter, Measurement.Bias.Source, 0.1, 0, -2
TestParameter, Measurement.Bias.Compliance, 0.001, 0.1, 0.001
TestParameter, Measurement.Monitor.Unit, SMU1:MP, SMU3:MP, SMU4:MP
TestParameter, Measurement.Monitor.Adc, HR ADC, HR ADC, HR ADC
TestParameter, Measurement.Monitor.RangingMode, AUTO, AUTO, AUTO
TestParameter, Measurement.Monitor.RangeBoundary, , , 
TestParameter, Measurement.Monitor.RangeRating, BY FULL RANGE, BY FULL RANGE, BY FULL RANGE
TestParameter, Measurement.Monitor.RangeRatingCoeff, 50, 50, 50
TestParameter, Measurement.Timing.Hold, 0.5
TestParameter, Measurement.Timing.Delay, 0.05
TestParameter, Measurement.Adc.HighResolution.AutoZero, OFF
TestParameter, Measurement.Adc.HighResolution.Mode, AUTO
TestParameter, Measurement.Adc.HighResolution.Coeff, 1
TestParameter, Measurement.Ag16440ASelector.SemiconductorRelay.Channel1, DEFAULT
TestParameter, Measurement.Ag16440ASelector.SemiconductorRelay.Channel3, DEFAULT
TestParameter, Function.User.Name, absID, sqrtID, gm2, absIG
TestParameter, Function.User.Unit, A, A, A/V, A
TestParameter, Function.User.Definition, abs(ID), sqrt(abs(ID)), (delta(sqrtID)/delta(VG))^2, abs(IG)
TestParameter, Output.Graph.Enabled, true
TestParameter, Output.Graph.XAxis.Data, VG
TestParameter, Output.Graph.XAxis.Scale, Linear
TestParameter, Output.Graph.XAxis.Left, -5
TestParameter, Output.Graph.XAxis.Right, 7
TestParameter, Output.Graph.YAxis.Data, ID, absIG, gm2
TestParameter, Output.Graph.YAxis.Scale, Log, Log, Linear
TestParameter, Output.Graph.YAxis.Bottom, 1E-14, 1E-14, 0
TestParameter, Output.Graph.YAxis.Top, 0.01, 0.01, 1E-05
TestParameter, Output.Graph.YAxis.Group, , , 
TestParameter, Output.List.Data, VG, IG, VD, ID, VS, IS, sqrtID, gm2, absIG
TestParameter, AutoAnalysis.Interpolation, false
TestParameter, AutoAnalysis.Line1.Enabled, false
TestParameter, AutoAnalysis.Line1.Type, 1
TestParameter, AutoAnalysis.Line1.Fix, True
TestParameter, AutoAnalysis.Line1.YAxis, 0
TestParameter, AutoAnalysis.Line1.Point1.Type, 0
TestParameter, AutoAnalysis.Line1.Point1.XY.X, 
TestParameter, AutoAnalysis.Line1.Point1.XY.Y, 
TestParameter, AutoAnalysis.Line1.Point1.Data.Var, 
TestParameter, AutoAnalysis.Line1.Point1.Data.Condition, 
TestParameter, AutoAnalysis.Line1.Point1.Data.Start, false
TestParameter, AutoAnalysis.Line1.Point1.Data.StartVar, 
TestParameter, AutoAnalysis.Line1.Point1.Data.StartCondition, 
TestParameter, AutoAnalysis.Line1.Point2.Type, 0
TestParameter, AutoAnalysis.Line1.Point2.XY.X, 
TestParameter, AutoAnalysis.Line1.Point2.XY.Y, 
TestParameter, AutoAnalysis.Line1.Point2.Data.Var, 
TestParameter, AutoAnalysis.Line1.Point2.Data.Condition, 
TestParameter, AutoAnalysis.Line1.Point2.Data.Start, false
TestParameter, AutoAnalysis.Line1.Point2.Data.StartVar, 
TestParameter, AutoAnalysis.Line1.Point2.Data.StartCondition, 
TestParameter, AutoAnalysis.Line1.GradientExpr, 0
TestParameter, AutoAnalysis.Line2.Enabled, false
TestParameter, AutoAnalysis.Line2.Type, 1
TestParameter, AutoAnalysis.Line2.Fix, True
TestParameter, AutoAnalysis.Line2.YAxis, 0
TestParameter, AutoAnalysis.Line2.Point1.Type, 0
TestParameter, AutoAnalysis.Line2.Point1.XY.X, 
TestParameter, AutoAnalysis.Line2.Point1.XY.Y, 
TestParameter, AutoAnalysis.Line2.Point1.Data.Var, 
TestParameter, AutoAnalysis.Line2.Point1.Data.Condition, 
TestParameter, AutoAnalysis.Line2.Point1.Data.Start, false
TestParameter, AutoAnalysis.Line2.Point1.Data.StartVar, 
TestParameter, AutoAnalysis.Line2.Point1.Data.StartCondition, 
TestParameter, AutoAnalysis.Line2.Point2.Type, 0
TestParameter, AutoAnalysis.Line2.Point2.XY.X, 
TestParameter, AutoAnalysis.Line2.Point2.XY.Y, 
TestParameter, AutoAnalysis.Line2.Point2.Data.Var, 
TestParameter, AutoAnalysis.Line2.Point2.Data.Condition, 
TestParameter, AutoAnalysis.Line2.Point2.Data.Start, false
TestParameter, AutoAnalysis.Line2.Point2.Data.StartVar, 
TestParameter, AutoAnalysis.Line2.Point2.Data.StartCondition, 
TestParameter, AutoAnalysis.Line2.GradientExpr, 0
TestParameter, AutoAnalysis.Marker.Enabled, false
TestParameter, AutoAnalysis.Marker.Data.Var, 
TestParameter, AutoAnalysis.Marker.Data.Condition, 
TestParameter, AutoAnalysis.Marker.Data.Start, false
TestParameter, AutoAnalysis.Marker.Data.StartVar, 
TestParameter, AutoAnalysis.Marker.Data.StartCondition, 
MetaData, TestRecord.EntryPoint, true
MetaData, TestRecord.RecordTime, 05/02/2019 10:03:20
MetaData, TestRecord.TestTarget, 250-300-10-10
MetaData, TestRecord.IterationIndex, 1
MetaData, TestRecord.Preservation, true
MetaData, TestRecord.Flag, 
MetaData, TestRecord.Remarks, middle-after sat redone wrong
MetaData, TestRecord.LinkKey, d7b16e77-b077-4f89-921b-1cfa9ba18661
Dimension1, 202, 202, 202, 202, 202, 202, 202, 202, 202, 202
Dimension2, 1, 1, 1, 1, 1, 1, 1, 1, 1, 1
DataName, VG, VD, VS, ID, IS, IG, absID, sqrtID, gm2, absIG
DataValue, -2, 0.1, 0, 2.2589E-11, 1.0931E-11, -5.0961000000000006E-11, 2.2589E-11, 4.7527886550950274E-06, 1.1940467030021586E-10, 5.0961000000000006E-11
DataValue, -1.9500000000000002, 0.1, 0, 2.8081000000000004E-11, 1.8369E-11, -5.3242000000000006E-11, 2.8081000000000004E-11, 5.299150875376168E-06, 2.8631901753182978E-11, 5.3242000000000006E-11
DataValue, -1.9000000000000001, 0.1, 0, 1.7789000000000002E-11, 1.6111000000000002E-11, -3.5984000000000003E-11, 1.7789000000000002E-11, 4.2177007954571648E-06, 3.4924141824768748E-11, 3.5984000000000003E-11
DataValue, -1.85, 0.1, 0, 2.2167000000000003E-11, 1.4576E-11, -4.5182000000000004E-11, 2.2167000000000003E-11, 4.7081843634250354E-06, 3.4402783327065774E-12, 4.5182000000000004E-11
DataValue, -1.8, 0.1, 0, 1.9388000000000003E-11, 1.4576E-11, -4.0428000000000005E-11, 1.9388000000000003E-11, 4.4031806685622158E-06, 5.4668471825583296E-12, 4.0428000000000005E-11
DataValue, -1.75, 0.1, 0, 2.0020000000000002E-11, 1.4097000000000002E-11, -4.6504E-11, 2.0020000000000002E-11, 4.4743714642394187E-06, 6.3172008868606452E-17, 4.6504E-11
DataValue, -1.7000000000000002, 0.1, 0, 1.9395E-11, 1.2218000000000002E-11, -4.1476000000000006E-11, 1.9395E-11, 4.4039754767709593E-06, 3.7770700761211058E-11, 4.1476000000000006E-11
DataValue, -1.6500000000000001, 0.1, 0, 1.4898E-11, 1.0614000000000001E-11, -3.3393E-11, 1.4898E-11, 3.8597927405496789E-06, 2.0135484422059762E-11, 3.3393E-11
DataValue, -1.6, 0.1, 0, 1.5644000000000002E-11, 1.4307E-11, -3.1715000000000004E-11, 1.5644000000000002E-11, 3.955249676063447E-06, 1.1376508158602716E-12, 3.1715000000000004E-11
DataValue, -1.55, 0.1, 0, 1.4086000000000001E-11, 1.5016E-11, -3.3185E-11, 1.4086000000000001E-11, 3.7531320253889284E-06, 3.5667535847363743E-13, 3.3185E-11
DataValue, -1.5, 0.1, 0, 1.612E-11, 1.1713E-11, -3.7845000000000006E-11, 1.612E-11, 4.0149719799769464E-06, 1.1537335035789532E-11, 3.7845000000000006E-11
DataValue, -1.4500000000000002, 0.1, 0, 1.6751000000000002E-11, 1.1159000000000001E-11, -3.4013E-11, 1.6751000000000002E-11, 4.0927985535572115E-06, 4.6609849738039088E-12, 3.4013E-11
DataValue, -1.4000000000000001, 0.1, 0, 1.4433E-11, 1.2529E-11, -2.7568000000000004E-11, 1.4433E-11, 3.7990788357179428E-06, 4.3006582790099644E-11, 2.7568000000000004E-11
DataValue, -1.35, 0.1, 0, 1.1813E-11, 1.2232E-11, -2.4610000000000003E-11, 1.1813E-11, 3.4370045097439139E-06, 1.2910468340523793E-11, 2.4610000000000003E-11
DataValue, -1.3, 0.1, 0, 1.1832E-11, 1.1732E-11, -3.0779E-11, 1.1832E-11, 3.4397674339989907E-06, 8.1124140388735557E-12, 3.0779E-11
DataValue, -1.25, 0.1, 0, 1.3852E-11, 1.1942E-11, -3.0405000000000004E-11, 1.3852E-11, 3.7218275080933023E-06, 1.7073789957353683E-12, 3.0405000000000004E-11
DataValue, -1.2, 0.1, 0, 1.2748E-11, 9.873E-12, -2.6170000000000002E-11, 1.2748E-11, 3.5704341472711692E-06, 7.3143727777386658E-12, 2.6170000000000002E-11
DataValue, -1.1500000000000001, 0.1, 0, 1.1912E-11, 8.9740000000000011E-12, -2.6207000000000003E-11, 1.1912E-11, 3.4513765369776739E-06, 2.7321107565184904E-12, 2.6207000000000003E-11
DataValue, -1.1, 0.1, 0, 1.1595000000000001E-11, 8.473E-12, -2.4940000000000003E-11, 1.1595000000000001E-11, 3.4051431687962844E-06, 1.4546979366441038E-12, 2.4940000000000003E-11
DataValue, -1.05, 0.1, 0, 1.1094000000000001E-11, 7.6760000000000008E-12, -2.3652E-11, 1.1094000000000001E-11, 3.3307656777383788E-06, 6.01062484427202E-13, 2.3652E-11
DataValue, -1, 0.1, 0, 1.2129E-11, 7.55E-12, -2.2462E-11, 1.2129E-11, 3.4826713884603011E-06, 2.8228607249069167E-12, 2.2462E-11
DataValue, -0.95000000000000007, 0.1, 0, 1.0003000000000001E-11, 6.5120000000000005E-12, -2.1028000000000003E-11, 1.0003000000000001E-11, 3.1627519662471164E-06, 1.8248661459366082E-11, 2.1028000000000003E-11
DataValue, -0.9, 0.1, 0, 9.3360000000000014E-12, 6.8960000000000005E-12, -1.7652000000000003E-11, 9.3360000000000014E-12, 3.0554868679148338E-06, 4.9739743687371548E-12, 1.7652000000000003E-11
DataValue, -0.85000000000000009, 0.1, 0, 8.6420000000000013E-12, 6.7980000000000007E-12, -2.1185000000000002E-11, 8.6420000000000013E-12, 2.9397278785629124E-06, 3.274178307650503E-15, 2.1185000000000002E-11
DataValue, -0.8, 0.1, 0, 9.3710000000000012E-12, 6.9660000000000008E-12, -1.8200000000000002E-11, 9.3710000000000012E-12, 3.0612089115249879E-06, 1.1499947458492284E-12, 1.8200000000000002E-11
DataValue, -0.75, 0.1, 0, 8.023E-12, 5.5890000000000005E-12, -1.5803000000000003E-11, 8.023E-12, 2.8324900705915989E-06, 1.6287551519563847E-11, 1.5803000000000003E-11
DataValue, -0.70000000000000007, 0.1, 0, 7.0630000000000009E-12, 4.32E-12, -1.4266E-11, 7.0630000000000009E-12, 2.6576305236055672E-06, 7.6872177578214571E-13, 1.4266E-11
DataValue, -0.65, 0.1, 0, 7.5340000000000008E-12, 2.7310000000000004E-12, -1.5794E-11, 7.5340000000000008E-12, 2.7448132905536581E-06, 2.7241009593570942E-14, 1.5794E-11
DataValue, -0.6, 0.1, 0, 7.1510000000000005E-12, 4.0790000000000007E-12, -1.4001E-11, 7.1510000000000005E-12, 2.6741353742845558E-06, 9.27363418003749E-12, 1.4001E-11
DataValue, -0.55, 0.1, 0, 5.955E-12, 4.128E-12, -1.2360000000000002E-11, 5.955E-12, 2.4402868683824862E-06, 3.0274632733294425E-11, 1.2360000000000002E-11
DataValue, -0.5, 0.1, 0, 4.5110000000000005E-12, 4.228E-12, -9.4260000000000012E-12, 4.5110000000000005E-12, 2.1239114859146086E-06, 1.1020408365646937E-11, 9.4260000000000012E-12
DataValue, -0.45, 0.1, 0, 4.4450000000000005E-12, 3.1030000000000004E-12, -1.0452000000000001E-11, 4.4450000000000005E-12, 2.1083168642308016E-06, 8.2310179484977768E-12, 1.0452000000000001E-11
DataValue, -0.4, 0.1, 0, 5.8120000000000007E-12, 8.1200000000000007E-13, -1.1044E-11, 5.8120000000000007E-12, 2.4108089928486663E-06, 5.0589559283471433E-12, 1.1044E-11
DataValue, -0.35000000000000003, 0.1, 0, 5.4440000000000006E-12, 1.969E-12, -8.279E-12, 5.4440000000000006E-12, 2.3332380932943816E-06, 2.0382730125038945E-11, 8.279E-12
DataValue, -0.3, 0.1, 0, 3.839E-12, 4.3790000000000006E-12, -7.474E-12, 3.839E-12, 1.9593366224311738E-06, 3.848289146296888E-11, 7.474E-12
DataValue, -0.25, 0.1, 0, 2.9340000000000002E-12, 5.7E-13, -6.9030000000000008E-12, 2.9340000000000002E-12, 1.7128922908344237E-06, 1.8419894618044485E-14, 6.9030000000000008E-12
DataValue, -0.2, 0.1, 0, 3.786E-12, 5.0200000000000008E-13, -6.413E-12, 3.786E-12, 1.9457646311925808E-06, 1.5139228627053713E-14, 6.413E-12
DataValue, -0.15, 0.1, 0, 2.892E-12, 3.6800000000000005E-13, -2.87E-12, 2.892E-12, 1.7005881335585053E-06, 1.122067379168448E-12, 2.87E-12
DataValue, -0.1, 0.1, 0, 3.3850000000000002E-12, -1.7480000000000002E-12, -3.823E-12, 3.3850000000000002E-12, 1.83983694929741E-06, 5.8829173627487554E-11, 3.823E-12
DataValue, -0.05, 0.1, 0, 6.0890000000000004E-12, -5.3000000000000004E-12, -1.207E-12, 6.0890000000000004E-12, 2.4675899173079795E-06, 3.1702591227722788E-10, 1.207E-12
DataValue, 0, 0.1, 0, 1.3107E-11, -1.2488000000000001E-11, -6.63E-13, 1.3107E-11, 3.6203590982111155E-06, 8.5144104211679436E-10, 6.63E-13
DataValue, 0.05, 0.1, 0, 2.9004000000000002E-11, -2.9708E-11, 2.09E-12, 2.9004000000000002E-11, 5.3855361850051667E-06, 1.896801663232503E-09, 2.09E-12
DataValue, 0.1, 0.1, 0, 6.361E-11, -6.4405000000000009E-11, 2.804E-12, 6.361E-11, 7.9755877526361649E-06, 2.1225933848689873E-09, 2.804E-12
DataValue, 0.15, 0.1, 0, 9.9854E-11, -1.18481E-10, 4.052E-12, 9.9854E-11, 9.9926973335531384E-06, 4.3232159587906728E-09, 4.052E-12
DataValue, 0.2, 0.1, 0, 2.1172300000000002E-10, -2.39459E-10, 4.522E-12, 2.1172300000000002E-10, 1.4550704450300681E-05, 1.4155934413442812E-08, 4.522E-12
DataValue, 0.25, 0.1, 0, 4.79197E-10, -2.13147E-10, 6.544E-12, 4.79197E-10, 2.1890568745466622E-05, 2.0466317112508485E-10, 6.544E-12
DataValue, 0.3, 0.1, 0, 1.72137E-10, -1.50838E-10, 6.886E-12, 1.72137E-10, 1.3120099084991698E-05, 5.0179935716955374E-09, 6.886E-12
DataValue, 0.35000000000000003, 0.1, 0, 2.1924100000000002E-10, -1.7157500000000003E-10, 7.5220000000000013E-12, 2.1924100000000002E-10, 1.4806788983435944E-05, 2.9136656857095858E-09, 7.5220000000000013E-12
DataValue, 0.4, 0.1, 0, 3.4291400000000004E-10, -4.8992E-10, 8.6000000000000013E-12, 3.4291400000000004E-10, 1.8517937250136692E-05, 7.7901885124772928E-10, 8.6000000000000013E-12
DataValue, 0.45, 0.1, 0, 1.4437700000000002E-10, -1.32334E-10, 9.1420000000000012E-12, 1.4437700000000002E-10, 1.2015698065447551E-05, 3.4698070254972504E-09, 9.1420000000000012E-12
DataValue, 0.5, 0.1, 0, 1.5945200000000002E-10, -1.8595400000000002E-10, 1.1218000000000002E-11, 1.5945200000000002E-10, 1.2627430459123503E-05, 3.2580648313529925E-10, 1.1218000000000002E-11
DataValue, 0.55, 0.1, 0, 1.91012E-10, -2.11674E-10, 1.1611000000000001E-11, 1.91012E-10, 1.3820709099029616E-05, 3.1780366283273863E-10, 1.1611000000000001E-11
DataValue, 0.6, 0.1, 0, 2.0765200000000002E-10, -2.8108700000000003E-10, 1.3121000000000001E-11, 2.0765200000000002E-10, 1.4410135322057182E-05, 2.0747111590631414E-09, 1.3121000000000001E-11
DataValue, 0.65, 0.1, 0, 3.3766300000000003E-10, -1.71021E-10, 1.3008000000000001E-11, 3.3766300000000003E-10, 1.8375608833450936E-05, 1.9277197572581093E-11, 1.3008000000000001E-11
DataValue, 0.70000000000000007, 0.1, 0, 1.95191E-10, -2.68026E-10, 1.1533000000000001E-11, 1.95191E-10, 1.3971077266982672E-05, 7.1279053242675287E-10, 1.1533000000000001E-11
DataValue, 0.75, 0.1, 0, 2.46672E-10, -3.6088400000000003E-10, 1.4296000000000001E-11, 2.46672E-10, 1.5705795108812544E-05, 7.4297535750808717E-11, 1.4296000000000001E-11
DataValue, 0.8, 0.1, 0, 2.2001900000000002E-10, -3.31122E-10, 1.4601000000000002E-11, 2.2001900000000002E-10, 1.4833037450232506E-05, 1.7873152543473817E-10, 1.4601000000000002E-11
DataValue, 0.85000000000000009, 0.1, 0, 2.0646500000000002E-10, -2.6342300000000003E-10, 1.6482000000000002E-11, 2.0646500000000002E-10, 1.4368890005842484E-05, 7.5005400499438364E-15, 1.6482000000000002E-11
DataValue, 0.9, 0.1, 0, 2.20276E-10, -2.2296500000000002E-10, 1.8062E-11, 2.20276E-10, 1.4841698016062718E-05, 2.7234434905723471E-15, 1.8062E-11
DataValue, 0.95000000000000007, 0.1, 0, 2.0661500000000002E-10, -2.0430200000000003E-10, 1.9998E-11, 2.0661500000000002E-10, 1.4374108668018342E-05, 2.5498019266987649E-09, 1.9998E-11
DataValue, 1, 0.1, 0, 3.95662E-10, -3.14826E-10, 2.0759000000000002E-11, 3.95662E-10, 1.9891254359642581E-05, 5.3496937242083736E-09, 2.0759000000000002E-11
DataValue, 1.05, 0.1, 0, 4.70381E-10, -4.8814300000000006E-10, 2.451E-11, 4.70381E-10, 2.1688268718364773E-05, 1.4616389412513219E-10, 2.451E-11
DataValue, 1.1, 0.1, 0, 4.4522000000000004E-10, -5.8647500000000009E-10, 2.6095E-11, 4.4522000000000004E-10, 2.1100236965494015E-05, 6.944338178992185E-10, 2.6095E-11
DataValue, 1.1500000000000001, 0.1, 0, 3.6301900000000005E-10, -4.26246E-10, 2.7138000000000002E-11, 3.6301900000000005E-10, 1.9053057497420198E-05, 1.1925537212072042E-09, 2.7138000000000002E-11
DataValue, 1.2, 0.1, 0, 6.0287800000000008E-10, -5.1766200000000007E-10, 2.9444E-11, 6.0287800000000008E-10, 2.4553574077921936E-05, 1.7198383371045591E-09, 2.9444E-11
DataValue, 1.25, 0.1, 0, 5.3824700000000005E-10, -5.6528E-10, 3.1096000000000006E-11, 5.3824700000000005E-10, 2.3200150861578467E-05, 7.2456845310969476E-10, 3.1096000000000006E-11
DataValue, 1.3, 0.1, 0, 4.77938E-10, -5.45858E-10, 3.4094000000000004E-11, 4.77938E-10, 2.1861793156097695E-05, 1.1260515913213126E-10, 3.4094000000000004E-11
DataValue, 1.35, 0.1, 0, 5.88611E-10, -5.8892100000000008E-10, 3.7364E-11, 5.88611E-10, 2.4261306642470846E-05, 1.9780327216258882E-10, 3.7364E-11
DataValue, 1.4000000000000001, 0.1, 0, 5.4141E-10, -6.4232700000000007E-10, 4.9287000000000005E-11, 5.4141E-10, 2.3268218668389722E-05, 8.8196518456386944E-12, 4.9287000000000005E-11
DataValue, 1.4500000000000002, 0.1, 0, 5.7428900000000008E-10, -5.6916400000000006E-10, 5.2309E-11, 5.7428900000000008E-10, 2.3964327655913906E-05, 2.9244008023814108E-10, 5.2309E-11
DataValue, 1.5, 0.1, 0, 4.6475300000000005E-10, -4.9817400000000008E-10, 5.7931E-11, 4.6475300000000005E-10, 2.1558130716738871E-05, 9.0034396556375584E-10, 5.7931E-11
DataValue, 1.55, 0.1, 0, 4.3947900000000006E-10, -4.72506E-10, 6.7845E-11, 4.3947900000000006E-10, 2.0963754434738069E-05, 4.7708849204358819E-11, 6.7845E-11
DataValue, 1.6, 0.1, 0, 4.35449E-10, -5.00918E-10, 7.8433000000000007E-11, 4.35449E-10, 2.0867414789570843E-05, 4.5766437941141155E-11, 7.8433000000000007E-11
DataValue, 1.6500000000000001, 0.1, 0, 4.68301E-10, -5.6165800000000009E-10, 9.0661000000000009E-11, 4.68301E-10, 2.1640263399506026E-05, 2.8203159019250727E-11, 9.0661000000000009E-11
DataValue, 1.7000000000000002, 0.1, 0, 4.5789500000000005E-10, -5.92461E-10, 1.00036E-10, 4.5789500000000005E-10, 2.1398481254518977E-05, 3.58455336907645E-11, 1.00036E-10
DataValue, 1.75, 0.1, 0, 4.94572E-10, -6.04272E-10, 1.1520400000000001E-10, 4.94572E-10, 2.2238974796514338E-05, 2.7204609390571355E-10, 1.1520400000000001E-10
DataValue, 1.8, 0.1, 0, 5.31204E-10, -6.4537500000000006E-10, 1.30144E-10, 5.31204E-10, 2.3047863241524149E-05, 3.3162324097285567E-16, 1.30144E-10
DataValue, 1.85, 0.1, 0, 4.9465300000000007E-10, -6.23552E-10, 1.4775500000000002E-10, 4.9465300000000007E-10, 2.2240795849069792E-05, 6.93522247445819E-10, 1.4775500000000002E-10
DataValue, 1.9000000000000001, 0.1, 0, 4.16747E-10, -5.9132000000000008E-10, 1.7013700000000002E-10, 4.16747E-10, 2.0414382185116452E-05, 3.8250626813422882E-10, 1.7013700000000002E-10
DataValue, 1.9500000000000002, 0.1, 0, 4.1148200000000003E-10, -6.07088E-10, 1.9180000000000003E-10, 4.1148200000000003E-10, 2.0285019102776317E-05, 1.1419794014538648E-10, 1.9180000000000003E-10
DataValue, 2, 0.1, 0, 4.6152E-10, -6.52191E-10, 2.1821700000000002E-10, 4.6152E-10, 2.148301654796179E-05, 6.7131907843438215E-11, 2.1821700000000002E-10
DataValue, 2.05, 0.1, 0, 4.4539400000000003E-10, -6.7523100000000006E-10, 2.48829E-10, 4.4539400000000003E-10, 2.1104359739162904E-05, 4.2180073678255552E-11, 2.48829E-10
DataValue, 2.1, 0.1, 0, 4.3403700000000006E-10, -7.18968E-10, 2.8044800000000003E-10, 4.3403700000000006E-10, 2.0833554665490958E-05, 4.4644957632997081E-11, 2.8044800000000003E-10
