
SetupTitle, Transfer sat
PrimitiveTest, I/V Sweep
TestParameter, Context.MainFrame, 4155C
TestParameter, Channel.UnitType, SMU, SMU, SMU
TestParameter, Channel.Unit, SMU3:MP, SMU1:MP, SMU4:MP
TestParameter, Channel.IName, ID, IS, IG
TestParameter, Channel.VName, VD, VS, VG
TestParameter, Channel.Mode, V, COMMON, V
TestParameter, Channel.Func, CONST, CONST, VAR1
TestParameter, Channel.Index, 
TestParameter, Channel.Time, 
TestParameter, Measurement.Port.Unit, SMU3:MP, SMU1:MP, SMU4:MP
TestParameter, Measurement.Port.SeriesResistor, NONE, NONE, NONE
TestParameter, Measurement.Port.Filter, ON, ON, ON
TestParameter, Measurement.Primary.Locus, Double
TestParameter, Measurement.Primary.Scale, LINEAR
TestParameter, Measurement.Primary.Start, -2
TestParameter, Measurement.Primary.Stop, 3
TestParameter, Measurement.Primary.Step, 0.05
TestParameter, Measurement.Primary.Compliance, 0.001
TestParameter, Measurement.Primary.PowerCompliance, 0
TestParameter, Measurement.Aborting.Condition, CONTINUE AT ANY
TestParameter, Measurement.PostOutput.Value, START
TestParameter, Measurement.PostOutput.Retention, OFF
TestParameter, Measurement.Bias.Source, 5, 0, -2
TestParameter, Measurement.Bias.Compliance, 0.001, 0.1, 0.001
TestParameter, Measurement.Monitor.Unit, SMU3:MP, SMU1:MP, SMU4:MP
TestParameter, Measurement.Monitor.Adc, HR ADC, HR ADC, HR ADC
TestParameter, Measurement.Monitor.RangingMode, AUTO, AUTO, AUTO
TestParameter, Measurement.Monitor.RangeBoundary, , , 
TestParameter, Measurement.Monitor.RangeRating, BY FULL RANGE, BY FULL RANGE, BY FULL RANGE
TestParameter, Measurement.Monitor.RangeRatingCoeff, 50, 50, 50
TestParameter, Measurement.Timing.Hold, 0.5
TestParameter, Measurement.Timing.Delay, 0.05
TestParameter, Measurement.Adc.HighResolution.AutoZero, OFF
TestParameter, Measurement.Adc.HighResolution.Mode, AUTO
TestParameter, Measurement.Adc.HighResolution.Coeff, 1
TestParameter, Measurement.Ag16440ASelector.SemiconductorRelay.Channel1, DEFAULT
TestParameter, Measurement.Ag16440ASelector.SemiconductorRelay.Channel3, DEFAULT
TestParameter, Function.User.Name, absID, sqrtID, gm2, absIG
TestParameter, Function.User.Unit, A, A, A/V, A
TestParameter, Function.User.Definition, abs(ID), sqrt(abs(ID)), (delta(sqrtID)/delta(VG))^2, abs(IG)
TestParameter, Output.Graph.Enabled, true
TestParameter, Output.Graph.XAxis.Data, VG
TestParameter, Output.Graph.XAxis.Scale, Linear
TestParameter, Output.Graph.XAxis.Left, -5
TestParameter, Output.Graph.XAxis.Right, 7
TestParameter, Output.Graph.YAxis.Data, ID, absIG, gm2
TestParameter, Output.Graph.YAxis.Scale, Log, Log, Linear
TestParameter, Output.Graph.YAxis.Bottom, 1E-14, 1E-14, 0
TestParameter, Output.Graph.YAxis.Top, 0.01, 0.01, 1E-05
TestParameter, Output.Graph.YAxis.Group, , , 
TestParameter, Output.List.Data, VG, IG, VD, ID, VS, IS, sqrtID, gm2, absIG
TestParameter, AutoAnalysis.Interpolation, false
TestParameter, AutoAnalysis.Line1.Enabled, false
TestParameter, AutoAnalysis.Line1.Type, 1
TestParameter, AutoAnalysis.Line1.Fix, True
TestParameter, AutoAnalysis.Line1.YAxis, 0
TestParameter, AutoAnalysis.Line1.Point1.Type, 0
TestParameter, AutoAnalysis.Line1.Point1.XY.X, 
TestParameter, AutoAnalysis.Line1.Point1.XY.Y, 
TestParameter, AutoAnalysis.Line1.Point1.Data.Var, 
TestParameter, AutoAnalysis.Line1.Point1.Data.Condition, 
TestParameter, AutoAnalysis.Line1.Point1.Data.Start, false
TestParameter, AutoAnalysis.Line1.Point1.Data.StartVar, 
TestParameter, AutoAnalysis.Line1.Point1.Data.StartCondition, 
TestParameter, AutoAnalysis.Line1.Point2.Type, 0
TestParameter, AutoAnalysis.Line1.Point2.XY.X, 
TestParameter, AutoAnalysis.Line1.Point2.XY.Y, 
TestParameter, AutoAnalysis.Line1.Point2.Data.Var, 
TestParameter, AutoAnalysis.Line1.Point2.Data.Condition, 
TestParameter, AutoAnalysis.Line1.Point2.Data.Start, false
TestParameter, AutoAnalysis.Line1.Point2.Data.StartVar, 
TestParameter, AutoAnalysis.Line1.Point2.Data.StartCondition, 
TestParameter, AutoAnalysis.Line1.GradientExpr, 0
TestParameter, AutoAnalysis.Line2.Enabled, false
TestParameter, AutoAnalysis.Line2.Type, 1
TestParameter, AutoAnalysis.Line2.Fix, True
TestParameter, AutoAnalysis.Line2.YAxis, 0
TestParameter, AutoAnalysis.Line2.Point1.Type, 0
TestParameter, AutoAnalysis.Line2.Point1.XY.X, 
TestParameter, AutoAnalysis.Line2.Point1.XY.Y, 
TestParameter, AutoAnalysis.Line2.Point1.Data.Var, 
TestParameter, AutoAnalysis.Line2.Point1.Data.Condition, 
TestParameter, AutoAnalysis.Line2.Point1.Data.Start, false
TestParameter, AutoAnalysis.Line2.Point1.Data.StartVar, 
TestParameter, AutoAnalysis.Line2.Point1.Data.StartCondition, 
TestParameter, AutoAnalysis.Line2.Point2.Type, 0
TestParameter, AutoAnalysis.Line2.Point2.XY.X, 
TestParameter, AutoAnalysis.Line2.Point2.XY.Y, 
TestParameter, AutoAnalysis.Line2.Point2.Data.Var, 
TestParameter, AutoAnalysis.Line2.Point2.Data.Condition, 
TestParameter, AutoAnalysis.Line2.Point2.Data.Start, false
TestParameter, AutoAnalysis.Line2.Point2.Data.StartVar, 
TestParameter, AutoAnalysis.Line2.Point2.Data.StartCondition, 
TestParameter, AutoAnalysis.Line2.GradientExpr, 0
TestParameter, AutoAnalysis.Marker.Enabled, false
TestParameter, AutoAnalysis.Marker.Data.Var, 
TestParameter, AutoAnalysis.Marker.Data.Condition, 
TestParameter, AutoAnalysis.Marker.Data.Start, false
TestParameter, AutoAnalysis.Marker.Data.StartVar, 
TestParameter, AutoAnalysis.Marker.Data.StartCondition, 
MetaData, TestRecord.EntryPoint, true
MetaData, TestRecord.RecordTime, 05/02/2019 17:12:19
MetaData, TestRecord.TestTarget, br-br-10-10
MetaData, TestRecord.IterationIndex, 1
MetaData, TestRecord.Preservation, true
MetaData, TestRecord.Flag, 
MetaData, TestRecord.Remarks, good
MetaData, TestRecord.LinkKey, ceb1fe90-359d-4b3e-b448-3ee6215323a1
Dimension1, 202, 202, 202, 202, 202, 202, 202, 202, 202, 202
Dimension2, 1, 1, 1, 1, 1, 1, 1, 1, 1, 1
DataName, VG, VD, VS, ID, IS, IG, absID, sqrtID, gm2, absIG
DataValue, -2, 5, 0, 9.2693E-11, -5.2070000000000007E-12, -4.0611000000000005E-11, 9.2693E-11, 9.6277203947767413E-06, 5.8955089699661127E-09, 4.0611000000000005E-11
DataValue, -1.9500000000000002, 5, 0, 3.3508000000000005E-11, -3.981E-12, -4.6928E-11, 3.3508000000000005E-11, 5.7886095048811164E-06, 5.0113603191214357E-10, 4.6928E-11
DataValue, -1.9000000000000001, 5, 0, 5.4599E-11, -3.46E-12, -4.5014000000000003E-11, 5.4599E-11, 7.3891136139593904E-06, 8.2330113834112033E-11, 4.5014000000000003E-11
DataValue, -1.85, 5, 0, 4.4836E-11, -7.2690000000000006E-12, -7.5347E-11, 4.4836E-11, 6.695968936606561E-06, 2.3127369526899892E-10, 7.5347E-11
DataValue, -1.8, 5, 0, 7.9386E-11, -2.8340000000000002E-12, -8.3406E-11, 7.9386E-11, 8.909882154102825E-06, 7.3044983970842351E-09, 8.3406E-11
DataValue, -1.75, 5, 0, 2.3233700000000002E-10, -3.9660000000000007E-12, -8.6221000000000009E-11, 2.3233700000000002E-10, 1.5242604764278316E-05, 8.2037247679305191E-12, 8.6221000000000009E-11
DataValue, -1.7000000000000002, 5, 0, 8.4572E-11, -1.7700000000000001E-12, -8.9305000000000009E-11, 8.4572E-11, 9.1963036052535811E-06, 4.288319696016626E-09, 8.9305000000000009E-11
DataValue, -1.6500000000000001, 5, 0, 7.5587000000000007E-11, -6.0440000000000005E-12, -7.9204E-11, 7.5587000000000007E-11, 8.6940784445506363E-06, 1.2737987496710838E-11, 7.9204E-11
DataValue, -1.6, 5, 0, 7.813500000000001E-11, -1.3110000000000002E-12, -7.8246E-11, 7.813500000000001E-11, 8.8394004321560187E-06, 8.6305137690542036E-13, 7.8246E-11
DataValue, -1.55, 5, 0, 7.7211E-11, -6.31E-13, -7.6815000000000008E-11, 7.7211E-11, 8.7869790030476347E-06, 9.9566422474907472E-13, 7.6815000000000008E-11
DataValue, -1.5, 5, 0, 7.9909E-11, -9.8500000000000014E-13, -7.3097000000000011E-11, 7.9909E-11, 8.939183407895825E-06, 8.9729895147216139E-12, 7.3097000000000011E-11
DataValue, -1.4500000000000002, 5, 0, 8.2565E-11, 9.3700000000000015E-13, -8.1095E-11, 8.2565E-11, 9.0865284900230189E-06, 4.0204356840944176E-12, 8.1095E-11
DataValue, -1.4000000000000001, 5, 0, 8.3534E-11, -1.0810000000000001E-12, -9.622E-11, 8.3534E-11, 9.1396936491328851E-06, 3.7672372944923636E-10, 9.622E-11
DataValue, -1.35, 5, 0, 1.2160500000000002E-10, -1.4210000000000001E-12, -1.39207E-10, 1.2160500000000002E-10, 1.1027465710669882E-05, 1.8946421069636153E-09, 1.39207E-10
DataValue, -1.3, 5, 0, 1.8204600000000003E-10, -2.3340000000000004E-12, -2.3303700000000003E-10, 1.8204600000000003E-10, 1.3492442328948455E-05, 4.159482122375076E-09, 2.3303700000000003E-10
DataValue, -1.25, 5, 0, 3.0544100000000004E-10, -1.3150000000000002E-12, -9.8701000000000014E-11, 3.0544100000000004E-10, 1.7476870429227312E-05, 1.7410349461069173E-09, 9.8701000000000014E-11
DataValue, -1.2, 5, 0, 8.6860000000000011E-11, -6.53E-13, -1.4389100000000002E-10, 8.6860000000000011E-11, 9.3198712437458069E-06, 4.0299817521406048E-09, 1.4389100000000002E-10
DataValue, -1.1500000000000001, 5, 0, 1.2384700000000002E-10, -1.138E-12, -9.5262000000000007E-11, 1.2384700000000002E-10, 1.1128656702405731E-05, 1.5402693000449336E-13, 9.5262000000000007E-11
DataValue, -1.1, 5, 0, 8.613E-11, -6.52E-13, -8.5329000000000009E-11, 8.613E-11, 9.2806249789548114E-06, 2.5598822183151668E-10, 8.5329000000000009E-11
DataValue, -1.05, 5, 0, 9.0796E-11, -1.168E-12, -7.3556000000000007E-11, 9.0796E-11, 9.5286935096056057E-06, 3.4196441539395247E-13, 7.3556000000000007E-11
DataValue, -1, 5, 0, 8.5048E-11, -2.047E-12, -7.6296E-11, 8.5048E-11, 9.2221472553847242E-06, 7.6112276262968931E-13, 7.6296E-11
DataValue, -0.95000000000000007, 5, 0, 8.914100000000001E-11, -2.3330000000000003E-12, -8.2164000000000012E-11, 8.914100000000001E-11, 9.4414511596470168E-06, 2.2176448812175814E-11, 8.2164000000000012E-11
DataValue, -0.9, 5, 0, 7.6584E-11, -3.4400000000000005E-13, -8.1767E-11, 7.6584E-11, 8.75122848518995E-06, 2.0401409400776068E-11, 8.1767E-11
DataValue, -0.85000000000000009, 5, 0, 8.0816E-11, -1.3360000000000002E-12, -7.7974000000000012E-11, 8.0816E-11, 8.9897719659622063E-06, 1.6711200206004243E-11, 7.7974000000000012E-11
DataValue, -0.8, 5, 0, 8.3906E-11, -1.6490000000000001E-12, -8.5597000000000007E-11, 8.3906E-11, 9.1600218340351127E-06, 7.0010509636579293E-11, 8.5597000000000007E-11
DataValue, -0.75, 5, 0, 9.6560000000000013E-11, -1.0390000000000001E-12, -1.0242200000000001E-10, 9.6560000000000013E-11, 9.8264947972305983E-06, 8.1513795022004738E-12, 1.0242200000000001E-10
DataValue, -0.70000000000000007, 5, 0, 8.9218000000000012E-11, -1.429E-12, -8.0581E-11, 8.9218000000000012E-11, 9.445528042412452E-06, 1.1295858614296751E-10, 8.0581E-11
DataValue, -0.65, 5, 0, 7.6802E-11, -1.4930000000000002E-12, -7.3204000000000012E-11, 7.6802E-11, 8.763675028205918E-06, 3.6984053478070258E-12, 7.3204000000000012E-11
DataValue, -0.6, 5, 0, 8.5622E-11, -1.155E-12, -7.9136E-11, 8.5622E-11, 9.253215657272882E-06, 1.5467665783332507E-11, 7.9136E-11
DataValue, -0.55, 5, 0, 8.3850000000000013E-11, -1.233E-12, -8.6400000000000007E-11, 8.3850000000000013E-11, 9.1569645625611116E-06, 2.6406436373231818E-11, 8.6400000000000007E-11
DataValue, -0.5, 5, 0, 9.5396E-11, -1.577E-12, -9.834500000000001E-11, 9.5396E-11, 9.7670875904744512E-06, 7.0936047817049746E-11, 9.834500000000001E-11
DataValue, -0.45, 5, 0, 9.9984000000000009E-11, -1.638E-12, -9.5107000000000008E-11, 9.9984000000000009E-11, 9.9991999679974409E-06, 1.5058680802032994E-10, 9.5107000000000008E-11
DataValue, -0.4, 5, 0, 1.2087300000000002E-10, -1.675E-12, -1.25009E-10, 1.2087300000000002E-10, 1.099422575718727E-05, 4.0783552269064225E-10, 1.25009E-10
DataValue, -0.35000000000000003, 5, 0, 1.4444900000000002E-10, -1.3730000000000001E-12, -1.9425000000000003E-10, 1.4444900000000002E-10, 1.2018693772619387E-05, 2.3287669984287893E-09, 1.9425000000000003E-10
DataValue, -0.3, 5, 0, 2.50271E-10, -1.4860000000000001E-12, -1.90345E-10, 2.50271E-10, 1.581995575215051E-05, 6.1447427093713967E-11, 1.90345E-10
DataValue, -0.25, 5, 0, 1.6390600000000002E-10, -1.5910000000000002E-12, -1.31014E-10, 1.6390600000000002E-10, 1.280257786541445E-05, 1.9285887410725158E-09, 1.31014E-10
DataValue, -0.2, 5, 0, 1.30608E-10, -1.648E-12, -1.1368000000000002E-10, 1.30608E-10, 1.1428385712776761E-05, 1.2091916314186227E-09, 1.1368000000000002E-10
DataValue, -0.15, 5, 0, 8.696E-11, -1.571E-12, -1.4710100000000002E-10, 8.696E-11, 9.3252345814998139E-06, 1.1040393037605864E-09, 1.4710100000000002E-10
DataValue, -0.1, 5, 0, 6.5702000000000007E-11, -1.3500000000000001E-12, -7.3309000000000008E-11, 6.5702000000000007E-11, 8.1056770229265863E-06, 4.531992360409078E-10, 7.3309000000000008E-11
DataValue, -0.05, 5, 0, 1.3119600000000001E-10, -1.6030000000000001E-12, -1.0626400000000001E-10, 1.3119600000000001E-10, 1.1454082241716269E-05, 1.0781870675607012E-10, 1.0626400000000001E-10
DataValue, 0, 5, 0, 4.9947000000000006E-11, -1.8060000000000002E-12, -1.04256E-10, 4.9947000000000006E-11, 7.0673191522670044E-06, 9.5111579641106911E-10, 1.04256E-10
DataValue, 0.05, 5, 0, 7.005800000000001E-11, -1.811E-12, -4.9814E-11, 7.005800000000001E-11, 8.3700657106142243E-06, 1.2057188196652963E-12, 4.9814E-11
DataValue, 0.1, 5, 0, 4.8407000000000004E-11, -4.8130000000000006E-12, -4.4218000000000006E-11, 4.8407000000000004E-11, 6.95751392380928E-06, 1.2300346479159615E-10, 4.4218000000000006E-11
DataValue, 0.15, 5, 0, 8.9854E-11, -2.695E-12, -1.1103500000000001E-10, 8.9854E-11, 9.4791349816320274E-06, 6.8453227310414806E-10, 1.1103500000000001E-10
DataValue, 0.2, 5, 0, 9.1659E-11, -8.6300000000000006E-13, -8.6459000000000009E-11, 9.1659E-11, 9.57387069058278E-06, 2.2218077914611649E-11, 8.6459000000000009E-11
DataValue, 0.25, 5, 0, 8.114E-11, -2.464E-12, -7.4952E-11, 8.114E-11, 9.0077744199108366E-06, 5.6885978296627672E-12, 7.4952E-11
DataValue, 0.3, 5, 0, 8.7149000000000008E-11, -2.286E-12, -7.4178E-11, 8.7149000000000008E-11, 9.3353628745753635E-06, 2.8357362227643037E-11, 7.4178E-11
DataValue, 0.35000000000000003, 5, 0, 7.1830000000000012E-11, -4.9230000000000007E-12, -7.9342000000000011E-11, 7.1830000000000012E-11, 8.4752581081640221E-06, 2.1015482482689829E-11, 7.9342000000000011E-11
DataValue, 0.4, 5, 0, 7.88E-11, -9.553E-12, -7.1686E-11, 7.88E-11, 8.8769364084688586E-06, 1.5727140655049476E-10, 7.1686E-11
DataValue, 0.45, 5, 0, 9.4660000000000012E-11, -2.4802000000000002E-11, -7.2806000000000009E-11, 9.4660000000000012E-11, 9.7293370791642326E-06, 5.5931967654335926E-10, 7.2806000000000009E-11
DataValue, 0.5, 5, 0, 1.2638100000000002E-10, -6.0291E-11, -6.8293E-11, 1.2638100000000002E-10, 1.1241930439208384E-05, 2.8389565597815518E-09, 6.8293E-11
DataValue, 0.55, 5, 0, 2.2672900000000002E-10, -1.49838E-10, -6.3519000000000008E-11, 2.2672900000000002E-10, 1.5057523036675057E-05, 9.0449899365627721E-09, 6.3519000000000008E-11
DataValue, 0.6, 5, 0, 4.30664E-10, -3.5138700000000004E-10, -6.1775E-11, 4.30664E-10, 2.0752445639008429E-05, 1.8924228359346241E-08, 6.1775E-11
DataValue, 0.65, 5, 0, 8.3025000000000011E-10, -7.4258500000000008E-10, -6.5952000000000007E-11, 8.3025000000000011E-10, 2.8814059068447821E-05, 3.0333976023796667E-08, 6.5952000000000007E-11
DataValue, 0.70000000000000007, 5, 0, 1.45688E-09, -1.34316E-09, -6.5667E-11, 1.45688E-09, 3.8169097448066543E-05, 4.6236343930181968E-08, 6.5667E-11
DataValue, 0.75, 5, 0, 2.53177E-09, -2.4334E-09, -7.8598E-11, 2.53177E-09, 5.0316697029912444E-05, 5.8634463784227571E-08, 7.8598E-11
DataValue, 0.8, 5, 0, 3.89172E-09, -3.74474E-09, -7.9713E-11, 3.89172E-09, 6.2383651704593247E-05, 5.432546289437307E-08, 7.9713E-11
DataValue, 0.85000000000000009, 5, 0, 5.42057E-09, -5.22733E-09, -1.0683500000000001E-10, 5.42057E-09, 7.3624520371952165E-05, 5.0632837596746304E-08, 1.0683500000000001E-10
DataValue, 0.9, 5, 0, 7.20553E-09, -7.00007E-09, -1.00494E-10, 7.20553E-09, 8.4885393325353689E-05, 4.2059301134584575E-08, 1.00494E-10
DataValue, 0.95000000000000007, 5, 0, 8.861E-09, -8.56336E-09, -1.0193500000000001E-10, 8.861E-09, 9.4132884795909661E-05, 3.1602744272528523E-08, 1.0193500000000001E-10
DataValue, 1, 5, 0, 1.0539599999999999E-08, -1.0241999999999998E-08, -9.5177E-11, 1.0539599999999999E-08, 0.00010266255403018181, 3.990690081637135E-08, 9.5177E-11
DataValue, 1.05, 5, 0, 1.3020999999999998E-08, -1.28161E-08, -1.06474E-10, 1.3020999999999998E-08, 0.000114109596441316, 6.35802372174615E-08, 1.06474E-10
DataValue, 1.1, 5, 0, 1.6352699999999998E-08, -1.58631E-08, -8.5595E-11, 1.6352699999999998E-08, 0.00012787767592508084, 7.0665462432392028E-08, 8.5595E-11
DataValue, 1.1500000000000001, 5, 0, 1.9794399999999997E-08, -1.9430199999999997E-08, -1.0847100000000001E-10, 1.9794399999999997E-08, 0.0001406925726539962, 7.5711351959206167E-08, 1.0847100000000001E-10
DataValue, 1.2, 5, 0, 2.4147099999999997E-08, -2.36933E-08, -1.0840300000000001E-10, 2.4147099999999997E-08, 0.00015539337180201732, 8.7451626216097416E-08, 1.0840300000000001E-10
DataValue, 1.25, 5, 0, 2.8990099999999996E-08, -2.91419E-08, -8.778200000000001E-11, 2.8990099999999996E-08, 0.00017026479377722217, 1.0269088280539185E-07, 8.778200000000001E-11
DataValue, 1.3, 5, 0, 3.51333E-08, -3.4490899999999996E-08, -8.9068E-11, 3.51333E-08, 0.00018743879000889864, 1.4150857040052509E-07, 8.9068E-11
DataValue, 1.35, 5, 0, 4.32151E-08, -4.2552599999999996E-08, -8.6857000000000011E-11, 4.32151E-08, 0.00020788241868902719, 1.7646666730286436E-07, 8.6857000000000011E-11
DataValue, 1.4000000000000001, 5, 0, 5.2645799999999996E-08, -5.12496E-08, -8.0857E-11, 5.2645799999999996E-08, 0.00022944672584284133, 2.0423059006230522E-07, 8.0857E-11
DataValue, 1.4500000000000002, 5, 0, 6.40466E-08, -6.3732999999999992E-08, -7.5888E-11, 6.40466E-08, 0.00025307429739110214, 2.7662274765128661E-07, 7.5888E-11
DataValue, 1.5, 5, 0, 7.9547499999999992E-08, -7.77591E-08, -8.7448E-11, 7.9547499999999992E-08, 0.00028204166358891019, 2.6987646905163527E-07, 8.7448E-11
DataValue, 1.55, 5, 0, 9.30396E-08, -9.082809999999999E-08, -7.7305000000000011E-11, 9.30396E-08, 0.00030502393348719376, 3.1467480210065975E-07, 7.7305000000000011E-11
DataValue, 1.6, 5, 0, 1.14337E-07, -1.1164499999999999E-07, -9.1746000000000011E-11, 1.14337E-07, 0.00033813754597796441, 5.2906090014408113E-07, 9.1746000000000011E-11
DataValue, 1.6500000000000001, 5, 0, 1.42703E-07, -1.40287E-07, -8.7862000000000012E-11, 1.42703E-07, 0.00037776050614112639, 6.7751046726107751E-07, 8.7862000000000012E-11
DataValue, 1.7000000000000002, 5, 0, 1.76777E-07, -1.72188E-07, -9.8651000000000012E-11, 1.76777E-07, 0.00042044856998210852, 7.1441302063146391E-07, 9.8651000000000012E-11
DataValue, 1.75, 5, 0, 2.13706E-07, -2.11241E-07, -1.0137900000000001E-10, 2.13706E-07, 0.00046228346282340663, 8.7376782478399566E-07, 1.0137900000000001E-10
DataValue, 1.8, 5, 0, 2.64118E-07, -2.59186E-07, -9.0648E-11, 2.64118E-07, 0.00051392411891251029, 9.841933467214125E-07, 9.0648E-11
DataValue, 1.85, 5, 0, 3.15271E-07, -3.15081E-07, -9.4645000000000013E-11, 3.15271E-07, 0.00056148998210119472, 1.07932522440739E-06, 9.4645000000000013E-11
DataValue, 1.9000000000000001, 5, 0, 3.81695E-07, -3.77361E-07, -8.3029E-11, 3.81695E-07, 0.00061781469713822774, 1.3801855517797306E-06, 8.3029E-11
DataValue, 1.9500000000000002, 5, 0, 4.61002E-07, -4.5157E-07, -7.6409E-11, 4.61002E-07, 0.00067897128068866068, 1.4246237379157774E-06, 7.6409E-11
DataValue, 2, 5, 0, 5.43423E-07, -5.4413E-07, -6.9817000000000011E-11, 5.43423E-07, 0.00073717230007644755, 1.5002702094622306E-06, 6.9817000000000011E-11
DataValue, 2.05, 5, 0, 6.42333E-07, -6.3526399999999994E-07, -6.4505E-11, 6.42333E-07, 0.0008014567985861746, 1.8625799767339845E-06, 6.4505E-11
DataValue, 2.1, 5, 0, 7.63262E-07, -7.5889E-07, -6.9106E-11, 7.63262E-07, 0.00087364867080537585, 1.9518595710865497E-06, 6.9106E-11
DataValue, 2.15, 5, 0, 8.85793E-07, -8.80164E-07, -6.9077000000000009E-11, 8.85793E-07, 0.00094116576648324817, 1.9656160682278075E-06, 6.9077000000000009E-11
DataValue, 2.2, 5, 0, 1.02789E-06, -1.019451E-06, -7.0329000000000009E-11, 1.02789E-06, 0.0010138491011980038, 1.6642836171212251E-06, 7.0329000000000009E-11
