
SetupTitle, Transfer stab
PrimitiveTest, I/V Sweep
TestParameter, Context.MainFrame, 4155C
TestParameter, Channel.UnitType, SMU, SMU, SMU
TestParameter, Channel.Unit, SMU3:MP, SMU1:MP, SMU4:MP
TestParameter, Channel.IName, ID, IS, IG
TestParameter, Channel.VName, VD, VS, VG
TestParameter, Channel.Mode, V, COMMON, V
TestParameter, Channel.Func, CONST, CONST, VAR1
TestParameter, Channel.Index, 
TestParameter, Channel.Time, 
TestParameter, Measurement.Port.Unit, SMU3:MP, SMU1:MP, SMU4:MP
TestParameter, Measurement.Port.SeriesResistor, NONE, NONE, NONE
TestParameter, Measurement.Port.Filter, ON, ON, ON
TestParameter, Measurement.Primary.Locus, Single
TestParameter, Measurement.Primary.Scale, LINEAR
TestParameter, Measurement.Primary.Start, -2
TestParameter, Measurement.Primary.Stop, 3
TestParameter, Measurement.Primary.Step, 0.05
TestParameter, Measurement.Primary.Compliance, 0.1
TestParameter, Measurement.Primary.PowerCompliance, 0
TestParameter, Measurement.Aborting.Condition, CONTINUE AT ANY
TestParameter, Measurement.PostOutput.Value, START
TestParameter, Measurement.PostOutput.Retention, OFF
TestParameter, Measurement.Bias.Source, 3, 0, -2
TestParameter, Measurement.Bias.Compliance, 0.1, 0.1, 0.1
TestParameter, Measurement.Monitor.Unit, SMU3:MP, SMU1:MP, SMU4:MP
TestParameter, Measurement.Monitor.Adc, HR ADC, HR ADC, HR ADC
TestParameter, Measurement.Monitor.RangingMode, AUTO, AUTO, AUTO
TestParameter, Measurement.Monitor.RangeBoundary, , , 
TestParameter, Measurement.Monitor.RangeRating, BY FULL RANGE, BY FULL RANGE, BY FULL RANGE
TestParameter, Measurement.Monitor.RangeRatingCoeff, 50, 50, 50
TestParameter, Measurement.Timing.Hold, 0.5
TestParameter, Measurement.Timing.Delay, 0.05
TestParameter, Measurement.Adc.HighResolution.AutoZero, OFF
TestParameter, Measurement.Adc.HighResolution.Mode, AUTO
TestParameter, Measurement.Adc.HighResolution.Coeff, 1
TestParameter, Measurement.Ag16440ASelector.SemiconductorRelay.Channel1, DEFAULT
TestParameter, Measurement.Ag16440ASelector.SemiconductorRelay.Channel3, DEFAULT
TestParameter, Function.User.Name, absID, sqrtID, gm2, absIG
TestParameter, Function.User.Unit, A, A, A/V, A
TestParameter, Function.User.Definition, abs(ID), sqrt(abs(ID)), (delta(sqrtID)/delta(VG))^2, abs(IG)
TestParameter, Output.Graph.Enabled, true
TestParameter, Output.Graph.XAxis.Data, VG
TestParameter, Output.Graph.XAxis.Scale, Linear
TestParameter, Output.Graph.XAxis.Left, -5
TestParameter, Output.Graph.XAxis.Right, 7
TestParameter, Output.Graph.YAxis.Data, ID, absIG, gm2
TestParameter, Output.Graph.YAxis.Scale, Log, Log, Linear
TestParameter, Output.Graph.YAxis.Bottom, 1E-14, 1E-14, 0
TestParameter, Output.Graph.YAxis.Top, 0.01, 0.01, 1E-05
TestParameter, Output.Graph.YAxis.Group, , , 
TestParameter, Output.List.Data, VG, IG, VD, ID, VS, IS, sqrtID, gm2, absIG
TestParameter, AutoAnalysis.Interpolation, false
TestParameter, AutoAnalysis.Line1.Enabled, false
TestParameter, AutoAnalysis.Line1.Type, 1
TestParameter, AutoAnalysis.Line1.Fix, True
TestParameter, AutoAnalysis.Line1.YAxis, 0
TestParameter, AutoAnalysis.Line1.Point1.Type, 0
TestParameter, AutoAnalysis.Line1.Point1.XY.X, 
TestParameter, AutoAnalysis.Line1.Point1.XY.Y, 
TestParameter, AutoAnalysis.Line1.Point1.Data.Var, 
TestParameter, AutoAnalysis.Line1.Point1.Data.Condition, 
TestParameter, AutoAnalysis.Line1.Point1.Data.Start, false
TestParameter, AutoAnalysis.Line1.Point1.Data.StartVar, 
TestParameter, AutoAnalysis.Line1.Point1.Data.StartCondition, 
TestParameter, AutoAnalysis.Line1.Point2.Type, 0
TestParameter, AutoAnalysis.Line1.Point2.XY.X, 
TestParameter, AutoAnalysis.Line1.Point2.XY.Y, 
TestParameter, AutoAnalysis.Line1.Point2.Data.Var, 
TestParameter, AutoAnalysis.Line1.Point2.Data.Condition, 
TestParameter, AutoAnalysis.Line1.Point2.Data.Start, false
TestParameter, AutoAnalysis.Line1.Point2.Data.StartVar, 
TestParameter, AutoAnalysis.Line1.Point2.Data.StartCondition, 
TestParameter, AutoAnalysis.Line1.GradientExpr, 0
TestParameter, AutoAnalysis.Line2.Enabled, false
TestParameter, AutoAnalysis.Line2.Type, 1
TestParameter, AutoAnalysis.Line2.Fix, True
TestParameter, AutoAnalysis.Line2.YAxis, 0
TestParameter, AutoAnalysis.Line2.Point1.Type, 0
TestParameter, AutoAnalysis.Line2.Point1.XY.X, 
TestParameter, AutoAnalysis.Line2.Point1.XY.Y, 
TestParameter, AutoAnalysis.Line2.Point1.Data.Var, 
TestParameter, AutoAnalysis.Line2.Point1.Data.Condition, 
TestParameter, AutoAnalysis.Line2.Point1.Data.Start, false
TestParameter, AutoAnalysis.Line2.Point1.Data.StartVar, 
TestParameter, AutoAnalysis.Line2.Point1.Data.StartCondition, 
TestParameter, AutoAnalysis.Line2.Point2.Type, 0
TestParameter, AutoAnalysis.Line2.Point2.XY.X, 
TestParameter, AutoAnalysis.Line2.Point2.XY.Y, 
TestParameter, AutoAnalysis.Line2.Point2.Data.Var, 
TestParameter, AutoAnalysis.Line2.Point2.Data.Condition, 
TestParameter, AutoAnalysis.Line2.Point2.Data.Start, false
TestParameter, AutoAnalysis.Line2.Point2.Data.StartVar, 
TestParameter, AutoAnalysis.Line2.Point2.Data.StartCondition, 
TestParameter, AutoAnalysis.Line2.GradientExpr, 0
TestParameter, AutoAnalysis.Marker.Enabled, false
TestParameter, AutoAnalysis.Marker.Data.Var, 
TestParameter, AutoAnalysis.Marker.Data.Condition, 
TestParameter, AutoAnalysis.Marker.Data.Start, false
TestParameter, AutoAnalysis.Marker.Data.StartVar, 
TestParameter, AutoAnalysis.Marker.Data.StartCondition, 
MetaData, TestRecord.EntryPoint, true
MetaData, TestRecord.RecordTime, 05/02/2019 16:57:26
MetaData, TestRecord.TestTarget, br-br-1-2
MetaData, TestRecord.IterationIndex, 3
MetaData, TestRecord.Preservation, true
MetaData, TestRecord.Flag, 
MetaData, TestRecord.Remarks, good
MetaData, TestRecord.LinkKey, 5fe64bfc-ab84-4461-b321-a7193c88a967
Dimension1, 101, 101, 101, 101, 101, 101, 101, 101, 101, 101
Dimension2, 1, 1, 1, 1, 1, 1, 1, 1, 1, 1
DataName, VG, VD, VS, ID, IS, IG, absID, sqrtID, gm2, absIG
DataValue, -2, 3, 0, -5.17E-13, -1.2980000000000001E-12, -2.8E-13, 5.17E-13, 7.19027120489902E-07, 3.5653178165050597E-10, 2.8E-13
DataValue, -1.9500000000000002, 3, 0, 2.766E-12, -6.62E-13, -2.1620000000000003E-12, 2.766E-12, 1.6631295800387894E-06, 5.1600024189648386E-11, 2.1620000000000003E-12
DataValue, -1.9000000000000001, 3, 0, -2.0660000000000003E-12, -9.0900000000000006E-13, 3.649E-12, 2.0660000000000003E-12, 1.4373586887064759E-06, 2.9276528069307984E-11, 3.649E-12
DataValue, -1.85, 3, 0, 1.2590000000000002E-12, -1.952E-12, 2.523E-12, 1.2590000000000002E-12, 1.122051692213866E-06, 4.0548243866438661E-13, 2.523E-12
DataValue, -1.8, 3, 0, -1.8870000000000003E-12, 2.5E-14, -3.1430000000000002E-12, 1.8870000000000003E-12, 1.3736811857195978E-06, 5.6984274254588917E-14, 3.1430000000000002E-12
DataValue, -1.75, 3, 0, 1.2060000000000001E-12, -8.6100000000000007E-13, -9.0800000000000007E-13, 1.2060000000000001E-12, 1.0981803130633877E-06, 2.6125064616529617E-11, 9.0800000000000007E-13
DataValue, -1.7000000000000002, 3, 0, -7.4400000000000006E-13, -2.6E-13, 2.33E-13, 7.4400000000000006E-13, 8.62554346113913E-07, 1.1330158127652946E-11, 2.33E-13
DataValue, -1.6500000000000001, 3, 0, -5.8000000000000005E-13, -4.4200000000000004E-13, -1.665E-12, 5.8000000000000005E-13, 7.6157731058639085E-07, 6.5540366775522516E-11, 1.665E-12
DataValue, -1.6, 3, 0, -2.7960000000000002E-12, -6.6E-13, 2.123E-12, 2.7960000000000002E-12, 1.6721243972862784E-06, 2.5274120174687237E-11, 2.123E-12
DataValue, -1.55, 3, 0, -6.7E-14, 6.8900000000000009E-13, 3.15E-13, 6.7E-14, 2.588435821108957E-07, 1.016451256559316E-12, 3.15E-13
DataValue, -1.5, 3, 0, -2.469E-12, 3.17E-13, -3.8E-14, 2.469E-12, 1.5713051899615173E-06, 1.1829462000677452E-10, 3.8E-14
DataValue, -1.4500000000000002, 3, 0, -1.813E-12, 5.64E-13, -6.4300000000000009E-13, 1.813E-12, 1.3464768843169942E-06, 5.8041451915574886E-15, 6.4300000000000009E-13
DataValue, -1.4000000000000001, 3, 0, 2.4930000000000004E-12, -4.3000000000000004E-13, -3.9600000000000003E-13, 2.4930000000000004E-12, 1.5789236840328922E-06, 1.38340649808354E-10, 3.9600000000000003E-13
DataValue, -1.35, 3, 0, 2.9E-14, -8.9000000000000012E-14, -1.1300000000000001E-13, 2.9E-14, 1.7029386365926402E-07, 1.2782415460255921E-10, 1.1300000000000001E-13
DataValue, -1.3, 3, 0, -2.0100000000000003E-13, -2.8E-13, 6.31E-13, 2.0100000000000003E-13, 4.4833023542919789E-07, 1.0414287978665131E-10, 6.31E-13
DataValue, -1.25, 3, 0, 1.418E-12, 3.3200000000000005E-13, 3.0200000000000003E-13, 1.418E-12, 1.1907980517283356E-06, 1.86260876054187E-12, 3.0200000000000003E-13
DataValue, -1.2, 3, 0, 3.42E-13, -3.4800000000000003E-13, -6.2000000000000008E-13, 3.42E-13, 5.8480766068853788E-07, 1.0622913895744241E-11, 6.2000000000000008E-13
DataValue, -1.1500000000000001, 3, 0, 7.48E-13, -8.8700000000000006E-13, -1.5600000000000002E-13, 7.48E-13, 8.6486993241758614E-07, 5.6097692324760948E-11, 1.5600000000000002E-13
DataValue, -1.1, 3, 0, 1.7790000000000002E-12, -2.0780000000000002E-12, -4.8000000000000004E-14, 1.7790000000000002E-12, 1.3337915879176928E-06, 1.1086854234185127E-10, 4.8000000000000004E-14
DataValue, -1.05, 3, 0, 3.678E-12, -3.2400000000000003E-12, 7.590000000000001E-13, 3.678E-12, 1.9178112524437854E-06, 1.3993762393175443E-10, 7.590000000000001E-13
DataValue, -1, 3, 0, 6.334E-12, -6.0150000000000005E-12, -2.1000000000000001E-13, 6.334E-12, 2.5167439281738616E-06, 1.919666776284059E-10, 2.1000000000000001E-13
DataValue, -0.95000000000000007, 3, 0, 1.0912E-11, -9.7810000000000012E-12, 8.4000000000000008E-14, 1.0912E-11, 3.3033316515300126E-06, 3.1390236264374662E-10, 8.4000000000000008E-14
DataValue, -0.9, 3, 0, 1.8391000000000003E-11, -1.9671E-11, -5.18E-13, 1.8391000000000003E-11, 4.2884729216820293E-06, 4.8357394375535468E-10, 5.18E-13
DataValue, -0.85000000000000009, 3, 0, 3.0276E-11, -3.0794E-11, -2.6000000000000003E-14, 3.0276E-11, 5.5023631286929806E-06, 5.4813717455831994E-10, 2.6000000000000003E-14
DataValue, -0.8, 3, 0, 4.3953E-11, -4.6299E-11, -2.1000000000000002E-14, 4.3953E-11, 6.6297058758288815E-06, 1.2513857183886335E-09, 2.1000000000000002E-14
DataValue, -0.75, 3, 0, 8.1719000000000008E-11, -7.8493E-11, -2.1600000000000001E-13, 8.1719000000000008E-11, 9.0398561935464449E-06, 1.7473660187939454E-09, 2.1600000000000001E-13
DataValue, -0.70000000000000007, 3, 0, 1.1685300000000002E-10, -1.0960400000000001E-10, -5.0000000000000008E-15, 1.1685300000000002E-10, 1.0809856613295109E-05, 1.5070414444455362E-09, 5.0000000000000008E-15
DataValue, -0.65, 3, 0, 1.6697600000000002E-10, -1.62741E-10, 3.89E-13, 1.6697600000000002E-10, 1.292191936207621E-05, 1.9213028113594162E-09, 3.89E-13
DataValue, -0.6, 3, 0, 2.3083100000000003E-10, -2.3226E-10, 4.47E-13, 2.3083100000000003E-10, 1.5193123444506072E-05, 1.861587335732667E-09, 4.47E-13
DataValue, -0.55, 3, 0, 2.97098E-10, -2.7699500000000003E-10, 3.64E-13, 2.97098E-10, 1.7236530973487677E-05, 2.3486988386071277E-09, 3.64E-13
DataValue, -0.5, 3, 0, 4.0158E-10, -3.81101E-10, -3.31E-13, 4.0158E-10, 2.0039461070597682E-05, 4.1975143616663027E-09, 3.31E-13
DataValue, -0.45, 3, 0, 5.6241800000000009E-10, -5.01532E-10, -6.1800000000000009E-13, 5.6241800000000009E-10, 2.3715353676468757E-05, 3.8516037601187133E-09, 6.1800000000000009E-13
DataValue, -0.4, 3, 0, 6.888310000000001E-10, -6.43986E-10, -3.9600000000000003E-13, 6.888310000000001E-10, 2.6245590105768246E-05, 2.6315578853318363E-09, 3.9600000000000003E-13
DataValue, -0.35000000000000003, 3, 0, 8.3204700000000012E-10, -7.61659E-10, -4.9000000000000006E-14, 8.3204700000000012E-10, 2.8845224908119542E-05, 2.1523639723588233E-09, 4.9000000000000006E-14
DataValue, -0.3, 3, 0, 9.5388E-10, -9.5125E-10, 4.2737000000000006E-11, 9.5388E-10, 3.0884947790145281E-05, 3.3414042453768058E-09, 4.2737000000000006E-11
DataValue, -0.25, 3, 0, 1.19894E-09, -1.19947E-09, 1.5745E-11, 1.19894E-09, 3.4625712989049048E-05, 7.2843565399988566E-09, 1.5745E-11
DataValue, -0.2, 3, 0, 1.55392E-09, -1.48569E-09, 7.4990000000000011E-12, 1.55392E-09, 3.941979198321574E-05, 6.4612758806381166E-09, 7.4990000000000011E-12
DataValue, -0.15, 3, 0, 1.82021E-09, -1.76263E-09, -1.8711E-11, 1.82021E-09, 4.2663919182372355E-05, 5.3938695529759948E-09, 1.8711E-11
DataValue, -0.1, 3, 0, 2.18688E-09, -2.27841E-09, -7.173E-12, 2.18688E-09, 4.6764088786161543E-05, 8.6884300305526153E-09, 7.173E-12
DataValue, -0.05, 3, 0, 2.70245E-09, -2.69064E-09, 2.2620000000000003E-12, 2.70245E-09, 5.1985094017420034E-05, 7.3023930718678746E-09, 2.2620000000000003E-12
DataValue, 0, 3, 0, 3.05914E-09, -2.96311E-09, 6.37E-13, 3.05914E-09, 5.5309492856109245E-05, 5.787568240878925E-09, 6.37E-13
DataValue, 0.05, 3, 0, 3.55129E-09, -3.45667E-09, -3.99E-13, 3.55129E-09, 5.959270089532778E-05, 7.7153746053489422E-09, 3.99E-13
DataValue, 0.1, 3, 0, 4.10794E-09, -4.0555E-09, 2.243E-12, 4.10794E-09, 6.4093213369279586E-05, 6.4571214078706196E-09, 2.243E-12
DataValue, 0.15, 3, 0, 4.57359E-09, -4.33151E-09, 3.17E-13, 4.57359E-09, 6.7628322469214034E-05, 6.4523447450013107E-09, 3.17E-13
DataValue, 0.2, 3, 0, 5.20214E-09, -5.05063E-09, 2.086E-12, 5.20214E-09, 7.212586221321725E-05, 9.0774374905692424E-09, 2.086E-12
DataValue, 0.25, 3, 0, 5.95303E-09, -5.71979E-09, 2.49E-12, 5.95303E-09, 7.7155881175708182E-05, 6.62779937256945E-09, 2.49E-12
DataValue, 0.3, 3, 0, 6.44279E-09, -6.44379E-09, 3.0010000000000002E-12, 6.44279E-09, 8.0266991970547892E-05, 5.078533004741781E-09, 3.0010000000000002E-12
DataValue, 0.35000000000000003, 3, 0, 7.1035E-09, -7.09622E-09, 2.385E-12, 7.1035E-09, 8.4282263851892351E-05, 1.0011858627292409E-08, 2.385E-12
DataValue, 0.4, 3, 0, 8.1492E-09, -8.0963E-09, -1.015E-12, 8.1492E-09, 9.027291952739759E-05, 9.145774074801968E-09, 1.015E-12
DataValue, 0.45, 3, 0, 8.807E-09, -8.77853E-09, 1.036E-12, 8.807E-09, 9.3845617905153144E-05, 5.3662087523065E-09, 1.036E-12
DataValue, 0.5, 3, 0, 9.52544E-09, -1.002359E-08, -1.7940000000000002E-12, 9.52544E-09, 9.75983606419698E-05, 8.6675061618106544E-09, 1.7940000000000002E-12
DataValue, 0.55, 3, 0, 1.064107E-08, -1.0465199999999999E-08, 5.7100000000000009E-13, 1.064107E-08, 0.00010315556213796714, 5.9367188717513058E-09, 5.7100000000000009E-13
DataValue, 0.6, 3, 0, 1.1088799999999998E-08, -1.0949899999999998E-08, 1.0180000000000001E-12, 1.1088799999999998E-08, 0.00010530337126607105, 1.0713958537435626E-08, 1.0180000000000001E-12
DataValue, 0.65, 3, 0, 1.2883699999999998E-08, -1.2557199999999999E-08, -3.741E-12, 1.2883699999999998E-08, 0.00011350638748546268, 1.2761769612313389E-08, 3.741E-12
DataValue, 0.70000000000000007, 3, 0, 1.3595599999999998E-08, -1.3391299999999999E-08, -6.640000000000001E-13, 1.3595599999999998E-08, 0.00011660017152646045, 7.5910760202913E-09, 6.640000000000001E-13
DataValue, 0.75, 3, 0, 1.4937499999999997E-08, -1.4493899999999999E-08, 3.3560000000000002E-12, 1.4937499999999997E-08, 0.00012221906561580315, 1.6922029592275073E-08, 3.3560000000000002E-12
DataValue, 0.8, 3, 0, 1.6798399999999998E-08, -1.6614099999999998E-08, 9.49E-13, 1.6798399999999998E-08, 0.00012960864168719613, 1.3371670499729469E-08, 9.49E-13
DataValue, 0.85000000000000009, 3, 0, 1.7897799999999998E-08, -1.7937999999999998E-08, -8.081E-12, 1.7897799999999998E-08, 0.000133782659563936, 9.99303283526885E-09, 8.081E-12
DataValue, 0.9, 3, 0, 1.94896E-08, -2.0330199999999998E-08, -5.722E-12, 1.94896E-08, 0.00013960515749785179, 2.1479481582227834E-08, 5.722E-12
DataValue, 0.95000000000000007, 3, 0, 2.2033999999999997E-08, -2.16516E-08, 1.232E-12, 2.2033999999999997E-08, 0.00014843853947004462, 3.8045210828869221E-08, 1.232E-12
DataValue, 1, 3, 0, 2.53161E-08, -2.3928899999999997E-08, 8.4100000000000005E-13, 2.53161E-08, 0.00015911033907323559, 2.2454534203744218E-08, 8.4100000000000005E-13
DataValue, 1.05, 3, 0, 2.6707199999999996E-08, -2.6354699999999997E-08, -1.189E-12, 2.6707199999999996E-08, 0.00016342337654081193, 1.0286290356200279E-08, 1.189E-12
DataValue, 1.1, 3, 0, 2.8646399999999996E-08, -2.81797E-08, -1.235E-12, 2.8646399999999996E-08, 0.000169252474132581, 5.28133487917856E-09, 1.235E-12
DataValue, 1.1500000000000001, 3, 0, 2.91353E-08, -2.87096E-08, 1.7990000000000001E-12, 2.91353E-08, 0.00017069065586610181, 3.3777016664908114E-09, 1.7990000000000001E-12
DataValue, 1.2, 3, 0, 3.06475E-08, -3.25591E-08, -2.361E-12, 3.06475E-08, 0.00017506427391104101, 1.8334375910803382E-08, 2.361E-12
DataValue, 1.25, 3, 0, 3.39411E-08, -3.4269499999999995E-08, -1.8160000000000001E-12, 3.39411E-08, 0.0001842311048656008, 2.0600833197680791E-08, 1.8160000000000001E-12
DataValue, 1.3, 3, 0, 3.5878899999999994E-08, -3.6410499999999994E-08, -2.47E-13, 3.5878899999999994E-08, 0.00018941726426067925, 2.2480179227511317E-08, 2.47E-13
DataValue, 1.35, 3, 0, 3.9690399999999995E-08, -3.8701099999999996E-08, 1.669E-12, 3.9690399999999995E-08, 0.00019922449648574844, 1.761369579801798E-08, 1.669E-12
DataValue, 1.4000000000000001, 3, 0, 4.1082799999999994E-08, -4.0173699999999997E-08, 2.687E-12, 4.1082799999999994E-08, 0.00020268892421639617, 1.5038342055772036E-08, 2.687E-12
DataValue, 1.4500000000000002, 3, 0, 4.4726999999999994E-08, -4.3521799999999993E-08, -3.5280000000000003E-12, 4.4726999999999994E-08, 0.00021148758828829647, 4.2520511777463273E-08, 3.5280000000000003E-12
DataValue, 1.5, 3, 0, 4.98671E-08, -4.9498099999999996E-08, -1.0696E-11, 4.98671E-08, 0.00022330942658114548, 2.9646358077446457E-08, 1.0696E-11
DataValue, 1.55, 3, 0, 5.2306299999999995E-08, -5.1548999999999994E-08, 6.0000000000000007E-13, 5.2306299999999995E-08, 0.00022870570609409812, 3.4938387640834727E-08, 6.0000000000000007E-13
DataValue, 1.6, 3, 0, 5.8564599999999994E-08, -5.6583E-08, 4.982E-12, 5.8564599999999994E-08, 0.00024200123966624634, 1.4808334670679495E-08, 4.982E-12
DataValue, 1.6500000000000001, 3, 0, 5.8020599999999992E-08, -5.85255E-08, 5.3E-14, 5.8020599999999992E-08, 0.00024087465620110387, 1.5680149107192334E-08, 5.3E-14
DataValue, 1.7000000000000002, 3, 0, 6.47821E-08, -6.1546E-08, -7.366E-12, 6.47821E-08, 0.00025452327987828541, 3.651611214700238E-08, 7.366E-12
DataValue, 1.75, 3, 0, 6.7591599999999992E-08, -6.64663E-08, -6.1020000000000005E-12, 6.7591599999999992E-08, 0.00025998384565199432, 1.5811221184755944E-08, 6.1020000000000005E-12
DataValue, 1.8, 3, 0, 7.13411E-08, -7.1492199999999987E-08, 2.2160000000000003E-12, 7.13411E-08, 0.00026709754772367343, 9.7691473962024836E-09, 2.2160000000000003E-12
DataValue, 1.85, 3, 0, 7.2828599999999988E-08, -7.2708899999999987E-08, 2.046E-12, 7.2828599999999988E-08, 0.00026986774538651333, 5.3526650740362142E-09, 2.046E-12
DataValue, 1.9000000000000001, 3, 0, 7.5302899999999991E-08, -7.5072299999999989E-08, -2.1200000000000003E-12, 7.5302899999999991E-08, 0.00027441373872311858, 1.0571659374311872E-08, 2.1200000000000003E-12
DataValue, 1.9500000000000002, 3, 0, 7.8483799999999992E-08, -7.762049999999999E-08, -3.438E-12, 7.8483799999999992E-08, 0.00028014960289102675, 1.9637954083853432E-08, 3.438E-12
DataValue, 2, 3, 0, 8.31903E-08, -8.24022E-08, -9.1400000000000014E-13, 8.31903E-08, 0.00028842728719731076, 2.9740453183162926E-08, 9.1400000000000014E-13
DataValue, 2.05, 3, 0, 8.84438E-08, -8.86518E-08, 1.3630000000000002E-12, 8.84438E-08, 0.00029739502349568662, 2.3308530685755548E-08, 1.3630000000000002E-12
DataValue, 2.1, 3, 0, 9.2230299999999989E-08, -9.08911E-08, 7.340000000000001E-13, 9.2230299999999989E-08, 0.00030369441878309189, 2.191380136285646E-08, 7.340000000000001E-13
DataValue, 2.15, 3, 0, 9.7467799999999986E-08, -9.9826299999999986E-08, -1.692E-12, 9.7467799999999986E-08, 0.0003121983343965819, 3.4805834574036896E-08, 1.692E-12
DataValue, 2.2, 3, 0, 1.0391E-07, -9.88337E-08, -1.162E-12, 1.0391E-07, 0.00032235074065371712, 1.6744612744187892E-08, 1.162E-12
DataValue, 2.25, 3, 0, 1.05715E-07, -1.0272419999999999E-07, -1.659E-12, 1.05715E-07, 0.00032513843205625507, 1.1779631277200744E-08, 1.659E-12
DataValue, 2.3000000000000003, 3, 0, 1.11025E-07, -1.08975E-07, -1.5050000000000002E-12, 1.11025E-07, 0.00033320414163092273, 1.8896637685230269E-08, 1.5050000000000002E-12
