
SetupTitle, Transfer sat
PrimitiveTest, I/V Sweep
TestParameter, Context.MainFrame, 4155C
TestParameter, Channel.UnitType, SMU, SMU, SMU
TestParameter, Channel.Unit, SMU1:MP, SMU3:MP, SMU4:MP
TestParameter, Channel.IName, IS, ID, IG
TestParameter, Channel.VName, VS, VD, VG
TestParameter, Channel.Mode, COMMON, V, V
TestParameter, Channel.Func, CONST, CONST, VAR1
TestParameter, Channel.Index, 
TestParameter, Channel.Time, 
TestParameter, Measurement.Port.Unit, SMU1:MP, SMU3:MP, SMU4:MP
TestParameter, Measurement.Port.SeriesResistor, NONE, NONE, NONE
TestParameter, Measurement.Port.Filter, ON, ON, ON
TestParameter, Measurement.Primary.Locus, Double
TestParameter, Measurement.Primary.Scale, LINEAR
TestParameter, Measurement.Primary.Start, -2
TestParameter, Measurement.Primary.Stop, 3
TestParameter, Measurement.Primary.Step, 0.05
TestParameter, Measurement.Primary.Compliance, 0.001
TestParameter, Measurement.Primary.PowerCompliance, 0
TestParameter, Measurement.Aborting.Condition, CONTINUE AT ANY
TestParameter, Measurement.PostOutput.Value, START
TestParameter, Measurement.PostOutput.Retention, OFF
TestParameter, Measurement.Bias.Source, 0, 5, -2
TestParameter, Measurement.Bias.Compliance, 0.1, 0.001, 0.001
TestParameter, Measurement.Monitor.Unit, SMU3:MP, SMU1:MP, SMU4:MP
TestParameter, Measurement.Monitor.Adc, HR ADC, HR ADC, HR ADC
TestParameter, Measurement.Monitor.RangingMode, AUTO, AUTO, AUTO
TestParameter, Measurement.Monitor.RangeBoundary, , , 
TestParameter, Measurement.Monitor.RangeRating, BY FULL RANGE, BY FULL RANGE, BY FULL RANGE
TestParameter, Measurement.Monitor.RangeRatingCoeff, 50, 50, 50
TestParameter, Measurement.Timing.Hold, 0.5
TestParameter, Measurement.Timing.Delay, 0.05
TestParameter, Measurement.Adc.HighResolution.AutoZero, OFF
TestParameter, Measurement.Adc.HighResolution.Mode, AUTO
TestParameter, Measurement.Adc.HighResolution.Coeff, 1
TestParameter, Measurement.Ag16440ASelector.SemiconductorRelay.Channel1, DEFAULT
TestParameter, Measurement.Ag16440ASelector.SemiconductorRelay.Channel3, DEFAULT
TestParameter, Function.User.Name, absID, sqrtID, gm2, absIG
TestParameter, Function.User.Unit, A, A, A/V, A
TestParameter, Function.User.Definition, abs(ID), sqrt(abs(ID)), (delta(sqrtID)/delta(VG))^2, abs(IG)
TestParameter, Output.Graph.Enabled, true
TestParameter, Output.Graph.XAxis.Data, VG
TestParameter, Output.Graph.XAxis.Scale, Linear
TestParameter, Output.Graph.XAxis.Left, -5
TestParameter, Output.Graph.XAxis.Right, 7
TestParameter, Output.Graph.YAxis.Data, ID, absIG, gm2
TestParameter, Output.Graph.YAxis.Scale, Log, Log, Linear
TestParameter, Output.Graph.YAxis.Bottom, 1E-14, 1E-14, 0
TestParameter, Output.Graph.YAxis.Top, 0.01, 0.01, 1E-05
TestParameter, Output.Graph.YAxis.Group, , , 
TestParameter, Output.List.Data, VG, IG, VD, ID, VS, IS, sqrtID, gm2, absIG
TestParameter, AutoAnalysis.Interpolation, false
TestParameter, AutoAnalysis.Line1.Enabled, false
TestParameter, AutoAnalysis.Line1.Type, 1
TestParameter, AutoAnalysis.Line1.Fix, True
TestParameter, AutoAnalysis.Line1.YAxis, 0
TestParameter, AutoAnalysis.Line1.Point1.Type, 0
TestParameter, AutoAnalysis.Line1.Point1.XY.X, 
TestParameter, AutoAnalysis.Line1.Point1.XY.Y, 
TestParameter, AutoAnalysis.Line1.Point1.Data.Var, 
TestParameter, AutoAnalysis.Line1.Point1.Data.Condition, 
TestParameter, AutoAnalysis.Line1.Point1.Data.Start, false
TestParameter, AutoAnalysis.Line1.Point1.Data.StartVar, 
TestParameter, AutoAnalysis.Line1.Point1.Data.StartCondition, 
TestParameter, AutoAnalysis.Line1.Point2.Type, 0
TestParameter, AutoAnalysis.Line1.Point2.XY.X, 
TestParameter, AutoAnalysis.Line1.Point2.XY.Y, 
TestParameter, AutoAnalysis.Line1.Point2.Data.Var, 
TestParameter, AutoAnalysis.Line1.Point2.Data.Condition, 
TestParameter, AutoAnalysis.Line1.Point2.Data.Start, false
TestParameter, AutoAnalysis.Line1.Point2.Data.StartVar, 
TestParameter, AutoAnalysis.Line1.Point2.Data.StartCondition, 
TestParameter, AutoAnalysis.Line1.GradientExpr, 0
TestParameter, AutoAnalysis.Line2.Enabled, false
TestParameter, AutoAnalysis.Line2.Type, 1
TestParameter, AutoAnalysis.Line2.Fix, True
TestParameter, AutoAnalysis.Line2.YAxis, 0
TestParameter, AutoAnalysis.Line2.Point1.Type, 0
TestParameter, AutoAnalysis.Line2.Point1.XY.X, 
TestParameter, AutoAnalysis.Line2.Point1.XY.Y, 
TestParameter, AutoAnalysis.Line2.Point1.Data.Var, 
TestParameter, AutoAnalysis.Line2.Point1.Data.Condition, 
TestParameter, AutoAnalysis.Line2.Point1.Data.Start, false
TestParameter, AutoAnalysis.Line2.Point1.Data.StartVar, 
TestParameter, AutoAnalysis.Line2.Point1.Data.StartCondition, 
TestParameter, AutoAnalysis.Line2.Point2.Type, 0
TestParameter, AutoAnalysis.Line2.Point2.XY.X, 
TestParameter, AutoAnalysis.Line2.Point2.XY.Y, 
TestParameter, AutoAnalysis.Line2.Point2.Data.Var, 
TestParameter, AutoAnalysis.Line2.Point2.Data.Condition, 
TestParameter, AutoAnalysis.Line2.Point2.Data.Start, false
TestParameter, AutoAnalysis.Line2.Point2.Data.StartVar, 
TestParameter, AutoAnalysis.Line2.Point2.Data.StartCondition, 
TestParameter, AutoAnalysis.Line2.GradientExpr, 0
TestParameter, AutoAnalysis.Marker.Enabled, false
TestParameter, AutoAnalysis.Marker.Data.Var, 
TestParameter, AutoAnalysis.Marker.Data.Condition, 
TestParameter, AutoAnalysis.Marker.Data.Start, false
TestParameter, AutoAnalysis.Marker.Data.StartVar, 
TestParameter, AutoAnalysis.Marker.Data.StartCondition, 
MetaData, TestRecord.EntryPoint, true
MetaData, TestRecord.RecordTime, 05/02/2019 18:29:15
MetaData, TestRecord.TestTarget, 350-300-50-10
MetaData, TestRecord.IterationIndex, 1
MetaData, TestRecord.Preservation, true
MetaData, TestRecord.Flag, 
MetaData, TestRecord.Remarks, good
MetaData, TestRecord.LinkKey, 9d265ff2-0146-4d1d-9969-f09c578cbefc
Dimension1, 202, 202, 202, 202, 202, 202, 202, 202, 202, 202
Dimension2, 1, 1, 1, 1, 1, 1, 1, 1, 1, 1
DataName, VG, VS, VD, ID, IS, IG, absID, sqrtID, gm2, absIG
DataValue, -2, 0, 5, 3.142E-12, -1.19E-13, -2.473E-12, 3.142E-12, 1.7725687574816386E-06, 9.197207700144419E-11, 2.473E-12
DataValue, -1.9500000000000002, 0, 5, 1.6720000000000002E-12, 2.5E-14, 8.8500000000000007E-13, 1.6720000000000002E-12, 1.2930583900195692E-06, 1.0346840521056402E-13, 8.8500000000000007E-13
DataValue, -1.9000000000000001, 0, 5, 3.029E-12, -6.33E-13, -2.328E-12, 3.029E-12, 1.7404022523543228E-06, 5.2191237175559826E-12, 2.328E-12
DataValue, -1.85, 0, 5, 2.315E-12, -1.6660000000000002E-12, -4.4160000000000006E-12, 2.315E-12, 1.5215124054702938E-06, 7.8933071307032326E-12, 4.4160000000000006E-12
DataValue, -1.8, 0, 5, 2.13E-12, -2.234E-12, -2.3000000000000003E-13, 2.13E-12, 1.4594519519326424E-06, 3.2622566477458706E-12, 2.3000000000000003E-13
DataValue, -1.75, 0, 5, 1.7980000000000002E-12, 2.9800000000000004E-13, 4.89E-12, 1.7980000000000002E-12, 1.3408952233489387E-06, 1.3897481593182485E-12, 4.89E-12
DataValue, -1.7000000000000002, 0, 5, 2.4880000000000003E-12, 8.770000000000001E-13, -2.244E-12, 2.4880000000000003E-12, 1.5773395322504284E-06, 9.8142238793881648E-12, 2.244E-12
DataValue, -1.6500000000000001, 0, 5, 1.0560000000000002E-12, -8.8800000000000005E-13, -1.7400000000000002E-13, 1.0560000000000002E-12, 1.0276186062932105E-06, 1.3864445230388887E-11, 1.7400000000000002E-13
DataValue, -1.6, 0, 5, 1.452E-12, 9.7E-14, -1.6620000000000002E-12, 1.452E-12, 1.2049896265113654E-06, 1.2132266969140159E-10, 1.6620000000000002E-12
DataValue, -1.55, 0, 5, 4.533E-12, -2.331E-12, 5.8E-14, 4.533E-12, 2.1290843102141351E-06, 4.2722913939234722E-11, 5.8E-14
DataValue, -1.5, 0, 5, 3.04E-13, -7.8000000000000011E-13, 6.62E-13, 3.04E-13, 5.5136195008360889E-07, 7.8233321802210067E-11, 6.62E-13
DataValue, -1.4500000000000002, 0, 5, -1.5490000000000002E-12, 4.1E-13, -6.0720000000000008E-12, 1.5490000000000002E-12, 1.2445882853377659E-06, 4.056595862143313E-11, 6.0720000000000008E-12
DataValue, -1.4000000000000001, 0, 5, 1.412E-12, 1.75E-13, -1.452E-12, 1.412E-12, 1.1882760622010358E-06, 1.6349910351441616E-11, 1.452E-12
DataValue, -1.35, 0, 5, 7.06E-13, -3.0890000000000003E-12, -6.274E-12, 7.06E-13, 8.4023806150400019E-07, 1.711306401593834E-11, 6.274E-12
DataValue, -1.3, 0, 5, 6.0000000000000007E-13, -8.2570000000000009E-12, -3.5460000000000004E-12, 6.0000000000000007E-13, 7.7459666924148343E-07, 4.3880852211163942E-11, 3.5460000000000004E-12
DataValue, -1.25, 0, 5, 2.2580000000000003E-12, -3.6930000000000005E-12, 4.704E-12, 2.2580000000000003E-12, 1.5026643005009471E-06, 7.6190868084540314E-14, 4.704E-12
DataValue, -1.2, 0, 5, 5.58E-13, 1.4400000000000001E-12, 4.189E-12, 5.58E-13, 7.4699397587932392E-07, 1.1135391561190208E-12, 4.189E-12
DataValue, -1.1500000000000001, 0, 5, 1.952E-12, 1.625E-12, -1.7280000000000001E-12, 1.952E-12, 1.3971399357258385E-06, 6.9474270779315719E-11, 1.7280000000000001E-12
DataValue, -1.1, 0, 5, 2.498E-12, -6.6000000000000009E-14, -5.858E-12, 2.498E-12, 1.5805062480104278E-06, 6.1280252234694749E-12, 5.858E-12
DataValue, -1.05, 0, 5, 2.7050000000000003E-12, -3.033E-12, 6.0350000000000008E-12, 2.7050000000000003E-12, 1.6446884203398527E-06, 1.0143648003104668E-10, 6.0350000000000008E-12
DataValue, -1, 0, 5, 6.6960000000000005E-12, -6.3220000000000007E-12, -1.3367000000000002E-11, 6.6960000000000005E-12, 2.587663038341739E-06, 1.1306297429629381E-10, 1.3367000000000002E-11
DataValue, -0.95000000000000007, 0, 5, -3.38E-13, -5.835E-12, 5.6780000000000006E-12, 3.38E-13, 5.8137767414994533E-07, 1.5131255348533314E-10, 5.6780000000000006E-12
DataValue, -0.9, 0, 5, -1.843E-12, -1.0270000000000002E-12, 9.024E-12, 1.843E-12, 1.3575713609236164E-06, 2.167112092851591E-11, 9.024E-12
DataValue, -0.85000000000000009, 0, 5, 1.0960000000000002E-12, 1.425E-12, 5.669E-12, 1.0960000000000002E-12, 1.046900186264192E-06, 2.0002422774965107E-12, 5.669E-12
DataValue, -0.8, 0, 5, 1.479E-12, 4.4950000000000005E-12, -4.357E-12, 1.479E-12, 1.2161414391426683E-06, 1.4643152877069737E-10, 4.357E-12
DataValue, -0.75, 0, 5, 5.0940000000000007E-12, -1.377E-12, -7.355E-12, 5.0940000000000007E-12, 2.2569891448564835E-06, 1.5072066607219936E-11, 7.355E-12
DataValue, -0.70000000000000007, 0, 5, 2.574E-12, -3.5880000000000005E-12, -8.3100000000000009E-13, 2.574E-12, 1.6043690348545126E-06, 1.1234078614314356E-10, 8.3100000000000009E-13
DataValue, -0.65, 0, 5, 1.433E-12, -2.535E-12, 9.78E-13, 1.433E-12, 1.1970797801316334E-06, 1.7987338474140776E-11, 9.78E-13
DataValue, -0.6, 0, 5, 1.393E-12, -7.4500000000000006E-13, 3.746E-12, 1.393E-12, 1.1802542099056457E-06, 7.89158324160479E-11, 3.746E-12
DataValue, -0.55, 0, 5, 4.349E-12, 1.416E-12, -1.0890000000000001E-12, 4.349E-12, 2.0854256160314132E-06, 9.3212116996773034E-14, 1.0890000000000001E-12
DataValue, -0.5, 0, 5, 1.466E-12, 5.15E-13, -3.3390000000000002E-12, 1.466E-12, 1.2107848694132248E-06, 1.6776361226147515E-12, 3.3390000000000002E-12
DataValue, -0.45, 0, 5, 4.906E-12, -1.4630000000000001E-12, -2.1370000000000003E-12, 4.906E-12, 2.214949209349957E-06, 1.3366585167082883E-11, 2.1370000000000003E-12
DataValue, -0.4, 0, 5, 2.485E-12, -2.3200000000000002E-12, 3.3000000000000005E-14, 2.485E-12, 1.5763882770434447E-06, 7.57474838464963E-11, 3.3000000000000005E-14
DataValue, -0.35000000000000003, 0, 5, 1.8080000000000002E-12, -1.742E-12, 1.0730000000000002E-12, 1.8080000000000002E-12, 1.344618905117729E-06, 2.5407160085146443E-14, 1.0730000000000002E-12
DataValue, -0.3, 0, 5, 2.435E-12, -1.6310000000000002E-12, 8.1400000000000007E-13, 2.435E-12, 1.5604486534327234E-06, 3.59832571049192E-11, 8.1400000000000007E-13
DataValue, -0.25, 0, 5, 3.781E-12, -1.1920000000000002E-12, -9.94E-13, 3.781E-12, 1.9444793647657977E-06, 3.6138561626509136E-13, 9.94E-13
DataValue, -0.2, 0, 5, 2.251E-12, -3.4690000000000003E-12, -2.1450000000000003E-12, 2.251E-12, 1.5003332963045244E-06, 2.9822837353677863E-11, 2.1450000000000003E-12
DataValue, -0.15, 0, 5, 6.203E-12, -5.485E-12, 1.3700000000000002E-13, 6.203E-12, 2.4905822612393273E-06, 2.2026313308719674E-10, 1.3700000000000002E-13
DataValue, -0.1, 0, 5, 8.907E-12, -7.516E-12, 6.2E-14, 8.907E-12, 2.9844597501055364E-06, 1.240991896409515E-10, 6.2E-14
DataValue, -0.05, 0, 5, 1.2993000000000002E-11, -1.1211000000000001E-11, 8.5E-14, 1.2993000000000002E-11, 3.6045804194108364E-06, 2.1007236553252657E-10, 8.5E-14
DataValue, 0, 0, 5, 1.9659E-11, -1.7389000000000002E-11, -5.3100000000000006E-13, 1.9659E-11, 4.4338470880263787E-06, 4.1405512138901605E-10, 5.3100000000000006E-13
DataValue, 0.05, 0, 5, 3.1803E-11, -2.9485E-11, -1.218E-12, 3.1803E-11, 5.6394148632637415E-06, 8.0165082440188128E-10, 1.218E-12
DataValue, 0.1, 0, 5, 5.2783000000000004E-11, -4.9423E-11, 2.4200000000000003E-13, 5.2783000000000004E-11, 7.2651909816604271E-06, 1.4307916593771269E-09, 2.4200000000000003E-13
DataValue, 0.15, 0, 5, 8.8774E-11, -8.2606E-11, -3.8E-14, 8.8774E-11, 9.421995542346643E-06, 2.5280561291294755E-09, 3.8E-14
DataValue, 0.2, 0, 5, 1.51122E-10, -1.4162800000000002E-10, -2.8E-14, 1.51122E-10, 1.2293168834763477E-05, 4.295760984064746E-09, 2.8E-14
DataValue, 0.25, 0, 5, 2.5523900000000003E-10, -2.39615E-10, 3.28E-13, 2.5523900000000003E-10, 1.5976201050312308E-05, 7.00846300761869E-09, 3.28E-13
DataValue, 0.3, 0, 5, 4.27035E-10, -4.0781900000000004E-10, -4.0000000000000006E-14, 4.27035E-10, 2.0664825186775716E-05, 1.2211454395144324E-08, 4.0000000000000006E-14
DataValue, 0.35000000000000003, 0, 5, 7.3044500000000006E-10, -6.92569E-10, -5.4700000000000009E-13, 7.3044500000000006E-10, 2.702674601205258E-05, 1.7093400015813011E-08, 5.4700000000000009E-13
DataValue, 0.4, 0, 5, 1.13832E-09, -1.08257E-09, -2.0800000000000002E-13, 1.13832E-09, 3.3738998206822919E-05, 3.0905963573995315E-08, 2.0800000000000002E-13
DataValue, 0.45, 0, 5, 1.98977E-09, -1.94571E-09, 2.56E-13, 1.98977E-09, 4.46068380408206E-05, 5.7533841039470944E-08, 2.56E-13
DataValue, 0.5, 0, 5, 3.3322E-09, -3.27433E-09, -5.0600000000000007E-13, 3.3322E-09, 5.7725211129973361E-05, 8.4902259448603672E-08, 5.0600000000000007E-13
DataValue, 0.55, 0, 5, 5.4383E-09, -5.34486E-09, -5.0400000000000007E-13, 5.4383E-09, 7.3744830327284635E-05, 1.1917467930152793E-07, 5.0400000000000007E-13
DataValue, 0.6, 0, 5, 8.50949E-09, -8.34043E-09, 9.7E-14, 8.50949E-09, 9.2246896966781487E-05, 1.3281392294818067E-07, 9.7E-14
DataValue, 0.65, 0, 5, 1.2141499999999998E-08, -1.1750999999999999E-08, -9.0000000000000008E-14, 1.2141499999999998E-08, 0.00011018847489642462, 1.8527455929434031E-07, 9.0000000000000008E-14
DataValue, 0.70000000000000007, 0, 5, 1.83035E-08, -1.8058899999999998E-08, -5.35E-13, 1.83035E-08, 0.00013529042833844529, 2.8301769212363848E-07, 5.35E-13
DataValue, 0.75, 0, 5, 2.6695599999999998E-08, -2.6337699999999998E-08, -3.6800000000000005E-13, 2.6695599999999998E-08, 0.00016338788204759862, 3.3488317198122468E-07, 3.6800000000000005E-13
DataValue, 0.8, 0, 5, 3.7310599999999994E-08, -3.67996E-08, 2.92E-13, 3.7310599999999994E-08, 0.00019315951956867152, 3.9478227188153289E-07, 2.92E-13
DataValue, 0.85000000000000009, 0, 5, 5.1175299999999996E-08, -5.0638499999999994E-08, -2.6E-13, 5.1175299999999996E-08, 0.00022621958359081114, 4.7338103502935114E-07, 2.6E-13
DataValue, 0.9, 0, 5, 6.8624199999999991E-08, -6.79872E-08, 1.35E-13, 6.8624199999999991E-08, 0.00026196221101525309, 5.4614896138948459E-07, 1.35E-13
DataValue, 0.95000000000000007, 0, 5, 9.00729E-08, -8.907929999999999E-08, -8.5E-14, 9.00729E-08, 0.0003001214754062095, 5.3766619386033447E-07, 8.5E-14
DataValue, 1, 0, 5, 1.12418E-07, -1.10313E-07, -4.4E-14, 1.12418E-07, 0.0003352879359595272, 6.1746488510573037E-07, 4.4E-14
DataValue, 1.05, 0, 5, 1.43414E-07, -1.42231E-07, -8.5E-14, 1.43414E-07, 0.00037870040929473525, 8.0326399614819058E-07, 8.5E-14
DataValue, 1.1, 0, 5, 1.8055099999999999E-07, -1.79022E-07, -3.6700000000000005E-13, 1.8055099999999999E-07, 0.00042491293225789209, 8.688018298944289E-07, 3.6700000000000005E-13
DataValue, 1.1500000000000001, 0, 5, 2.22699E-07, -2.20682E-07, 4.1400000000000005E-13, 2.22699E-07, 0.00047190994903688988, 9.4047055079035949E-07, 4.1400000000000005E-13
DataValue, 1.2, 0, 5, 2.7237E-07, -2.70159E-07, -7.7E-14, 2.7237E-07, 0.00052189079317420417, 1.0358785612222915E-06, 7.7E-14
DataValue, 1.25, 0, 5, 3.2911799999999997E-07, -3.27326E-07, 1.42E-13, 3.2911799999999997E-07, 0.00057368806855293756, 1.0929523018827778E-06, 1.42E-13
DataValue, 1.3, 0, 5, 3.92421E-07, -3.9004399999999997E-07, 2.2500000000000003E-13, 3.92421E-07, 0.00062643515227036868, 1.207501221508657E-06, 2.2500000000000003E-13
DataValue, 1.35, 0, 5, 4.67274E-07, -4.64191E-07, -9.7E-14, 4.67274E-07, 0.00068357442901267158, 1.3196770517531098E-06, 9.7E-14
DataValue, 1.4000000000000001, 0, 5, 5.49544E-07, -5.4637599999999994E-07, 4.2900000000000004E-13, 5.49544E-07, 0.000741312349822934, 1.3817217385609519E-06, 4.2900000000000004E-13
DataValue, 1.4500000000000002, 0, 5, 6.41795E-07, -6.3846299999999994E-07, 5.22E-13, 6.41795E-07, 0.00080112108947399453, 1.517031701026003E-06, 5.22E-13
DataValue, 1.5, 0, 5, 7.47326E-07, -7.42262E-07, 2.7000000000000002E-14, 7.47326E-07, 0.00086448019063481148, 1.6634032610942575E-06, 2.7000000000000002E-14
DataValue, 1.55, 0, 5, 8.65075E-07, -8.6031E-07, 5.37E-13, 8.65075E-07, 0.00093009408126275056, 1.7215938156547568E-06, 5.37E-13
DataValue, 1.6, 0, 5, 9.9139799999999989E-07, -9.86444E-07, 3.1300000000000003E-13, 9.9139799999999989E-07, 0.00099568971070308852, 1.6837575133685845E-06, 3.1300000000000003E-13
DataValue, 1.6500000000000001, 0, 5, 1.12329E-06, -1.11317E-06, 5.5500000000000006E-13, 1.12329E-06, 0.0010598537634975876, 1.7812863590277937E-06, 5.5500000000000006E-13
DataValue, 1.7000000000000002, 0, 5, 1.2749900000000002E-06, -1.27035E-06, 4.1700000000000004E-13, 1.2749900000000002E-06, 0.0011291545509805113, 2.0869694296477126E-06, 4.1700000000000004E-13
DataValue, 1.75, 0, 5, 1.4503800000000002E-06, -1.4432900000000002E-06, 1.233E-12, 1.4503800000000002E-06, 0.0012043172339545757, 2.22407610063461E-06, 1.233E-12
DataValue, 1.8, 0, 5, 1.63402E-06, -1.6280100000000002E-06, 1.005E-12, 1.63402E-06, 0.0012782879174896397, 2.2468425287031622E-06, 1.005E-12
DataValue, 1.85, 0, 5, 1.8338900000000003E-06, -1.8286400000000002E-06, 1.3460000000000001E-12, 1.8338900000000003E-06, 0.0013542119479608796, 2.3798997389855571E-06, 1.3460000000000001E-12
DataValue, 1.9000000000000001, 0, 5, 2.05222E-06, -2.0468E-06, 1.922E-12, 2.05222E-06, 0.0014325571541826876, 2.4717448804900858E-06, 1.922E-12
DataValue, 1.9500000000000002, 0, 5, 2.2844200000000002E-06, -2.2765400000000004E-06, 1.8690000000000002E-12, 2.2844200000000002E-06, 0.0015114297866589768, 2.5201716236219967E-06, 1.8690000000000002E-12
DataValue, 2, 0, 5, 2.53226E-06, -2.52461E-06, 2.424E-12, 2.53226E-06, 0.0015913076383905157, 2.613787534522808E-06, 2.424E-12
DataValue, 2.05, 0, 5, 2.7992700000000005E-06, -2.79524E-06, 2.932E-12, 2.7992700000000005E-06, 0.0016731019096277431, 2.7733835991405354E-06, 2.932E-12
DataValue, 2.1, 0, 5, 3.0900100000000003E-06, -3.0822600000000003E-06, 2.9110000000000004E-12, 3.0900100000000003E-06, 0.0017578424275230132, 2.8884815251788541E-06, 2.9110000000000004E-12
DataValue, 2.15, 0, 5, 3.39686E-06, -3.3897500000000005E-06, 3.928E-12, 3.39686E-06, 0.0018430572427355588, 2.9018589102229627E-06, 3.928E-12
DataValue, 2.2, 0, 5, 3.7179200000000006E-06, -3.7106000000000005E-06, 4.0160000000000007E-12, 3.7179200000000006E-06, 0.0019281908619221285, 2.9570711946977916E-06, 4.0160000000000007E-12
DataValue, 2.25, 0, 5, 4.0603000000000007E-06, -4.0534100000000007E-06, 4.725E-12, 4.0603000000000007E-06, 0.002015018610335895, 3.0535047278171919E-06, 4.725E-12
DataValue, 2.3000000000000003, 0, 5, 4.42233E-06, -4.4146700000000007E-06, 5.669E-12, 4.42233E-06, 0.0021029336651449564, 3.1255108661197232E-06, 5.669E-12
DataValue, 2.35, 0, 5, 4.8040300000000005E-06, -4.7953500000000006E-06, 5.948E-12, 4.8040300000000005E-06, 0.0021918097545179419, 3.1780180250230206E-06, 5.948E-12
DataValue, 2.4, 0, 5, 5.20389E-06, -5.1948100000000005E-06, 7.2510000000000005E-12, 5.20389E-06, 0.0022812036296657079, 3.2199818565670279E-06, 7.2510000000000005E-12
