
SetupTitle, Transfer sat
PrimitiveTest, I/V Sweep
TestParameter, Context.MainFrame, 4155C
TestParameter, Channel.UnitType, SMU, SMU, SMU
TestParameter, Channel.Unit, SMU1:MP, SMU3:MP, SMU4:MP
TestParameter, Channel.IName, IS, ID, IG
TestParameter, Channel.VName, VS, VD, VG
TestParameter, Channel.Mode, COMMON, V, V
TestParameter, Channel.Func, CONST, CONST, VAR1
TestParameter, Channel.Index, 
TestParameter, Channel.Time, 
TestParameter, Measurement.Port.Unit, SMU1:MP, SMU3:MP, SMU4:MP
TestParameter, Measurement.Port.SeriesResistor, NONE, NONE, NONE
TestParameter, Measurement.Port.Filter, ON, ON, ON
TestParameter, Measurement.Primary.Locus, Double
TestParameter, Measurement.Primary.Scale, LINEAR
TestParameter, Measurement.Primary.Start, -2
TestParameter, Measurement.Primary.Stop, 3
TestParameter, Measurement.Primary.Step, 0.05
TestParameter, Measurement.Primary.Compliance, 0.001
TestParameter, Measurement.Primary.PowerCompliance, 0
TestParameter, Measurement.Aborting.Condition, CONTINUE AT ANY
TestParameter, Measurement.PostOutput.Value, START
TestParameter, Measurement.PostOutput.Retention, OFF
TestParameter, Measurement.Bias.Source, 0, 5, -2
TestParameter, Measurement.Bias.Compliance, 0.1, 0.001, 0.001
TestParameter, Measurement.Monitor.Unit, SMU3:MP, SMU1:MP, SMU4:MP
TestParameter, Measurement.Monitor.Adc, HR ADC, HR ADC, HR ADC
TestParameter, Measurement.Monitor.RangingMode, AUTO, AUTO, AUTO
TestParameter, Measurement.Monitor.RangeBoundary, , , 
TestParameter, Measurement.Monitor.RangeRating, BY FULL RANGE, BY FULL RANGE, BY FULL RANGE
TestParameter, Measurement.Monitor.RangeRatingCoeff, 50, 50, 50
TestParameter, Measurement.Timing.Hold, 0.5
TestParameter, Measurement.Timing.Delay, 0.05
TestParameter, Measurement.Adc.HighResolution.AutoZero, OFF
TestParameter, Measurement.Adc.HighResolution.Mode, AUTO
TestParameter, Measurement.Adc.HighResolution.Coeff, 1
TestParameter, Measurement.Ag16440ASelector.SemiconductorRelay.Channel1, DEFAULT
TestParameter, Measurement.Ag16440ASelector.SemiconductorRelay.Channel3, DEFAULT
TestParameter, Function.User.Name, absID, sqrtID, gm2, absIG
TestParameter, Function.User.Unit, A, A, A/V, A
TestParameter, Function.User.Definition, abs(ID), sqrt(abs(ID)), (delta(sqrtID)/delta(VG))^2, abs(IG)
TestParameter, Output.Graph.Enabled, true
TestParameter, Output.Graph.XAxis.Data, VG
TestParameter, Output.Graph.XAxis.Scale, Linear
TestParameter, Output.Graph.XAxis.Left, -5
TestParameter, Output.Graph.XAxis.Right, 7
TestParameter, Output.Graph.YAxis.Data, ID, absIG, gm2
TestParameter, Output.Graph.YAxis.Scale, Log, Log, Linear
TestParameter, Output.Graph.YAxis.Bottom, 1E-14, 1E-14, 0
TestParameter, Output.Graph.YAxis.Top, 0.01, 0.01, 1E-05
TestParameter, Output.Graph.YAxis.Group, , , 
TestParameter, Output.List.Data, VG, IG, VD, ID, VS, IS, sqrtID, gm2, absIG
TestParameter, AutoAnalysis.Interpolation, false
TestParameter, AutoAnalysis.Line1.Enabled, false
TestParameter, AutoAnalysis.Line1.Type, 1
TestParameter, AutoAnalysis.Line1.Fix, True
TestParameter, AutoAnalysis.Line1.YAxis, 0
TestParameter, AutoAnalysis.Line1.Point1.Type, 0
TestParameter, AutoAnalysis.Line1.Point1.XY.X, 
TestParameter, AutoAnalysis.Line1.Point1.XY.Y, 
TestParameter, AutoAnalysis.Line1.Point1.Data.Var, 
TestParameter, AutoAnalysis.Line1.Point1.Data.Condition, 
TestParameter, AutoAnalysis.Line1.Point1.Data.Start, false
TestParameter, AutoAnalysis.Line1.Point1.Data.StartVar, 
TestParameter, AutoAnalysis.Line1.Point1.Data.StartCondition, 
TestParameter, AutoAnalysis.Line1.Point2.Type, 0
TestParameter, AutoAnalysis.Line1.Point2.XY.X, 
TestParameter, AutoAnalysis.Line1.Point2.XY.Y, 
TestParameter, AutoAnalysis.Line1.Point2.Data.Var, 
TestParameter, AutoAnalysis.Line1.Point2.Data.Condition, 
TestParameter, AutoAnalysis.Line1.Point2.Data.Start, false
TestParameter, AutoAnalysis.Line1.Point2.Data.StartVar, 
TestParameter, AutoAnalysis.Line1.Point2.Data.StartCondition, 
TestParameter, AutoAnalysis.Line1.GradientExpr, 0
TestParameter, AutoAnalysis.Line2.Enabled, false
TestParameter, AutoAnalysis.Line2.Type, 1
TestParameter, AutoAnalysis.Line2.Fix, True
TestParameter, AutoAnalysis.Line2.YAxis, 0
TestParameter, AutoAnalysis.Line2.Point1.Type, 0
TestParameter, AutoAnalysis.Line2.Point1.XY.X, 
TestParameter, AutoAnalysis.Line2.Point1.XY.Y, 
TestParameter, AutoAnalysis.Line2.Point1.Data.Var, 
TestParameter, AutoAnalysis.Line2.Point1.Data.Condition, 
TestParameter, AutoAnalysis.Line2.Point1.Data.Start, false
TestParameter, AutoAnalysis.Line2.Point1.Data.StartVar, 
TestParameter, AutoAnalysis.Line2.Point1.Data.StartCondition, 
TestParameter, AutoAnalysis.Line2.Point2.Type, 0
TestParameter, AutoAnalysis.Line2.Point2.XY.X, 
TestParameter, AutoAnalysis.Line2.Point2.XY.Y, 
TestParameter, AutoAnalysis.Line2.Point2.Data.Var, 
TestParameter, AutoAnalysis.Line2.Point2.Data.Condition, 
TestParameter, AutoAnalysis.Line2.Point2.Data.Start, false
TestParameter, AutoAnalysis.Line2.Point2.Data.StartVar, 
TestParameter, AutoAnalysis.Line2.Point2.Data.StartCondition, 
TestParameter, AutoAnalysis.Line2.GradientExpr, 0
TestParameter, AutoAnalysis.Marker.Enabled, false
TestParameter, AutoAnalysis.Marker.Data.Var, 
TestParameter, AutoAnalysis.Marker.Data.Condition, 
TestParameter, AutoAnalysis.Marker.Data.Start, false
TestParameter, AutoAnalysis.Marker.Data.StartVar, 
TestParameter, AutoAnalysis.Marker.Data.StartCondition, 
MetaData, TestRecord.EntryPoint, true
MetaData, TestRecord.RecordTime, 05/02/2019 18:19:21
MetaData, TestRecord.TestTarget, 350-300-10-10
MetaData, TestRecord.IterationIndex, 1
MetaData, TestRecord.Preservation, true
MetaData, TestRecord.Flag, 
MetaData, TestRecord.Remarks, good
MetaData, TestRecord.LinkKey, 03011e61-0f36-4d03-8c5f-18999a00392f
Dimension1, 202, 202, 202, 202, 202, 202, 202, 202, 202, 202
Dimension2, 1, 1, 1, 1, 1, 1, 1, 1, 1, 1
DataName, VG, VS, VD, ID, IS, IG, absID, sqrtID, gm2, absIG
DataValue, -2, 0, 5, 1.316E-12, 3.7190000000000006E-12, -1.3336E-11, 1.316E-12, 1.147170431975999E-06, 4.5722071193286781E-11, 1.3336E-11
DataValue, -1.9500000000000002, 0, 5, 2.206E-12, -1.4692E-11, -7.1480000000000006E-12, 2.206E-12, 1.485260919838666E-06, 1.6240162514798468E-11, 7.1480000000000006E-12
DataValue, -1.9000000000000001, 0, 5, 2.403E-12, -7.302000000000001E-12, 6.9110000000000007E-12, 2.403E-12, 1.5501612819316577E-06, 4.1403719147446518E-13, 6.9110000000000007E-12
DataValue, -1.85, 0, 5, 2.019E-12, -1.18E-12, 8.9840000000000013E-12, 2.019E-12, 1.420915198032592E-06, 3.6410538027183319E-12, 8.9840000000000013E-12
DataValue, -1.8, 0, 5, 3.0310000000000003E-12, 3.0810000000000003E-12, -1.055E-12, 3.0310000000000003E-12, 1.7409767373517662E-06, 3.46698572129115E-11, 1.055E-12
DataValue, -1.75, 0, 5, 4.039E-12, 7.03E-13, -6.4780000000000005E-12, 4.039E-12, 2.0097263495311991E-06, 6.89168582936171E-12, 6.4780000000000005E-12
DataValue, -1.7000000000000002, 0, 5, 4.0140000000000005E-12, -2.5140000000000004E-12, -6.9820000000000007E-12, 4.0140000000000005E-12, 2.00349694284768E-06, 1.8996810208012688E-12, 6.9820000000000007E-12
DataValue, -1.6500000000000001, 0, 5, 3.5040000000000004E-12, -4.3400000000000005E-12, -3.8400000000000003E-13, 3.5040000000000004E-12, 1.8718974330876145E-06, 1.0724955794216528E-11, 3.8400000000000003E-13
DataValue, -1.6, 0, 5, 2.8090000000000002E-12, -2.9110000000000004E-12, 1.4900000000000001E-12, 2.8090000000000002E-12, 1.6760071598892412E-06, 3.5006519969236324E-11, 1.4900000000000001E-12
DataValue, -1.55, 0, 5, 1.6390000000000002E-12, 3.3080000000000004E-12, 5.401E-12, 1.6390000000000002E-12, 1.280234353546256E-06, 9.4664123936868815E-11, 5.401E-12
DataValue, -1.5, 0, 5, 7.0170000000000005E-12, -1.2520000000000001E-12, -1.2440000000000002E-12, 7.0170000000000005E-12, 2.64896206088347E-06, 1.6788363918879628E-11, 1.2440000000000002E-12
DataValue, -1.4500000000000002, 0, 5, 2.8560000000000004E-12, -1.602E-12, -8.098E-12, 2.8560000000000004E-12, 1.6899704139422088E-06, 1.1772092712885911E-10, 8.098E-12
DataValue, -1.4000000000000001, 0, 5, 2.4460000000000003E-12, -3.8030000000000007E-12, 5.5000000000000005E-14, 2.4460000000000003E-12, 1.5639693091617879E-06, 7.0161849653669211E-10, 5.5000000000000005E-14
DataValue, -1.35, 0, 5, 1.8825E-11, 9.1710000000000012E-12, 2.8395000000000002E-11, 1.8825E-11, 4.3387786299833275E-06, 2.639847805452331E-10, 2.8395000000000002E-11
DataValue, -1.3, 0, 5, 1.0168000000000001E-11, -4.2700000000000005E-13, -5.048E-12, 1.0168000000000001E-11, 3.1887301547794854E-06, 4.1628276517849978E-10, 5.048E-12
DataValue, -1.25, 0, 5, 5.2830000000000008E-12, 8.8600000000000006E-13, -2.4975000000000003E-11, 5.2830000000000008E-12, 2.2984777571253547E-06, 7.844444511688728E-11, 2.4975000000000003E-11
DataValue, -1.2, 0, 5, 5.304E-12, -9.3360000000000014E-12, 9.2000000000000012E-13, 5.304E-12, 2.3030414672775651E-06, 4.8221969407821479E-11, 9.2000000000000012E-13
DataValue, -1.1500000000000001, 0, 5, 2.573E-12, -4.465E-12, 6.2880000000000007E-12, 2.573E-12, 1.6040573555830228E-06, 9.5481341369039426E-11, 6.2880000000000007E-12
DataValue, -1.1, 0, 5, 1.7580000000000002E-12, -3.27E-13, 5.1860000000000007E-12, 1.7580000000000002E-12, 1.3258959235173779E-06, 8.2072983833290531E-12, 5.1860000000000007E-12
DataValue, -1.05, 0, 5, -1.736E-12, 8.6290000000000013E-12, 1.8064000000000002E-11, 1.736E-12, 1.3175735273600484E-06, 4.3600465160638204E-11, 1.8064000000000002E-11
DataValue, -1, 0, 5, 3.9450000000000007E-12, 9.5190000000000009E-12, -7.633E-12, 3.9450000000000007E-12, 1.9862024066041206E-06, 1.5022247128092993E-10, 7.633E-12
DataValue, -0.95000000000000007, 0, 5, 6.468E-12, 8.9900000000000011E-13, -1.5591E-11, 6.468E-12, 2.5432262974418929E-06, 1.3773494608359562E-11, 1.5591E-11
DataValue, -0.9, 0, 5, 5.5570000000000007E-12, -6.155E-12, -1.1165000000000001E-11, 5.5570000000000007E-12, 2.3573289969794204E-06, 6.5240327155799443E-11, 1.1165000000000001E-11
DataValue, -0.85000000000000009, 0, 5, 3.012E-12, -6.9120000000000004E-12, 3.9660000000000007E-12, 3.012E-12, 1.7355114519933311E-06, 1.0993789615631078E-10, 3.9660000000000007E-12
DataValue, -0.8, 0, 5, 1.713E-12, -2.5640000000000004E-12, 7.1870000000000008E-12, 1.713E-12, 1.3088162590677119E-06, 1.3330534929978894E-11, 7.1870000000000008E-12
DataValue, -0.75, 0, 5, 1.8780000000000003E-12, 1.659E-12, 2.669E-12, 1.8780000000000003E-12, 1.3704014010500721E-06, 2.7280106818004082E-11, 2.669E-12
DataValue, -0.70000000000000007, 0, 5, 3.3530000000000004E-12, 1.191E-12, -5.821E-12, 3.3530000000000004E-12, 1.8311198759229283E-06, 6.664714900152514E-11, 5.821E-12
DataValue, -0.65, 0, 5, 4.7820000000000004E-12, -1.873E-12, -5.219E-12, 4.7820000000000004E-12, 2.1867784524272228E-06, 4.0461883652806579E-13, 5.219E-12
DataValue, -0.6, 0, 5, 3.5900000000000003E-12, -3.392E-12, -2.1700000000000002E-12, 3.5900000000000003E-12, 1.8947295321496417E-06, 2.3347586008805174E-10, 2.1700000000000002E-12
DataValue, -0.55, 0, 5, 4.34E-13, -4.9390000000000007E-12, 1.888E-12, 4.34E-13, 6.587867636800242E-07, 2.6249257898778976E-11, 1.888E-12
DataValue, -0.5, 0, 5, 1.9110000000000002E-12, 1.17E-13, 1.6600000000000003E-13, 1.9110000000000002E-12, 1.3823892360692049E-06, 3.4025894737010047E-10, 1.6600000000000003E-13
DataValue, -0.45, 0, 5, 6.2670000000000007E-12, -1.5510000000000002E-12, -4.807E-12, 6.2670000000000007E-12, 2.5033976911389848E-06, 4.8250785808112751E-11, 4.807E-12
DataValue, -0.4, 0, 5, 4.314E-12, -1.4150000000000001E-12, 6.4240000000000009E-12, 4.314E-12, 2.0770170918892313E-06, 2.0679415076322988E-10, 6.4240000000000009E-12
DataValue, -0.35000000000000003, 0, 5, 1.1350000000000001E-12, 7.1900000000000007E-12, -1.0866000000000002E-11, 1.1350000000000001E-12, 1.0653637876331258E-06, 9.4953572979181945E-12, 1.0866000000000002E-11
DataValue, -0.3, 0, 5, 5.6890000000000005E-12, -7.257E-12, -5.711E-12, 5.6890000000000005E-12, 2.38516246826081E-06, 2.0984339358129816E-10, 5.711E-12
DataValue, -0.25, 0, 5, 6.3200000000000005E-12, -7.573000000000001E-12, -4.794E-12, 6.3200000000000005E-12, 2.5139610179953073E-06, 9.5447456275750359E-11, 4.794E-12
DataValue, -0.2, 0, 5, 1.9830000000000003E-12, -3.4310000000000002E-12, 8.751000000000001E-12, 1.9830000000000003E-12, 1.4081903280451831E-06, 3.2197185045429664E-11, 8.751000000000001E-12
DataValue, -0.15, 0, 5, 3.789E-12, -2.234E-12, 4.1500000000000005E-13, 3.789E-12, 1.9465353837010003E-06, 1.3815929195790596E-10, 4.1500000000000005E-13
DataValue, -0.1, 0, 5, 6.6750000000000005E-12, -3.5380000000000005E-12, -6.3E-12, 6.6750000000000005E-12, 2.5836021365527629E-06, 1.946083980592388E-10, 6.3E-12
DataValue, -0.05, 0, 5, 1.1166000000000002E-11, -8.7520000000000015E-12, -7.766E-12, 1.1166000000000002E-11, 3.3415565235380953E-06, 1.8737926123245759E-10, 7.766E-12
DataValue, 0, 0, 5, 1.5622E-11, -1.5169000000000002E-11, -3.1490000000000004E-12, 1.5622E-11, 3.9524675836747859E-06, 2.1688251387856086E-10, 3.1490000000000004E-12
DataValue, 0.05, 0, 5, 2.3177E-11, -2.0403000000000002E-11, -1.117E-12, 2.3177E-11, 4.8142496819338315E-06, 4.6895575472040511E-10, 1.117E-12
DataValue, 0.1, 0, 5, 3.743E-11, -3.6877E-11, -8.300000000000001E-13, 3.743E-11, 6.1180062111769718E-06, 1.1113112170579361E-09, 8.300000000000001E-13
DataValue, 0.15, 0, 5, 6.6388000000000012E-11, -6.0434E-11, 9.55E-13, 6.6388000000000012E-11, 8.1478831606743122E-06, 1.8888369735536459E-09, 9.55E-13
DataValue, 0.2, 0, 5, 1.0949700000000001E-10, -1.0500600000000001E-10, -1.3400000000000002E-12, 1.0949700000000001E-10, 1.0464081421701573E-05, 3.1097883255116536E-09, 1.3400000000000002E-12
DataValue, 0.25, 0, 5, 1.8836E-10, -1.7799600000000002E-10, -3.217E-12, 1.8836E-10, 1.372443077143821E-05, 4.7909773374959308E-09, 3.217E-12
DataValue, 0.3, 0, 5, 3.0226500000000004E-10, -2.83368E-10, -2.6760000000000003E-12, 3.0226500000000004E-10, 1.738577004334292E-05, 5.7973128813295652E-09, 2.6760000000000003E-12
DataValue, 0.35000000000000003, 0, 5, 4.55329E-10, -4.27138E-10, -8.1100000000000008E-13, 4.55329E-10, 2.1338439493083837E-05, 6.298196449724702E-09, 8.1100000000000008E-13
DataValue, 0.4, 0, 5, 6.41198E-10, -6.0372100000000007E-10, -9.8700000000000014E-13, 6.41198E-10, 2.5321887765330609E-05, 6.4312759597311348E-09, 9.8700000000000014E-13
DataValue, 0.45, 0, 5, 8.6189000000000011E-10, -8.1362500000000007E-10, -8.760000000000001E-13, 8.6189000000000011E-10, 2.9357963144605249E-05, 4.5334164968986811E-09, 8.760000000000001E-13
DataValue, 0.5, 0, 5, 1.02752E-09, -9.3670800000000015E-10, 6.870000000000001E-13, 1.02752E-09, 3.2054952815438679E-05, 5.0113740234357823E-09, 6.870000000000001E-13
DataValue, 0.55, 0, 5, 1.32766E-09, -1.22659E-09, 7.484E-12, 1.32766E-09, 3.6437069036902514E-05, 9.2804992820782483E-09, 7.484E-12
DataValue, 0.6, 0, 5, 1.73793E-09, -1.70043E-09, 1.3800000000000002E-13, 1.73793E-09, 4.1688487619485552E-05, 1.3220620032383187E-08, 1.3800000000000002E-13
DataValue, 0.65, 0, 5, 2.29778E-09, -2.25006E-09, 1.6140000000000002E-12, 2.29778E-09, 4.7935164545456607E-05, 1.8194941980475391E-08, 1.6140000000000002E-12
DataValue, 0.70000000000000007, 0, 5, 3.04454E-09, -2.99079E-09, -2.687E-12, 3.04454E-09, 5.5177350425695504E-05, 2.015900281445422E-08, 2.687E-12
DataValue, 0.75, 0, 5, 3.86056E-09, -3.79534E-09, -4.4530000000000005E-12, 3.86056E-09, 6.2133404864050389E-05, 2.2275998203238336E-08, 4.4530000000000005E-12
DataValue, 0.8, 0, 5, 4.91436E-09, -4.80583E-09, -1.1020000000000002E-12, 4.91436E-09, 7.01024963892157E-05, 2.8299759011811518E-08, 1.1020000000000002E-12
DataValue, 0.85000000000000009, 0, 5, 6.23404E-09, -6.14932E-09, 6.2600000000000006E-13, 6.23404E-09, 7.8955937078854311E-05, 3.4554221633221655E-08, 6.2600000000000006E-13
DataValue, 0.9, 0, 5, 7.86614E-09, -7.77548E-09, 4.7E-13, 7.86614E-09, 8.86912622528285E-05, 4.0117545670994553E-08, 4.7E-13
DataValue, 0.95000000000000007, 0, 5, 9.79809E-09, -9.69147E-09, 4.96E-13, 9.79809E-09, 9.8985301939227325E-05, 3.4025612756744733E-08, 4.96E-13
DataValue, 1, 0, 5, 1.1478399999999999E-08, -1.1214099999999999E-08, -2.19E-12, 1.1478399999999999E-08, 0.0001071372950937254, 3.9198200181291556E-08, 2.19E-12
DataValue, 1.05, 0, 5, 1.4109599999999999E-08, -1.3968799999999998E-08, -1.4690000000000001E-12, 1.4109599999999999E-08, 0.0001187838372843713, 5.9553437908993263E-08, 1.4690000000000001E-12
DataValue, 1.1, 0, 5, 1.7303E-08, -1.7168299999999998E-08, 2.7350000000000004E-12, 1.7303E-08, 0.00013154086817411537, 6.56265848972401E-08, 2.7350000000000004E-12
DataValue, 1.1500000000000001, 0, 5, 2.08518E-08, -2.07075E-08, 7.31E-13, 2.08518E-08, 0.00014440152353766908, 7.1667839091148992E-08, 7.31E-13
DataValue, 1.2, 0, 5, 2.50626E-08, -2.4931599999999996E-08, -4.5920000000000006E-12, 2.50626E-08, 0.0001583117178227815, 8.2237441983945932E-08, 4.5920000000000006E-12
DataValue, 1.25, 0, 5, 2.99562E-08, -2.9686E-08, -2.6850000000000004E-12, 2.99562E-08, 0.00017307859486372079, 8.7139044663336552E-08, 2.6850000000000004E-12
DataValue, 1.3, 0, 5, 3.5280499999999996E-08, -3.4978599999999997E-08, 3.455E-12, 3.5280499999999996E-08, 0.00018783104109811028, 9.23198281487621E-08, 3.455E-12
DataValue, 1.35, 0, 5, 4.1397099999999996E-08, -4.1177999999999993E-08, 2.6090000000000003E-12, 4.1397099999999996E-08, 0.00020346277300774211, 1.0271190921989832E-07, 2.6090000000000003E-12
DataValue, 1.4000000000000001, 0, 5, 4.8347099999999995E-08, -4.7969699999999996E-08, 1.6830000000000002E-12, 4.8347099999999995E-08, 0.00021987973985795051, 1.0744801415040754E-07, 1.6830000000000002E-12
DataValue, 1.4500000000000002, 0, 5, 5.58103E-08, -5.5546599999999993E-08, -9.8E-13, 5.58103E-08, 0.00023624203690283404, 1.115912562475743E-07, 9.8E-13
DataValue, 1.5, 0, 5, 6.41533E-08, -6.39871E-08, 6.8E-14, 6.41533E-08, 0.00025328501732238329, 1.2516882698017719E-07, 6.8E-14
DataValue, 1.55, 0, 5, 7.3778099999999993E-08, -7.3401799999999987E-08, 5.566E-12, 7.3778099999999993E-08, 0.0002716212436463687, 1.3265802021041258E-07, 5.566E-12
DataValue, 1.6, 0, 5, 8.3930299999999988E-08, -8.3736199999999987E-08, 1.851E-12, 8.3930299999999988E-08, 0.0002897072660462626, 1.3560226958066991E-07, 1.851E-12
DataValue, 1.6500000000000001, 0, 5, 9.51386E-08, -9.48564E-08, -9.240000000000001E-13, 9.51386E-08, 0.00030844545709087694, 1.4693235197883142E-07, 9.240000000000001E-13
DataValue, 1.7000000000000002, 0, 5, 1.0760959999999999E-07, -1.0717109999999999E-07, 6.4700000000000007E-13, 1.0760959999999999E-07, 0.00032803902206902154, 1.3758020525542574E-07, 6.4700000000000007E-13
DataValue, 1.75, 0, 5, 1.19396E-07, -1.1829899999999999E-07, -2.1300000000000003E-13, 1.19396E-07, 0.00034553726282414172, 1.3976672896939853E-07, 2.1300000000000003E-13
DataValue, 1.8, 0, 5, 1.3353499999999998E-07, -1.32678E-07, -9.0000000000000011E-15, 1.3353499999999998E-07, 0.00036542441078833248, 1.6140358648863381E-07, 9.0000000000000011E-15
DataValue, 1.85, 0, 5, 1.48774E-07, -1.4889699999999999E-07, 1.2290000000000001E-12, 1.48774E-07, 0.00038571232803736, 1.7050050193778031E-07, 1.2290000000000001E-12
DataValue, 1.9000000000000001, 0, 5, 1.65418E-07, -1.65374E-07, 2.1240000000000002E-12, 1.65418E-07, 0.00040671611721199348, 1.8062700601102669E-07, 2.1240000000000002E-12
DataValue, 1.9500000000000002, 0, 5, 1.83366E-07, -1.82568E-07, 2.791E-12, 1.83366E-07, 0.00042821256403800204, 1.8623519048530343E-07, 2.791E-12
DataValue, 2, 0, 5, 2.02384E-07, -2.01462E-07, 1.6550000000000001E-12, 2.02384E-07, 0.00044987109264766056, 1.9739315236407485E-07, 1.6550000000000001E-12
DataValue, 2.05, 0, 5, 2.2339E-07, -2.2265E-07, 1.7700000000000001E-12, 2.2339E-07, 0.000472641513200015, 2.004279538970028E-07, 1.7700000000000001E-12
DataValue, 2.1, 0, 5, 2.44669E-07, -2.44532E-07, 2.3460000000000003E-12, 2.44669E-07, 0.00049464027333002319, 1.9216779349631993E-07, 2.3460000000000003E-12
DataValue, 2.15, 0, 5, 2.6675E-07, -2.66497E-07, 3.183E-12, 2.6675E-07, 0.00051647846034466919, 2.0294531566527262E-07, 3.183E-12
DataValue, 2.2, 0, 5, 2.91265E-07, -2.90293E-07, 3.6820000000000007E-12, 2.91265E-07, 0.00053968972567578128, 2.2185202371457023E-07, 3.6820000000000007E-12
