
SetupTitle, Transfer lin
PrimitiveTest, I/V Sweep
TestParameter, Context.MainFrame, 4155C
TestParameter, Channel.UnitType, SMU, SMU, SMU
TestParameter, Channel.Unit, SMU3:MP, SMU1:MP, SMU4:MP
TestParameter, Channel.IName, ID, IS, IG
TestParameter, Channel.VName, VD, VS, VG
TestParameter, Channel.Mode, V, COMMON, V
TestParameter, Channel.Func, CONST, CONST, VAR1
TestParameter, Channel.Index, 
TestParameter, Channel.Time, 
TestParameter, Measurement.Port.Unit, SMU3:MP, SMU1:MP, SMU4:MP
TestParameter, Measurement.Port.SeriesResistor, NONE, NONE, NONE
TestParameter, Measurement.Port.Filter, ON, ON, ON
TestParameter, Measurement.Primary.Locus, Double
TestParameter, Measurement.Primary.Scale, LINEAR
TestParameter, Measurement.Primary.Start, -2
TestParameter, Measurement.Primary.Stop, 3
TestParameter, Measurement.Primary.Step, 0.05
TestParameter, Measurement.Primary.Compliance, 0.001
TestParameter, Measurement.Primary.PowerCompliance, 0
TestParameter, Measurement.Aborting.Condition, CONTINUE AT ANY
TestParameter, Measurement.PostOutput.Value, START
TestParameter, Measurement.PostOutput.Retention, OFF
TestParameter, Measurement.Bias.Source, 0.1, 0, -2
TestParameter, Measurement.Bias.Compliance, 0.001, 0.1, 0.001
TestParameter, Measurement.Monitor.Unit, SMU3:MP, SMU1:MP, SMU4:MP
TestParameter, Measurement.Monitor.Adc, HR ADC, HR ADC, HR ADC
TestParameter, Measurement.Monitor.RangingMode, AUTO, AUTO, AUTO
TestParameter, Measurement.Monitor.RangeBoundary, , , 
TestParameter, Measurement.Monitor.RangeRating, BY FULL RANGE, BY FULL RANGE, BY FULL RANGE
TestParameter, Measurement.Monitor.RangeRatingCoeff, 50, 50, 50
TestParameter, Measurement.Timing.Hold, 0.5
TestParameter, Measurement.Timing.Delay, 0.05
TestParameter, Measurement.Adc.HighResolution.AutoZero, OFF
TestParameter, Measurement.Adc.HighResolution.Mode, AUTO
TestParameter, Measurement.Adc.HighResolution.Coeff, 1
TestParameter, Measurement.Ag16440ASelector.SemiconductorRelay.Channel1, DEFAULT
TestParameter, Measurement.Ag16440ASelector.SemiconductorRelay.Channel3, DEFAULT
TestParameter, Function.User.Name, absID, sqrtID, gm2, absIG
TestParameter, Function.User.Unit, A, A, A/V, A
TestParameter, Function.User.Definition, abs(ID), sqrt(abs(ID)), (delta(sqrtID)/delta(VG))^2, abs(IG)
TestParameter, Output.Graph.Enabled, true
TestParameter, Output.Graph.XAxis.Data, VG
TestParameter, Output.Graph.XAxis.Scale, Linear
TestParameter, Output.Graph.XAxis.Left, -5
TestParameter, Output.Graph.XAxis.Right, 7
TestParameter, Output.Graph.YAxis.Data, ID, absIG, gm2
TestParameter, Output.Graph.YAxis.Scale, Log, Log, Linear
TestParameter, Output.Graph.YAxis.Bottom, 1E-14, 1E-14, 0
TestParameter, Output.Graph.YAxis.Top, 0.01, 0.01, 1E-05
TestParameter, Output.Graph.YAxis.Group, , , 
TestParameter, Output.List.Data, VG, IG, VD, ID, VS, IS, sqrtID, gm2, absIG
TestParameter, AutoAnalysis.Interpolation, false
TestParameter, AutoAnalysis.Line1.Enabled, false
TestParameter, AutoAnalysis.Line1.Type, 1
TestParameter, AutoAnalysis.Line1.Fix, True
TestParameter, AutoAnalysis.Line1.YAxis, 0
TestParameter, AutoAnalysis.Line1.Point1.Type, 0
TestParameter, AutoAnalysis.Line1.Point1.XY.X, 
TestParameter, AutoAnalysis.Line1.Point1.XY.Y, 
TestParameter, AutoAnalysis.Line1.Point1.Data.Var, 
TestParameter, AutoAnalysis.Line1.Point1.Data.Condition, 
TestParameter, AutoAnalysis.Line1.Point1.Data.Start, false
TestParameter, AutoAnalysis.Line1.Point1.Data.StartVar, 
TestParameter, AutoAnalysis.Line1.Point1.Data.StartCondition, 
TestParameter, AutoAnalysis.Line1.Point2.Type, 0
TestParameter, AutoAnalysis.Line1.Point2.XY.X, 
TestParameter, AutoAnalysis.Line1.Point2.XY.Y, 
TestParameter, AutoAnalysis.Line1.Point2.Data.Var, 
TestParameter, AutoAnalysis.Line1.Point2.Data.Condition, 
TestParameter, AutoAnalysis.Line1.Point2.Data.Start, false
TestParameter, AutoAnalysis.Line1.Point2.Data.StartVar, 
TestParameter, AutoAnalysis.Line1.Point2.Data.StartCondition, 
TestParameter, AutoAnalysis.Line1.GradientExpr, 0
TestParameter, AutoAnalysis.Line2.Enabled, false
TestParameter, AutoAnalysis.Line2.Type, 1
TestParameter, AutoAnalysis.Line2.Fix, True
TestParameter, AutoAnalysis.Line2.YAxis, 0
TestParameter, AutoAnalysis.Line2.Point1.Type, 0
TestParameter, AutoAnalysis.Line2.Point1.XY.X, 
TestParameter, AutoAnalysis.Line2.Point1.XY.Y, 
TestParameter, AutoAnalysis.Line2.Point1.Data.Var, 
TestParameter, AutoAnalysis.Line2.Point1.Data.Condition, 
TestParameter, AutoAnalysis.Line2.Point1.Data.Start, false
TestParameter, AutoAnalysis.Line2.Point1.Data.StartVar, 
TestParameter, AutoAnalysis.Line2.Point1.Data.StartCondition, 
TestParameter, AutoAnalysis.Line2.Point2.Type, 0
TestParameter, AutoAnalysis.Line2.Point2.XY.X, 
TestParameter, AutoAnalysis.Line2.Point2.XY.Y, 
TestParameter, AutoAnalysis.Line2.Point2.Data.Var, 
TestParameter, AutoAnalysis.Line2.Point2.Data.Condition, 
TestParameter, AutoAnalysis.Line2.Point2.Data.Start, false
TestParameter, AutoAnalysis.Line2.Point2.Data.StartVar, 
TestParameter, AutoAnalysis.Line2.Point2.Data.StartCondition, 
TestParameter, AutoAnalysis.Line2.GradientExpr, 0
TestParameter, AutoAnalysis.Marker.Enabled, false
TestParameter, AutoAnalysis.Marker.Data.Var, 
TestParameter, AutoAnalysis.Marker.Data.Condition, 
TestParameter, AutoAnalysis.Marker.Data.Start, false
TestParameter, AutoAnalysis.Marker.Data.StartVar, 
TestParameter, AutoAnalysis.Marker.Data.StartCondition, 
MetaData, TestRecord.EntryPoint, true
MetaData, TestRecord.RecordTime, 05/02/2019 11:05:17
MetaData, TestRecord.TestTarget, 250-300-50-5
MetaData, TestRecord.IterationIndex, 1
MetaData, TestRecord.Preservation, true
MetaData, TestRecord.Flag, 
MetaData, TestRecord.Remarks, bad
MetaData, TestRecord.LinkKey, cb3d390c-9b4e-4c07-aa14-03962b75930c
Dimension1, 202, 202, 202, 202, 202, 202, 202, 202, 202, 202
Dimension2, 1, 1, 1, 1, 1, 1, 1, 1, 1, 1
DataName, VG, VD, VS, ID, IS, IG, absID, sqrtID, gm2, absIG
DataValue, -2, 0.1, 0, 1.3561000000000002E-11, 1.2456000000000001E-11, -2.7882000000000003E-11, 1.3561000000000002E-11, 3.6825263067627911E-06, 2.0489491631895592E-12, 2.7882000000000003E-11
DataValue, -1.9500000000000002, 0.1, 0, 1.3039E-11, 1.1896E-11, -2.8028E-11, 1.3039E-11, 3.610955552204984E-06, 1.9343706761712417E-12, 2.8028E-11
DataValue, -1.9000000000000001, 0.1, 0, 1.2556000000000001E-11, 1.1433000000000001E-11, -2.6540000000000003E-11, 1.2556000000000001E-11, 3.5434446517477879E-06, 5.8913771992502879E-12, 2.6540000000000003E-11
DataValue, -1.85, 0.1, 0, 1.1345E-11, 1.1762000000000001E-11, -2.6261E-11, 1.1345E-11, 3.3682339586198582E-06, 4.1058482278337483E-13, 2.6261E-11
DataValue, -1.8, 0.1, 0, 1.2106E-11, 1.1003E-11, -2.6690000000000004E-11, 1.2106E-11, 3.47936775865961E-06, 1.7297685535474355E-15, 2.6690000000000004E-11
DataValue, -1.75, 0.1, 0, 1.1317000000000001E-11, 1.0874E-11, -2.3784000000000003E-11, 1.1317000000000001E-11, 3.3640749099863996E-06, 1.8909546510037279E-12, 2.3784000000000003E-11
DataValue, -1.7000000000000002, 0.1, 0, 1.1168000000000001E-11, 9.87E-12, -2.3995000000000003E-11, 1.1168000000000001E-11, 3.3418557718728678E-06, 2.3381844629685631E-13, 2.3995000000000003E-11
DataValue, -1.6500000000000001, 0.1, 0, 1.0994000000000001E-11, 1.0248E-11, -2.3578000000000003E-11, 1.0994000000000001E-11, 3.3157201329424657E-06, 3.7672569719800549E-13, 2.3578000000000003E-11
DataValue, -1.6, 0.1, 0, 1.1582000000000001E-11, 9.248000000000001E-12, -2.2417000000000002E-11, 1.1582000000000001E-11, 3.40323375629709E-06, 2.0186354526466065E-12, 2.2417000000000002E-11
DataValue, -1.55, 0.1, 0, 1.0072000000000002E-11, 8.8580000000000012E-12, -2.1857000000000003E-11, 1.0072000000000002E-11, 3.1736414416250619E-06, 8.7131056893781747E-12, 2.1857000000000003E-11
DataValue, -1.5, 0.1, 0, 9.66E-12, 8.833E-12, -2.0577000000000002E-11, 9.66E-12, 3.1080540535840106E-06, 3.5358614290039092E-14, 2.0577000000000002E-11
DataValue, -1.4500000000000002, 0.1, 0, 9.953E-12, 8.676E-12, -2.0161E-11, 9.953E-12, 3.1548375552474965E-06, 9.9465241406328047E-13, 2.0161E-11
DataValue, -1.4000000000000001, 0.1, 0, 9.05E-12, 8.198E-12, -2.1136000000000002E-11, 9.05E-12, 3.0083217912982649E-06, 7.61521953128407E-13, 2.1136000000000002E-11
DataValue, -1.35, 0.1, 0, 9.4100000000000013E-12, 7.597E-12, -1.8662E-11, 9.4100000000000013E-12, 3.0675723300355939E-06, 7.995558592977082E-13, 1.8662E-11
DataValue, -1.3, 0.1, 0, 8.52E-12, 7.3510000000000013E-12, -1.8000000000000002E-11, 8.52E-12, 2.9189039038652848E-06, 1.7003329634048019E-12, 1.8000000000000002E-11
DataValue, -1.25, 0.1, 0, 8.627E-12, 6.7800000000000006E-12, -1.8407E-11, 8.627E-12, 2.9371755139929924E-06, 8.5085971520298371E-13, 1.8407E-11
DataValue, -1.2, 0.1, 0, 9.0670000000000008E-12, 6.2280000000000005E-12, -1.6868E-11, 9.0670000000000008E-12, 3.0111459612579398E-06, 2.3103736451238624E-12, 1.6868E-11
DataValue, -1.1500000000000001, 0.1, 0, 9.543E-12, 5.23E-12, -1.6105000000000002E-11, 9.543E-12, 3.0891746470538048E-06, 3.4727463499068925E-12, 1.6105000000000002E-11
DataValue, -1.1, 0.1, 0, 1.0224E-11, 3.5630000000000005E-12, -1.5138E-11, 1.0224E-11, 3.1974990226738146E-06, 4.4787990480513948E-13, 1.5138E-11
DataValue, -1.05, 0.1, 0, 9.134E-12, 1.8440000000000002E-12, -1.4869E-11, 9.134E-12, 3.0222508168581906E-06, 5.440529505822315E-11, 1.4869E-11
DataValue, -1, 0.1, 0, 1.5485000000000002E-11, -3.2600000000000002E-12, -1.5251E-11, 1.5485000000000002E-11, 3.9350984739902E-06, 4.304010646587144E-10, 1.5251E-11
DataValue, -0.95000000000000007, 0.1, 0, 2.5978000000000003E-11, -1.0644E-11, -1.3576000000000001E-11, 2.5978000000000003E-11, 5.0968617795659322E-06, 4.6889281846742237E-10, 1.3576000000000001E-11
DataValue, -0.9, 0.1, 0, 3.7216E-11, -2.3532000000000003E-11, -1.3307E-11, 3.7216E-11, 6.1004917834548387E-06, 6.6539781280781068E-10, 1.3307E-11
DataValue, -0.85000000000000009, 0.1, 0, 5.892700000000001E-11, -4.5443000000000007E-11, -1.1425E-11, 5.892700000000001E-11, 7.676392381841878E-06, 1.3636936261398909E-09, 1.1425E-11
DataValue, -0.8, 0.1, 0, 9.5909000000000012E-11, -8.0842E-11, -1.0737000000000002E-11, 9.5909000000000012E-11, 9.7933140458171775E-06, 2.43036763918361E-09, 1.0737000000000002E-11
DataValue, -0.75, 0.1, 0, 1.5891800000000001E-10, -1.4114300000000002E-10, -1.1039000000000001E-11, 1.5891800000000001E-10, 1.2606268282088876E-05, 4.0141843159886249E-09, 1.1039000000000001E-11
DataValue, -0.70000000000000007, 0.1, 0, 2.60147E-10, -2.36554E-10, -1.1018E-11, 2.60147E-10, 1.6129073128980476E-05, 6.2439651295320138E-09, 1.1018E-11
DataValue, -0.65, 0.1, 0, 4.2058400000000004E-10, -3.9224800000000005E-10, -9.3770000000000009E-12, 4.2058400000000004E-10, 2.0508144723499492E-05, 1.0198601985254058E-08, 9.3770000000000009E-12
DataValue, -0.6, 0.1, 0, 6.8790200000000009E-10, -6.4571300000000006E-10, -8.963E-12, 6.8790200000000009E-10, 2.6227885923192514E-05, 1.289395916625603E-08, 8.963E-12
DataValue, -0.55, 0.1, 0, 1.01527E-09, -9.2840500000000006E-10, -8.2420000000000014E-12, 1.01527E-09, 3.1863301774925961E-05, 2.033303751554156E-08, 8.2420000000000014E-12
DataValue, -0.5, 0.1, 0, 1.63922E-09, -1.51847E-09, -7.4510000000000013E-12, 1.63922E-09, 4.0487281953719738E-05, 3.5563514924675062E-08, 7.4510000000000013E-12
DataValue, -0.45, 0.1, 0, 2.57268E-09, -2.51934E-09, -7.353E-12, 2.57268E-09, 5.0721593034919557E-05, 5.4398715320232083E-08, 7.353E-12
DataValue, -0.4, 0.1, 0, 4.07182E-09, -3.96766E-09, -6.2850000000000008E-12, 4.07182E-09, 6.3810814130521788E-05, 7.52600935287651E-08, 6.2850000000000008E-12
DataValue, -0.35000000000000003, 0.1, 0, 6.10823E-09, -5.96228E-09, -5.614E-12, 6.10823E-09, 7.8155166176011671E-05, 9.3347952211063889E-08, 5.614E-12
DataValue, -0.3, 0.1, 0, 8.90451E-09, -8.67069E-09, -4.736E-12, 8.90451E-09, 9.4363711245372281E-05, 8.7974034333094921E-08, 4.736E-12
DataValue, -0.25, 0.1, 0, 1.16242E-08, -1.1135399999999999E-08, -3.883E-12, 1.16242E-08, 0.00010781558328924442, 1.1298498901492008E-07, 3.883E-12
DataValue, -0.2, 0.1, 0, 1.6378099999999998E-08, -1.60609E-08, -3.5940000000000002E-12, 1.6378099999999998E-08, 0.00012797695104978864, 1.6839549920868886E-07, 3.5940000000000002E-12
DataValue, -0.15, 0.1, 0, 2.2156799999999997E-08, -2.17481E-08, -2.8590000000000002E-12, 2.2156799999999997E-08, 0.00014885160395508004, 1.7776682771690692E-07, 2.8590000000000002E-12
DataValue, -0.1, 0.1, 0, 2.8947399999999996E-08, -2.8531399999999998E-08, -1.925E-12, 2.8947399999999996E-08, 0.00017013935464788856, 1.9164986663504738E-07, 1.925E-12
DataValue, -0.05, 0.1, 0, 3.7106099999999994E-08, -3.6588099999999995E-08, -1.596E-12, 3.7106099999999994E-08, 0.00019262943700275924, 1.8933142364434838E-07, 1.596E-12
DataValue, 0, 0.1, 0, 4.5647E-08, -4.5124099999999993E-08, -7.4100000000000007E-13, 4.5647E-08, 0.00021365158553121014, 1.8239352894823816E-07, 7.4100000000000007E-13
DataValue, 0.05, 0.1, 0, 5.5383499999999994E-08, -5.48517E-08, -1.4500000000000001E-13, 5.5383499999999994E-08, 0.00023533699241725682, 1.789750432300537E-07, 1.4500000000000001E-13
DataValue, 0.1, 0.1, 0, 6.5514E-08, -6.49113E-08, 4.0600000000000004E-13, 6.5514E-08, 0.0002559570276433136, 1.7012993710286023E-07, 4.0600000000000004E-13
DataValue, 0.15, 0.1, 0, 7.64986E-08, -7.55627E-08, 1.4880000000000001E-12, 7.64986E-08, 0.00027658380285186621, 1.6589064907647713E-07, 1.4880000000000001E-12
DataValue, 0.2, 0.1, 0, 8.8023E-08, -8.71025E-08, 1.4280000000000002E-12, 8.8023E-08, 0.00029668670344321129, 1.5552460411885178E-07, 1.4280000000000002E-12
DataValue, 0.25, 0.1, 0, 9.9868899999999987E-08, -9.9032799999999987E-08, 2.044E-12, 9.9868899999999987E-08, 0.00031602041073323093, 1.2528851377403444E-07, 2.044E-12
DataValue, 0.3, 0.1, 0, 1.10279E-07, -1.0977869999999999E-07, 2.9110000000000004E-12, 1.10279E-07, 0.00033208282099500422, 1.1724406213123857E-07, 2.9110000000000004E-12
DataValue, 0.35000000000000003, 0.1, 0, 1.22683E-07, -1.20622E-07, 4.217E-12, 1.22683E-07, 0.00035026133100871982, 1.2784528259744975E-07, 4.217E-12
DataValue, 0.4, 0.1, 0, 1.35305E-07, -1.34438E-07, 6.2670000000000007E-12, 1.35305E-07, 0.00036783827968279759, 1.2955511941041979E-07, 6.2670000000000007E-12
DataValue, 0.45, 0.1, 0, 1.49193E-07, -1.48204E-07, 2.9690000000000004E-12, 1.49193E-07, 0.00038625509705374764, 1.3175328983565864E-07, 2.9690000000000004E-12
DataValue, 0.5, 0.1, 0, 1.63326E-07, -1.61699E-07, 6.7380000000000006E-12, 1.63326E-07, 0.00040413611568381266, 1.2170476061706421E-07, 6.7380000000000006E-12
DataValue, 0.55, 0.1, 0, 1.7736E-07, -1.76398E-07, 5.9460000000000007E-12, 1.7736E-07, 0.00042114130645188436, 1.1671016202705977E-07, 5.9460000000000007E-12
DataValue, 0.6, 0.1, 0, 1.9210599999999999E-07, -1.91472E-07, 7.1220000000000006E-12, 1.9210599999999999E-07, 0.00043829898471249053, 1.15767322604164E-07, 7.1220000000000006E-12
DataValue, 0.65, 0.1, 0, 2.07176E-07, -2.0606E-07, 8.0190000000000013E-12, 2.07176E-07, 0.00045516590381969519, 1.1247874827375991E-07, 8.0190000000000013E-12
DataValue, 0.70000000000000007, 0.1, 0, 2.2263E-07, -2.21176E-07, 8.608E-12, 2.2263E-07, 0.00047183683620505935, 1.1148325621398582E-07, 8.608E-12
DataValue, 0.75, 0.1, 0, 2.3868599999999997E-07, -2.37327E-07, 1.1055000000000001E-11, 2.3868599999999997E-07, 0.00048855501225552884, 1.0536967212014252E-07, 1.1055000000000001E-11
DataValue, 0.8, 0.1, 0, 2.54316E-07, -2.5279E-07, 1.1297000000000001E-11, 2.54316E-07, 0.000504297531225367, 1.0168488938930176E-07, 1.1297000000000001E-11
DataValue, 0.85000000000000009, 0.1, 0, 2.70861E-07, -2.6931199999999997E-07, 9.501E-12, 2.70861E-07, 0.00052044308046125462, 1.0829497704993359E-07, 9.501E-12
DataValue, 0.9, 0.1, 0, 2.8859E-07, -2.87252E-07, 1.1928000000000002E-11, 2.8859E-07, 0.000537205733402018, 1.1541530695907683E-07, 1.1928000000000002E-11
DataValue, 0.95000000000000007, 0.1, 0, 3.07377E-07, -3.0563E-07, 1.4671E-11, 3.07377E-07, 0.00055441590886265164, 1.0588972493396595E-07, 1.4671E-11
DataValue, 1, 0.1, 0, 3.2461099999999997E-07, -3.2293099999999997E-07, 1.7094E-11, 3.2461099999999997E-07, 0.00056974643482868759, 9.6387284941145811E-08, 1.7094E-11
DataValue, 1.05, 0.1, 0, 3.42766E-07, -3.41065E-07, 1.8485E-11, 3.42766E-07, 0.00058546221056529342, 1.0137729733141526E-07, 1.8485E-11
DataValue, 1.1, 0.1, 0, 3.61906E-07, -3.60099E-07, 2.0438E-11, 3.61906E-07, 0.00060158623654468692, 1.0579181286555575E-07, 2.0438E-11
DataValue, 1.1500000000000001, 0.1, 0, 3.81909E-07, -3.80431E-07, 2.2013000000000003E-11, 3.81909E-07, 0.00061798786395850843, 1.1002238258802004E-07, 2.2013000000000003E-11
DataValue, 1.2, 0.1, 0, 4.02915E-07, -4.01117E-07, 2.5584000000000002E-11, 4.02915E-07, 0.00063475585857871374, 1.0741348955636201E-07, 2.5584000000000002E-11
DataValue, 1.25, 0.1, 0, 4.23491E-07, -4.21819E-07, 3.3347E-11, 4.23491E-07, 0.00065076186120577165, 1.0928140527948159E-07, 3.3347E-11
DataValue, 1.3, 0.1, 0, 4.45975E-07, -4.44538E-07, 3.8590000000000006E-11, 4.45975E-07, 0.0006678135967468767, 1.1117819136837019E-07, 3.8590000000000006E-11
DataValue, 1.35, 0.1, 0, 4.68E-07, -4.6651799999999997E-07, 4.6240000000000007E-11, 4.68E-07, 0.00068410525505948282, 1.0768977323785758E-07, 4.6240000000000007E-11
DataValue, 1.4000000000000001, 0.1, 0, 4.90882E-07, -4.89131E-07, 5.3083000000000006E-11, 4.90882E-07, 0.00070062971675486328, 1.1126853838829607E-07, 5.3083000000000006E-11
DataValue, 1.4500000000000002, 0.1, 0, 5.14752E-07, -5.13385E-07, 6.2964E-11, 5.14752E-07, 0.00071746219412593439, 1.1319695449261963E-07, 6.2964E-11
DataValue, 1.5, 0.1, 0, 5.39159E-07, -5.37237E-07, 7.8601E-11, 5.39159E-07, 0.00073427447184278439, 1.0864727499686559E-07, 7.8601E-11
DataValue, 1.55, 0.1, 0, 5.63136E-07, -5.609E-07, 9.2594000000000009E-11, 5.63136E-07, 0.000750423880217041, 1.0772410205864836E-07, 9.2594000000000009E-11
DataValue, 1.6, 0.1, 0, 5.88436E-07, -5.87444E-07, 1.0963300000000001E-10, 5.88436E-07, 0.00076709582191535888, 1.1902281229980883E-07, 1.0963300000000001E-10
DataValue, 1.6500000000000001, 0.1, 0, 6.1610499999999994E-07, -6.14255E-07, 1.3178700000000002E-10, 6.1610499999999994E-07, 0.00078492356315758543, 1.2544596877429229E-07, 1.3178700000000002E-10
DataValue, 1.7000000000000002, 0.1, 0, 6.44029E-07, -6.41539E-07, 1.55301E-10, 6.44029E-07, 0.00080251417432965, 1.2536455987591217E-07, 1.55301E-10
DataValue, 1.75, 0.1, 0, 6.7294199999999994E-07, -6.71137E-07, 1.8403800000000003E-10, 6.7294199999999994E-07, 0.00082033042123281033, 1.3048146961387932E-07, 1.8403800000000003E-10
DataValue, 1.8, 0.1, 0, 7.03311E-07, -7.01847E-07, 2.16272E-10, 7.03311E-07, 0.00083863639320029516, 1.2773657145042029E-07, 2.16272E-10
DataValue, 1.85, 0.1, 0, 7.32857E-07, -7.30638E-07, 2.5321500000000004E-10, 7.32857E-07, 0.00085607067465250791, 1.1813692401877251E-07, 2.5321500000000004E-10
DataValue, 1.9000000000000001, 0.1, 0, 7.62142E-07, -7.60364E-07, 2.9439500000000005E-10, 7.62142E-07, 0.00087300744555816932, 1.2109400417242737E-07, 2.9439500000000005E-10
DataValue, 1.9500000000000002, 0.1, 0, 7.93648E-07, -7.9212799999999993E-07, 3.4053300000000004E-10, 7.93648E-07, 0.00089086923844074889, 1.3142178966136142E-07, 3.4053300000000004E-10
DataValue, 2, 0.1, 0, 8.2675299999999994E-07, -8.2407199999999994E-07, 3.9378800000000003E-10, 8.2675299999999994E-07, 0.00090925958889637225, 1.2016013057633533E-07, 3.9378800000000003E-10
DataValue, 2.05, 0.1, 0, 8.56612E-07, -8.56482E-07, 4.5119900000000005E-10, 8.56612E-07, 0.00092553335974453134, 1.1838186422600653E-07, 4.5119900000000005E-10
DataValue, 2.1, 0.1, 0, 8.9050599999999994E-07, -8.88898E-07, 5.1797E-10, 8.9050599999999994E-07, 0.00094366625456249089, 1.2401178232280157E-07, 5.1797E-10
DataValue, 2.15, 0.1, 0, 9.23038E-07, -9.22606E-07, 5.885250000000001E-10, 9.23038E-07, 0.00096074866640552775, 1.2740431134762156E-07, 5.885250000000001E-10
