
SetupTitle, Transfer lin
PrimitiveTest, I/V Sweep
TestParameter, Context.MainFrame, 4155C
TestParameter, Channel.UnitType, SMU, SMU, SMU
TestParameter, Channel.Unit, SMU3:MP, SMU1:MP, SMU4:MP
TestParameter, Channel.IName, ID, IS, IG
TestParameter, Channel.VName, VD, VS, VG
TestParameter, Channel.Mode, V, COMMON, V
TestParameter, Channel.Func, CONST, CONST, VAR1
TestParameter, Channel.Index, 
TestParameter, Channel.Time, 
TestParameter, Measurement.Port.Unit, SMU3:MP, SMU1:MP, SMU4:MP
TestParameter, Measurement.Port.SeriesResistor, NONE, NONE, NONE
TestParameter, Measurement.Port.Filter, ON, ON, ON
TestParameter, Measurement.Primary.Locus, Double
TestParameter, Measurement.Primary.Scale, LINEAR
TestParameter, Measurement.Primary.Start, -2
TestParameter, Measurement.Primary.Stop, 3
TestParameter, Measurement.Primary.Step, 0.05
TestParameter, Measurement.Primary.Compliance, 0.001
TestParameter, Measurement.Primary.PowerCompliance, 0
TestParameter, Measurement.Aborting.Condition, CONTINUE AT ANY
TestParameter, Measurement.PostOutput.Value, START
TestParameter, Measurement.PostOutput.Retention, OFF
TestParameter, Measurement.Bias.Source, 0.1, 0, -2
TestParameter, Measurement.Bias.Compliance, 0.001, 0.1, 0.001
TestParameter, Measurement.Monitor.Unit, SMU3:MP, SMU1:MP, SMU4:MP
TestParameter, Measurement.Monitor.Adc, HR ADC, HR ADC, HR ADC
TestParameter, Measurement.Monitor.RangingMode, AUTO, AUTO, AUTO
TestParameter, Measurement.Monitor.RangeBoundary, , , 
TestParameter, Measurement.Monitor.RangeRating, BY FULL RANGE, BY FULL RANGE, BY FULL RANGE
TestParameter, Measurement.Monitor.RangeRatingCoeff, 50, 50, 50
TestParameter, Measurement.Timing.Hold, 0.5
TestParameter, Measurement.Timing.Delay, 0.05
TestParameter, Measurement.Adc.HighResolution.AutoZero, OFF
TestParameter, Measurement.Adc.HighResolution.Mode, AUTO
TestParameter, Measurement.Adc.HighResolution.Coeff, 1
TestParameter, Measurement.Ag16440ASelector.SemiconductorRelay.Channel1, DEFAULT
TestParameter, Measurement.Ag16440ASelector.SemiconductorRelay.Channel3, DEFAULT
TestParameter, Function.User.Name, absID, sqrtID, gm2, absIG
TestParameter, Function.User.Unit, A, A, A/V, A
TestParameter, Function.User.Definition, abs(ID), sqrt(abs(ID)), (delta(sqrtID)/delta(VG))^2, abs(IG)
TestParameter, Output.Graph.Enabled, true
TestParameter, Output.Graph.XAxis.Data, VG
TestParameter, Output.Graph.XAxis.Scale, Linear
TestParameter, Output.Graph.XAxis.Left, -5
TestParameter, Output.Graph.XAxis.Right, 7
TestParameter, Output.Graph.YAxis.Data, ID, absIG, gm2
TestParameter, Output.Graph.YAxis.Scale, Log, Log, Linear
TestParameter, Output.Graph.YAxis.Bottom, 1E-14, 1E-14, 0
TestParameter, Output.Graph.YAxis.Top, 0.01, 0.01, 1E-05
TestParameter, Output.Graph.YAxis.Group, , , 
TestParameter, Output.List.Data, VG, IG, VD, ID, VS, IS, sqrtID, gm2, absIG
TestParameter, AutoAnalysis.Interpolation, false
TestParameter, AutoAnalysis.Line1.Enabled, false
TestParameter, AutoAnalysis.Line1.Type, 1
TestParameter, AutoAnalysis.Line1.Fix, True
TestParameter, AutoAnalysis.Line1.YAxis, 0
TestParameter, AutoAnalysis.Line1.Point1.Type, 0
TestParameter, AutoAnalysis.Line1.Point1.XY.X, 
TestParameter, AutoAnalysis.Line1.Point1.XY.Y, 
TestParameter, AutoAnalysis.Line1.Point1.Data.Var, 
TestParameter, AutoAnalysis.Line1.Point1.Data.Condition, 
TestParameter, AutoAnalysis.Line1.Point1.Data.Start, false
TestParameter, AutoAnalysis.Line1.Point1.Data.StartVar, 
TestParameter, AutoAnalysis.Line1.Point1.Data.StartCondition, 
TestParameter, AutoAnalysis.Line1.Point2.Type, 0
TestParameter, AutoAnalysis.Line1.Point2.XY.X, 
TestParameter, AutoAnalysis.Line1.Point2.XY.Y, 
TestParameter, AutoAnalysis.Line1.Point2.Data.Var, 
TestParameter, AutoAnalysis.Line1.Point2.Data.Condition, 
TestParameter, AutoAnalysis.Line1.Point2.Data.Start, false
TestParameter, AutoAnalysis.Line1.Point2.Data.StartVar, 
TestParameter, AutoAnalysis.Line1.Point2.Data.StartCondition, 
TestParameter, AutoAnalysis.Line1.GradientExpr, 0
TestParameter, AutoAnalysis.Line2.Enabled, false
TestParameter, AutoAnalysis.Line2.Type, 1
TestParameter, AutoAnalysis.Line2.Fix, True
TestParameter, AutoAnalysis.Line2.YAxis, 0
TestParameter, AutoAnalysis.Line2.Point1.Type, 0
TestParameter, AutoAnalysis.Line2.Point1.XY.X, 
TestParameter, AutoAnalysis.Line2.Point1.XY.Y, 
TestParameter, AutoAnalysis.Line2.Point1.Data.Var, 
TestParameter, AutoAnalysis.Line2.Point1.Data.Condition, 
TestParameter, AutoAnalysis.Line2.Point1.Data.Start, false
TestParameter, AutoAnalysis.Line2.Point1.Data.StartVar, 
TestParameter, AutoAnalysis.Line2.Point1.Data.StartCondition, 
TestParameter, AutoAnalysis.Line2.Point2.Type, 0
TestParameter, AutoAnalysis.Line2.Point2.XY.X, 
TestParameter, AutoAnalysis.Line2.Point2.XY.Y, 
TestParameter, AutoAnalysis.Line2.Point2.Data.Var, 
TestParameter, AutoAnalysis.Line2.Point2.Data.Condition, 
TestParameter, AutoAnalysis.Line2.Point2.Data.Start, false
TestParameter, AutoAnalysis.Line2.Point2.Data.StartVar, 
TestParameter, AutoAnalysis.Line2.Point2.Data.StartCondition, 
TestParameter, AutoAnalysis.Line2.GradientExpr, 0
TestParameter, AutoAnalysis.Marker.Enabled, false
TestParameter, AutoAnalysis.Marker.Data.Var, 
TestParameter, AutoAnalysis.Marker.Data.Condition, 
TestParameter, AutoAnalysis.Marker.Data.Start, false
TestParameter, AutoAnalysis.Marker.Data.StartVar, 
TestParameter, AutoAnalysis.Marker.Data.StartCondition, 
MetaData, TestRecord.EntryPoint, true
MetaData, TestRecord.RecordTime, 05/02/2019 11:22:28
MetaData, TestRecord.TestTarget, 250-300-1-2
MetaData, TestRecord.IterationIndex, 1
MetaData, TestRecord.Preservation, true
MetaData, TestRecord.Flag, 
MetaData, TestRecord.Remarks, good
MetaData, TestRecord.LinkKey, 7ce15605-49a0-44db-8e3c-9e1a83e1746e
Dimension1, 202, 202, 202, 202, 202, 202, 202, 202, 202, 202
Dimension2, 1, 1, 1, 1, 1, 1, 1, 1, 1, 1
DataName, VG, VD, VS, ID, IS, IG, absID, sqrtID, gm2, absIG
DataValue, -2, 0.1, 0, 1.0321E-11, 9.325E-12, -2.6231000000000002E-11, 1.0321E-11, 3.2126313202731496E-06, 6.7366865980514808E-13, 2.6231000000000002E-11
DataValue, -1.9500000000000002, 0.1, 0, 1.0059000000000002E-11, 7.537E-12, -2.3148E-11, 1.0059000000000002E-11, 3.1715926598477305E-06, 3.4688071414231088E-12, 2.3148E-11
DataValue, -1.9000000000000001, 0.1, 0, 9.159E-12, 7.319E-12, -2.1660000000000003E-11, 9.159E-12, 3.0263839809250907E-06, 1.627720433068112E-12, 2.1660000000000003E-11
DataValue, -1.85, 0.1, 0, 9.266E-12, 8.1380000000000011E-12, -2.0675000000000002E-11, 9.266E-12, 3.0440105124654217E-06, 2.2591558212312555E-11, 2.0675000000000002E-11
DataValue, -1.8, 0.1, 0, 6.508E-12, 8.0800000000000011E-12, -2.1328E-11, 6.508E-12, 2.5510782034269354E-06, 2.3861022504783906E-13, 2.1328E-11
DataValue, -1.75, 0.1, 0, 8.9710000000000013E-12, 7.057E-12, -2.0367000000000003E-11, 8.9710000000000013E-12, 2.9951627668625959E-06, 1.0305964253982656E-11, 2.0367000000000003E-11
DataValue, -1.7000000000000002, 0.1, 0, 8.249E-12, 6.581E-12, -2.0225000000000003E-11, 8.249E-12, 2.8721072403376583E-06, 3.2064716988741109E-13, 2.0225000000000003E-11
DataValue, -1.6500000000000001, 0.1, 0, 8.6350000000000011E-12, 6.5150000000000004E-12, -1.9235000000000002E-11, 8.6350000000000011E-12, 2.9385370509830231E-06, 1.4092549725420683E-12, 1.9235000000000002E-11
DataValue, -1.6, 0.1, 0, 8.9450000000000012E-12, 6.5460000000000006E-12, -1.8449000000000003E-11, 8.9450000000000012E-12, 2.9908192857476364E-06, 2.4646085681022414E-12, 1.8449000000000003E-11
DataValue, -1.55, 0.1, 0, 7.737E-12, 6.5590000000000006E-12, -1.7697E-11, 7.737E-12, 2.7815463325280059E-06, 4.4399283205865394E-12, 1.7697E-11
DataValue, -1.5, 0.1, 0, 7.729E-12, 6.3830000000000006E-12, -1.8147E-11, 7.729E-12, 2.7801079115746567E-06, 1.9708741330635059E-13, 1.8147E-11
DataValue, -1.4500000000000002, 0.1, 0, 7.492E-12, 6.1640000000000008E-12, -1.6754000000000002E-11, 7.492E-12, 2.7371518043396864E-06, 3.0087864009770275E-13, 1.6754000000000002E-11
DataValue, -1.4000000000000001, 0.1, 0, 8.037E-12, 5.703E-12, -1.6398000000000002E-11, 8.037E-12, 2.834960317182588E-06, 4.9282993684560376E-12, 1.6398000000000002E-11
DataValue, -1.35, 0.1, 0, 6.326E-12, 5.138E-12, -1.5965E-11, 6.326E-12, 2.5151540708274713E-06, 3.0980631479674274E-12, 1.5965E-11
DataValue, -1.3, 0.1, 0, 7.07E-12, 5.369E-12, -1.5014E-11, 7.07E-12, 2.6589471600616662E-06, 8.2099498046582194E-13, 1.5014E-11
DataValue, -1.25, 0.1, 0, 6.7900000000000008E-12, 5.145E-12, -1.5760000000000002E-11, 6.7900000000000008E-12, 2.6057628441590766E-06, 2.107081587020228E-13, 1.5760000000000002E-11
DataValue, -1.2, 0.1, 0, 6.828E-12, 8.579E-12, -1.4704E-11, 6.828E-12, 2.6130442016927306E-06, 3.5040411137390931E-13, 1.4704E-11
DataValue, -1.1500000000000001, 0.1, 0, 7.102E-12, 4.5180000000000007E-12, -1.6585E-11, 7.102E-12, 2.6649577857819812E-06, 4.8389171668735326E-12, 1.6585E-11
DataValue, -1.1, 0.1, 0, 8.026E-12, 1.172E-12, -1.4133E-11, 8.026E-12, 2.8330195904723284E-06, 8.4220209780088431E-12, 1.4133E-11
DataValue, -1.05, 0.1, 0, 8.733E-12, -3.8400000000000003E-13, -1.219E-11, 8.733E-12, 2.9551649700143647E-06, 2.0563313287663093E-11, 1.219E-11
DataValue, -1, 0.1, 0, 1.0801000000000001E-11, -3.059E-12, -1.1425E-11, 1.0801000000000001E-11, 3.2864874866641441E-06, 8.5379484978598653E-11, 1.1425E-11
DataValue, -0.95000000000000007, 0.1, 0, 1.5048E-11, -5.464E-12, -1.1796E-11, 1.5048E-11, 3.8791751700587074E-06, 1.3252432215563912E-10, 1.1796E-11
DataValue, -0.9, 0.1, 0, 1.9693000000000002E-11, -1.1564E-11, -6.702E-12, 1.9693000000000002E-11, 4.4376795738313512E-06, 2.4337071149290484E-10, 6.702E-12
DataValue, -0.85000000000000009, 0.1, 0, 2.9585E-11, -2.0437000000000003E-11, -8.957E-12, 2.9585E-11, 5.439209501388966E-06, 4.8453736159020136E-10, 8.957E-12
DataValue, -0.8, 0.1, 0, 4.4075E-11, -3.6122000000000005E-11, -1.1923E-11, 4.4075E-11, 6.6389005113798773E-06, 8.8234414771703161E-10, 1.1923E-11
DataValue, -0.75, 0.1, 0, 7.0722000000000007E-11, -6.0752E-11, -8.3770000000000012E-12, 7.0722000000000007E-11, 8.4096373286842754E-06, 1.3612818509078171E-09, 8.3770000000000012E-12
DataValue, -0.70000000000000007, 0.1, 0, 1.0667700000000001E-10, -9.0708000000000011E-11, -8.136E-12, 1.0667700000000001E-10, 1.0328455838120238E-05, 1.5127015179348922E-09, 8.136E-12
DataValue, -0.65, 0.1, 0, 1.5126500000000002E-10, -1.42265E-10, -7.970000000000001E-12, 1.5126500000000002E-10, 1.2298983697850812E-05, 2.7239510845265285E-09, 7.970000000000001E-12
DataValue, -0.6, 0.1, 0, 2.4172800000000004E-10, -2.23287E-10, -8.167000000000001E-12, 2.4172800000000004E-10, 1.5547604317064416E-05, 4.2993511368965322E-09, 8.167000000000001E-12
DataValue, -0.55, 0.1, 0, 3.5554600000000005E-10, -3.27688E-10, -6.1670000000000007E-12, 3.5554600000000005E-10, 1.8855927450008924E-05, 4.0680884001734735E-09, 6.1670000000000007E-12
DataValue, -0.5, 0.1, 0, 4.80739E-10, -4.5649100000000005E-10, -7.669E-12, 4.80739E-10, 2.1925761104235355E-05, 3.8745928793004388E-09, 7.669E-12
DataValue, -0.45, 0.1, 0, 6.2903400000000008E-10, -6.09573E-10, -6.894E-12, 6.2903400000000008E-10, 2.5080550233198635E-05, 5.6911726204922233E-09, 6.894E-12
DataValue, -0.4, 0.1, 0, 8.6846600000000007E-10, -8.3728700000000009E-10, -6.3300000000000007E-12, 8.6846600000000007E-10, 2.9469747199458636E-05, 6.0004669033252056E-09, 6.3300000000000007E-12
DataValue, -0.35000000000000003, 0.1, 0, 1.0776E-09, -1.08168E-09, -2.1790000000000003E-12, 1.0776E-09, 3.2826818304550931E-05, 8.3004640513883066E-09, 2.1790000000000003E-12
DataValue, -0.3, 0.1, 0, 1.48845E-09, -1.48003E-09, -7.5180000000000009E-12, 1.48845E-09, 3.8580435456329415E-05, 1.3548752414984737E-08, 7.5180000000000009E-12
DataValue, -0.25, 0.1, 0, 1.97729E-09, -1.94825E-09, -1.8020000000000002E-12, 1.97729E-09, 4.44667291353884E-05, 1.4356124344489272E-08, 1.8020000000000002E-12
DataValue, -0.2, 0.1, 0, 2.55653E-09, -2.5456E-09, -2.4550000000000003E-12, 2.55653E-09, 5.056213998635738E-05, 1.4090805666809468E-08, 2.4550000000000003E-12
DataValue, -0.15, 0.1, 0, 3.17388E-09, -3.0748E-09, -2.669E-12, 3.17388E-09, 5.6337199078406442E-05, 1.3088183608853729E-08, 2.669E-12
DataValue, -0.1, 0.1, 0, 3.84431E-09, -3.80357E-09, -2.0500000000000004E-12, 3.84431E-09, 6.20024999495988E-05, 1.5754691907580082E-08, 2.0500000000000004E-12
DataValue, -0.05, 0.1, 0, 4.74569E-09, -4.58459E-09, -1.5200000000000002E-12, 4.74569E-09, 6.8888968637946676E-05, 1.4156499727331095E-08, 1.5200000000000002E-12
DataValue, 0, 0.1, 0, 5.4613E-09, -5.28672E-09, -1.1500000000000002E-12, 5.4613E-09, 7.3900608928479059E-05, 8.97669703507893E-09, 1.1500000000000002E-12
DataValue, 0.05, 0.1, 0, 6.14084E-09, -6.12189E-09, -5.58E-13, 6.14084E-09, 7.83635119172182E-05, 1.3050524701423159E-08, 5.58E-13
DataValue, 0.1, 0.1, 0, 7.28027E-09, -7.14255E-09, -5.35E-13, 7.28027E-09, 8.53244982405405E-05, 1.6517536731482711E-08, 5.35E-13
DataValue, 0.15, 0.1, 0, 8.32028E-09, -8.15946E-09, -5.44E-13, 8.32028E-09, 9.1215568846551623E-05, 1.2922798913678268E-08, 5.44E-13
DataValue, 0.2, 0.1, 0, 9.34941E-09, -9.21437E-09, 1.015E-12, 9.34941E-09, 9.6692347163568226E-05, 1.5524155580282596E-08, 1.015E-12
DataValue, 0.25, 0.1, 0, 1.074854E-08, -1.054006E-08, 1.6910000000000002E-12, 1.074854E-08, 0.00010367516578236082, 9.7210097983548251E-09, 1.6910000000000002E-12
DataValue, 0.3, 0.1, 0, 1.1353299999999999E-08, -1.1092099999999998E-08, 1.565E-12, 1.1353299999999999E-08, 0.00010655186530511795, 6.4801587171731646E-09, 1.565E-12
DataValue, 0.35000000000000003, 0.1, 0, 1.24825E-08, -1.2065E-08, 2.824E-12, 1.24825E-08, 0.00011172510908475319, 9.874774459460176E-09, 2.824E-12
DataValue, 0.4, 0.1, 0, 1.3569699999999999E-08, -1.3613699999999999E-08, 4.3290000000000006E-12, 1.3569699999999999E-08, 0.00011648905527988455, 1.1121603591049465E-08, 4.3290000000000006E-12
DataValue, 0.45, 0.1, 0, 1.49502E-08, -1.4895999999999998E-08, 5.4470000000000005E-12, 1.49502E-08, 0.00012227101046445964, 7.9549959998083186E-09, 5.4470000000000005E-12
DataValue, 0.5, 0.1, 0, 1.57272E-08, -1.6055999999999998E-08, 3.292E-12, 1.57272E-08, 0.00012540813370750717, 7.8037954433941225E-09, 3.292E-12
DataValue, 0.55, 0.1, 0, 1.71885E-08, -1.7154899999999998E-08, 4.8210000000000006E-12, 1.71885E-08, 0.00013110491981615334, 1.6293461220565017E-08, 4.8210000000000006E-12
DataValue, 0.6, 0.1, 0, 1.9091699999999997E-08, -1.8797199999999997E-08, 6.8030000000000008E-12, 1.9091699999999997E-08, 0.0001381727180017821, 1.5631328750768898E-08, 6.8030000000000008E-12
DataValue, 0.65, 0.1, 0, 2.0623099999999998E-08, -2.03908E-08, 7.22E-12, 2.0623099999999998E-08, 0.00014360745106017304, 1.8640003444059648E-08, 7.22E-12
DataValue, 0.70000000000000007, 0.1, 0, 2.3051E-08, -2.2727099999999998E-08, 7.6670000000000012E-12, 2.3051E-08, 0.00015182555779578088, 1.8630462699148096E-08, 7.6670000000000012E-12
DataValue, 0.75, 0.1, 0, 2.4729699999999997E-08, -2.3939499999999997E-08, 6.965E-12, 2.4729699999999997E-08, 0.00015725679635551526, 8.3391414919249949E-09, 6.965E-12
DataValue, 0.8, 0.1, 0, 2.5907299999999998E-08, -2.55329E-08, 8.127E-12, 2.5907299999999998E-08, 0.00016095744779288717, 6.2636572317035745E-09, 8.127E-12
DataValue, 0.85000000000000009, 0.1, 0, 2.72815E-08, -2.7331699999999997E-08, 1.0151E-11, 2.72815E-08, 0.00016517112338420418, 1.5107402580426353E-08, 1.0151E-11
DataValue, 0.9, 0.1, 0, 3.00151E-08, -2.9679599999999997E-08, 9.701E-12, 3.00151E-08, 0.00017324866521852339, 1.0805225462680391E-08, 9.701E-12
DataValue, 0.95000000000000007, 0.1, 0, 3.08234E-08, -3.09136E-08, 1.0135E-11, 3.08234E-08, 0.00017556594202749006, 7.4460347663461986E-09, 1.0135E-11
DataValue, 1, 0.1, 0, 3.3079499999999995E-08, -3.30465E-08, 1.1138E-11, 3.3079499999999995E-08, 0.00018187770616543412, 1.3969402775841752E-08, 1.1138E-11
DataValue, 1.05, 0.1, 0, 3.5113199999999996E-08, -3.4818599999999994E-08, 1.1278000000000001E-11, 3.5113199999999996E-08, 0.00018738516483435928, 9.7922849946258844E-09, 1.1278000000000001E-11
DataValue, 1.1, 0.1, 0, 3.6777E-08, -3.6905199999999996E-08, 1.3494E-11, 3.6777E-08, 0.00019177330366868065, 7.0601589906171036E-09, 1.3494E-11
DataValue, 1.1500000000000001, 0.1, 0, 3.83328E-08, -3.7968999999999994E-08, 1.4392000000000001E-11, 3.83328E-08, 0.0001957876400593255, 1.0289081309895729E-08, 1.4392000000000001E-11
DataValue, 1.2, 0.1, 0, 4.0770399999999996E-08, -4.09453E-08, 1.5363000000000002E-11, 4.0770399999999996E-08, 0.00020191681455490525, 1.6768994479870754E-08, 1.5363000000000002E-11
DataValue, 1.25, 0.1, 0, 4.35712E-08, -4.2874E-08, 1.6378E-11, 4.35712E-08, 0.00020873715529344555, 2.163313556220132E-08, 1.6378E-11
DataValue, 1.3, 0.1, 0, 4.6926399999999995E-08, -4.6175599999999994E-08, 1.7034E-11, 4.6926399999999995E-08, 0.00021662502163877559, 1.8721676966074445E-08, 1.7034E-11
DataValue, 1.35, 0.1, 0, 4.94706E-08, -4.9293899999999992E-08, 1.9385000000000003E-11, 4.94706E-08, 0.00022241987321280443, 1.3170481098398823E-08, 1.9385000000000003E-11
DataValue, 1.4000000000000001, 0.1, 0, 5.2030199999999994E-08, -5.16083E-08, 2.1338000000000003E-11, 5.2030199999999994E-08, 0.00022810129328874922, 1.3051476016993236E-08, 2.1338000000000003E-11
DataValue, 1.4500000000000002, 0.1, 0, 5.4683099999999993E-08, -5.3862299999999993E-08, 2.2717E-11, 5.4683099999999993E-08, 0.00023384417888842134, 6.9881001169703083E-09, 2.2717E-11
DataValue, 1.5, 0.1, 0, 5.59137E-08, -5.6287999999999994E-08, 2.5769000000000003E-11, 5.59137E-08, 0.0002364607789888209, 1.3129702279886607E-08, 2.5769000000000003E-11
DataValue, 1.55, 0.1, 0, 6.01734E-08, -5.9501199999999995E-08, 2.5667E-11, 6.01734E-08, 0.0002453026701852224, 2.142071091127097E-08, 2.5667E-11
DataValue, 1.6, 0.1, 0, 6.30495E-08, -6.32245E-08, 2.8751000000000003E-11, 6.30495E-08, 0.00025109659495899182, 1.8255673311730164E-08, 2.8751000000000003E-11
DataValue, 1.6500000000000001, 0.1, 0, 6.69847E-08, -6.64036E-08, 3.2115000000000004E-11, 6.69847E-08, 0.000258814025895043, 1.8891618045759458E-08, 3.2115000000000004E-11
DataValue, 1.7000000000000002, 0.1, 0, 7.0140899999999987E-08, -7.0307599999999988E-08, 3.5482E-11, 7.0140899999999987E-08, 0.00026484127321850721, 1.9758396096530354E-08, 3.5482E-11
DataValue, 1.75, 0.1, 0, 7.44583E-08, -7.4092599999999992E-08, 3.8834000000000005E-11, 7.44583E-08, 0.00027287048209727631, 1.6480597875206829E-08, 3.8834000000000005E-11
DataValue, 1.8, 0.1, 0, 7.71056E-08, -7.70258E-08, 4.1151000000000003E-11, 7.71056E-08, 0.00027767895130888118, 1.2461968458065145E-08, 4.1151000000000003E-11
DataValue, 1.85, 0.1, 0, 8.06752E-08, -7.98256E-08, 4.56E-11, 8.06752E-08, 0.00028403380080546751, 1.5312805331019894E-08, 4.56E-11
DataValue, 1.9000000000000001, 0.1, 0, 8.4130999999999988E-08, -8.3449199999999993E-08, 5.1327000000000005E-11, 8.4130999999999988E-08, 0.00029005344335139344, 2.3274630743221456E-08, 5.1327000000000005E-11
DataValue, 1.9500000000000002, 0.1, 0, 8.9574399999999987E-08, -8.88212E-08, 5.4957000000000003E-11, 8.9574399999999987E-08, 0.00029928982608835869, 1.7926018384363491E-08, 5.4957000000000003E-11
DataValue, 2, 0.1, 0, 9.20772E-08, -9.10098E-08, 5.9125E-11, 9.20772E-08, 0.00030344225150759742, 7.0038711943742922E-09, 5.9125E-11
DataValue, 2.05, 0.1, 0, 9.465389999999999E-08, -9.4906399999999985E-08, 7.2579E-11, 9.465389999999999E-08, 0.00030765873951506723, 1.6966209673636245E-08, 7.2579E-11
DataValue, 2.1, 0.1, 0, 1.0015179999999999E-07, -9.9791399999999992E-08, 6.8178E-11, 1.0015179999999999E-07, 0.00031646769187390991, 2.4506090835720465E-08, 6.8178E-11
DataValue, 2.15, 0.1, 0, 1.0453139999999999E-07, -1.047813E-07, 7.7211E-11, 1.0453139999999999E-07, 0.00032331316088275773, 2.1592844886963093E-08, 7.7211E-11
DataValue, 2.2, 0.1, 0, 1.096684E-07, -1.0926369999999999E-07, 8.3315000000000012E-11, 1.096684E-07, 0.00033116219591010083, 2.2714215217561934E-08, 8.3315000000000012E-11
