
SetupTitle, Transfer lin
PrimitiveTest, I/V Sweep
TestParameter, Context.MainFrame, 4155C
TestParameter, Channel.UnitType, SMU, SMU, SMU
TestParameter, Channel.Unit, SMU3:MP, SMU1:MP, SMU4:MP
TestParameter, Channel.IName, ID, IS, IG
TestParameter, Channel.VName, VD, VS, VG
TestParameter, Channel.Mode, V, COMMON, V
TestParameter, Channel.Func, CONST, CONST, VAR1
TestParameter, Channel.Index, 
TestParameter, Channel.Time, 
TestParameter, Measurement.Port.Unit, SMU3:MP, SMU1:MP, SMU4:MP
TestParameter, Measurement.Port.SeriesResistor, NONE, NONE, NONE
TestParameter, Measurement.Port.Filter, ON, ON, ON
TestParameter, Measurement.Primary.Locus, Double
TestParameter, Measurement.Primary.Scale, LINEAR
TestParameter, Measurement.Primary.Start, -2
TestParameter, Measurement.Primary.Stop, 3
TestParameter, Measurement.Primary.Step, 0.05
TestParameter, Measurement.Primary.Compliance, 0.001
TestParameter, Measurement.Primary.PowerCompliance, 0
TestParameter, Measurement.Aborting.Condition, CONTINUE AT ANY
TestParameter, Measurement.PostOutput.Value, START
TestParameter, Measurement.PostOutput.Retention, OFF
TestParameter, Measurement.Bias.Source, 0.1, 0, -2
TestParameter, Measurement.Bias.Compliance, 0.001, 0.1, 0.001
TestParameter, Measurement.Monitor.Unit, SMU3:MP, SMU1:MP, SMU4:MP
TestParameter, Measurement.Monitor.Adc, HR ADC, HR ADC, HR ADC
TestParameter, Measurement.Monitor.RangingMode, AUTO, AUTO, AUTO
TestParameter, Measurement.Monitor.RangeBoundary, , , 
TestParameter, Measurement.Monitor.RangeRating, BY FULL RANGE, BY FULL RANGE, BY FULL RANGE
TestParameter, Measurement.Monitor.RangeRatingCoeff, 50, 50, 50
TestParameter, Measurement.Timing.Hold, 0.5
TestParameter, Measurement.Timing.Delay, 0.05
TestParameter, Measurement.Adc.HighResolution.AutoZero, OFF
TestParameter, Measurement.Adc.HighResolution.Mode, AUTO
TestParameter, Measurement.Adc.HighResolution.Coeff, 1
TestParameter, Measurement.Ag16440ASelector.SemiconductorRelay.Channel1, DEFAULT
TestParameter, Measurement.Ag16440ASelector.SemiconductorRelay.Channel3, DEFAULT
TestParameter, Function.User.Name, absID, sqrtID, gm2, absIG
TestParameter, Function.User.Unit, A, A, A/V, A
TestParameter, Function.User.Definition, abs(ID), sqrt(abs(ID)), (delta(sqrtID)/delta(VG))^2, abs(IG)
TestParameter, Output.Graph.Enabled, true
TestParameter, Output.Graph.XAxis.Data, VG
TestParameter, Output.Graph.XAxis.Scale, Linear
TestParameter, Output.Graph.XAxis.Left, -5
TestParameter, Output.Graph.XAxis.Right, 7
TestParameter, Output.Graph.YAxis.Data, ID, absIG, gm2
TestParameter, Output.Graph.YAxis.Scale, Log, Log, Linear
TestParameter, Output.Graph.YAxis.Bottom, 1E-14, 1E-14, 0
TestParameter, Output.Graph.YAxis.Top, 0.01, 0.01, 1E-05
TestParameter, Output.Graph.YAxis.Group, , , 
TestParameter, Output.List.Data, VG, IG, VD, ID, VS, IS, sqrtID, gm2, absIG
TestParameter, AutoAnalysis.Interpolation, false
TestParameter, AutoAnalysis.Line1.Enabled, false
TestParameter, AutoAnalysis.Line1.Type, 1
TestParameter, AutoAnalysis.Line1.Fix, True
TestParameter, AutoAnalysis.Line1.YAxis, 0
TestParameter, AutoAnalysis.Line1.Point1.Type, 0
TestParameter, AutoAnalysis.Line1.Point1.XY.X, 
TestParameter, AutoAnalysis.Line1.Point1.XY.Y, 
TestParameter, AutoAnalysis.Line1.Point1.Data.Var, 
TestParameter, AutoAnalysis.Line1.Point1.Data.Condition, 
TestParameter, AutoAnalysis.Line1.Point1.Data.Start, false
TestParameter, AutoAnalysis.Line1.Point1.Data.StartVar, 
TestParameter, AutoAnalysis.Line1.Point1.Data.StartCondition, 
TestParameter, AutoAnalysis.Line1.Point2.Type, 0
TestParameter, AutoAnalysis.Line1.Point2.XY.X, 
TestParameter, AutoAnalysis.Line1.Point2.XY.Y, 
TestParameter, AutoAnalysis.Line1.Point2.Data.Var, 
TestParameter, AutoAnalysis.Line1.Point2.Data.Condition, 
TestParameter, AutoAnalysis.Line1.Point2.Data.Start, false
TestParameter, AutoAnalysis.Line1.Point2.Data.StartVar, 
TestParameter, AutoAnalysis.Line1.Point2.Data.StartCondition, 
TestParameter, AutoAnalysis.Line1.GradientExpr, 0
TestParameter, AutoAnalysis.Line2.Enabled, false
TestParameter, AutoAnalysis.Line2.Type, 1
TestParameter, AutoAnalysis.Line2.Fix, True
TestParameter, AutoAnalysis.Line2.YAxis, 0
TestParameter, AutoAnalysis.Line2.Point1.Type, 0
TestParameter, AutoAnalysis.Line2.Point1.XY.X, 
TestParameter, AutoAnalysis.Line2.Point1.XY.Y, 
TestParameter, AutoAnalysis.Line2.Point1.Data.Var, 
TestParameter, AutoAnalysis.Line2.Point1.Data.Condition, 
TestParameter, AutoAnalysis.Line2.Point1.Data.Start, false
TestParameter, AutoAnalysis.Line2.Point1.Data.StartVar, 
TestParameter, AutoAnalysis.Line2.Point1.Data.StartCondition, 
TestParameter, AutoAnalysis.Line2.Point2.Type, 0
TestParameter, AutoAnalysis.Line2.Point2.XY.X, 
TestParameter, AutoAnalysis.Line2.Point2.XY.Y, 
TestParameter, AutoAnalysis.Line2.Point2.Data.Var, 
TestParameter, AutoAnalysis.Line2.Point2.Data.Condition, 
TestParameter, AutoAnalysis.Line2.Point2.Data.Start, false
TestParameter, AutoAnalysis.Line2.Point2.Data.StartVar, 
TestParameter, AutoAnalysis.Line2.Point2.Data.StartCondition, 
TestParameter, AutoAnalysis.Line2.GradientExpr, 0
TestParameter, AutoAnalysis.Marker.Enabled, false
TestParameter, AutoAnalysis.Marker.Data.Var, 
TestParameter, AutoAnalysis.Marker.Data.Condition, 
TestParameter, AutoAnalysis.Marker.Data.Start, false
TestParameter, AutoAnalysis.Marker.Data.StartVar, 
TestParameter, AutoAnalysis.Marker.Data.StartCondition, 
MetaData, TestRecord.EntryPoint, true
MetaData, TestRecord.RecordTime, 05/02/2019 17:25:26
MetaData, TestRecord.TestTarget, br-br-100-5
MetaData, TestRecord.IterationIndex, 1
MetaData, TestRecord.Preservation, true
MetaData, TestRecord.Flag, 
MetaData, TestRecord.Remarks, bad
MetaData, TestRecord.LinkKey, 800bb428-c709-4aea-86fe-d420bac91d3b
Dimension1, 202, 202, 202, 202, 202, 202, 202, 202, 202, 202
Dimension2, 1, 1, 1, 1, 1, 1, 1, 1, 1, 1
DataName, VG, VD, VS, ID, IS, IG, absID, sqrtID, gm2, absIG
DataValue, -2, 0.1, 0, 2.7502000000000003E-11, 9.792E-12, -3.481E-11, 2.7502000000000003E-11, 5.2442349299015968E-06, 9.8228278457623542E-11, 3.481E-11
DataValue, -1.9500000000000002, 0.1, 0, 2.2550000000000002E-11, 4.6390000000000007E-12, -2.8155000000000002E-11, 2.2550000000000002E-11, 4.7486840282335067E-06, 5.324662332091571E-11, 2.8155000000000002E-11
DataValue, -1.9000000000000001, 0.1, 0, 2.0381E-11, 3.4940000000000003E-12, -2.2052000000000002E-11, 2.0381E-11, 4.5145320909259246E-06, 3.4564389268666365E-11, 2.2052000000000002E-11
DataValue, -1.85, 0.1, 0, 1.7312E-11, 4.662E-12, -2.2245000000000003E-11, 1.7312E-11, 4.16076915966267E-06, 2.1918849097480287E-11, 2.2245000000000003E-11
DataValue, -1.8, 0.1, 0, 1.6373E-11, 3.918E-12, -3.0930000000000003E-11, 1.6373E-11, 4.04635638568824E-06, 1.1385215020523554E-11, 3.0930000000000003E-11
DataValue, -1.75, 0.1, 0, 1.4618000000000003E-11, 5.5360000000000006E-12, -2.3831000000000002E-11, 1.4618000000000003E-11, 3.8233493170255842E-06, 2.6939676587653557E-11, 2.3831000000000002E-11
DataValue, -1.7000000000000002, 0.1, 0, 1.2442E-11, 5.2550000000000005E-12, -1.9508E-11, 1.2442E-11, 3.5273219303034989E-06, 1.7477359059989349E-11, 1.9508E-11
DataValue, -1.6500000000000001, 0.1, 0, 1.1596E-11, 5.5810000000000006E-12, -1.9629000000000002E-11, 1.1596E-11, 3.4052900023346028E-06, 2.3248003608515189E-11, 1.9629000000000002E-11
DataValue, -1.6, 0.1, 0, 9.273E-12, 5.338E-12, -1.4499000000000001E-11, 9.273E-12, 3.0451600943135978E-06, 1.6063532726483694E-11, 1.4499000000000001E-11
DataValue, -1.55, 0.1, 0, 9.027E-12, 6.8790000000000009E-12, -1.5265000000000002E-11, 9.027E-12, 3.0044966300530277E-06, 7.0126413883290033E-13, 1.5265000000000002E-11
DataValue, -1.5, 0.1, 0, 8.77E-12, 5.711E-12, -1.4738E-11, 8.77E-12, 2.9614185789921695E-06, 4.5098820174199105E-12, 1.4738E-11
DataValue, -1.4500000000000002, 0.1, 0, 7.7960000000000011E-12, 4.3450000000000006E-12, -1.2911000000000001E-11, 7.7960000000000011E-12, 2.7921318020466015E-06, 8.4252611850630932E-11, 1.2911000000000001E-11
DataValue, -1.4000000000000001, 0.1, 0, 4.176E-12, 3.192E-12, -1.0841E-11, 4.176E-12, 2.0435263639111682E-06, 2.076456321597517E-11, 1.0841E-11
DataValue, -1.35, 0.1, 0, 5.459E-12, 3.674E-12, -8.314E-12, 5.459E-12, 2.3364502990648016E-06, 1.2323669439175606E-11, 8.314E-12
DataValue, -1.3, 0.1, 0, 5.7340000000000004E-12, 2.7710000000000002E-12, -8.314E-12, 5.7340000000000004E-12, 2.3945772069407161E-06, 3.9725919146997431E-11, 8.314E-12
DataValue, -1.25, 0.1, 0, 2.9110000000000004E-12, 1.8780000000000003E-12, -4.888E-12, 2.9110000000000004E-12, 1.7061652909375458E-06, 3.3248060359364914E-11, 4.888E-12
DataValue, -1.2, 0.1, 0, 3.305E-12, 1.829E-12, -6.7140000000000007E-12, 3.305E-12, 1.8179658962697844E-06, 3.28192571947176E-12, 6.7140000000000007E-12
DataValue, -1.1500000000000001, 0.1, 0, 3.5620000000000004E-12, 5.6E-14, -4.318E-12, 3.5620000000000004E-12, 1.8873261509341729E-06, 7.6652786057248373E-12, 4.318E-12
DataValue, -1.1, 0.1, 0, 2.3750000000000003E-12, 2.966E-12, -3.0150000000000004E-12, 2.3750000000000003E-12, 1.5411035007422441E-06, 9.18260894853567E-12, 3.0150000000000004E-12
DataValue, -1.05, 0.1, 0, 2.51E-12, 8.1300000000000007E-13, -5.216E-12, 2.51E-12, 1.5842979517754859E-06, 5.0476124531119774E-12, 5.216E-12
DataValue, -1, 0.1, 0, 1.7330000000000002E-12, 1.312E-12, -7.361E-12, 1.7330000000000002E-12, 1.3164345787011219E-06, 2.31254894939749E-11, 7.361E-12
DataValue, -0.95000000000000007, 0.1, 0, 4.265E-12, 8.2E-14, -9.585E-12, 4.265E-12, 2.0651876428063385E-06, 9.3167180853251536E-11, 9.585E-12
DataValue, -0.9, 0.1, 0, 5.206E-12, -3.5650000000000003E-12, -3.8090000000000004E-12, 5.206E-12, 2.2816660579497604E-06, 3.8227048327143646E-11, 3.8090000000000004E-12
DataValue, -0.85000000000000009, 0.1, 0, 7.2010000000000005E-12, -8.3150000000000008E-12, -1.6580000000000002E-12, 7.2010000000000005E-12, 2.683467905528218E-06, 2.6190047479918696E-10, 1.6580000000000002E-12
DataValue, -0.8, 0.1, 0, 1.5210000000000002E-11, -1.4484000000000002E-11, 8.646E-12, 1.5210000000000002E-11, 3.9E-06, 1.1320463404416854E-09, 8.646E-12
DataValue, -0.75, 0.1, 0, 3.6579E-11, -3.2232000000000006E-11, -3.7270000000000006E-12, 3.6579E-11, 6.0480575394088306E-06, 2.1143225055446485E-09, 3.7270000000000006E-12
DataValue, -0.70000000000000007, 0.1, 0, 7.2219E-11, -6.7045E-11, -2.381E-12, 7.2219E-11, 8.49817627494276E-06, 2.9569705097697361E-09, 2.381E-12
DataValue, -0.65, 0.1, 0, 1.31925E-10, -1.24277E-10, 1.138E-12, 1.31925E-10, 1.1485860873265007E-05, 4.0200951665732819E-09, 1.138E-12
DataValue, -0.6, 0.1, 0, 2.2018400000000002E-10, -2.06617E-10, 2.9770000000000003E-12, 2.2018400000000002E-10, 1.4838598316552679E-05, 4.16708068867995E-09, 2.9770000000000003E-12
DataValue, -0.55, 0.1, 0, 3.21885E-10, -3.0510800000000003E-10, 5.464E-12, 3.21885E-10, 1.7941153809050298E-05, 3.978173035779837E-09, 5.464E-12
DataValue, -0.5, 0.1, 0, 4.4714800000000004E-10, -4.1706500000000005E-10, 2.1300000000000003E-13, 4.4714800000000004E-10, 2.114587430209496E-05, 3.8169072196131055E-09, 2.1300000000000003E-13
DataValue, -0.45, 0.1, 0, 5.8173900000000009E-10, -5.47165E-10, -8.71E-13, 5.8173900000000009E-10, 2.4119266157990796E-05, 3.4693951975292282E-09, 8.71E-13
DataValue, -0.4, 0.1, 0, 7.30947E-10, -6.8506800000000008E-10, 3.8190000000000006E-12, 7.30947E-10, 2.703603151351914E-05, 1.9711939109265837E-09, 3.8190000000000006E-12
DataValue, -0.35000000000000003, 0.1, 0, 8.15621E-10, -7.5511000000000009E-10, 1.55E-12, 8.15621E-10, 2.8559079116806272E-05, 1.7072603597951784E-09, 1.55E-12
DataValue, -0.3, 0.1, 0, 9.7144E-10, -9.1520700000000006E-10, 3.4330000000000004E-12, 9.7144E-10, 3.1167932238119357E-05, 5.2795507704339889E-09, 3.4330000000000004E-12
DataValue, -0.25, 0.1, 0, 1.28344E-09, -1.16959E-09, -8.908E-12, 1.28344E-09, 3.5825130844143473E-05, 8.0156386704569825E-09, 8.908E-12
DataValue, -0.2, 0.1, 0, 1.60969E-09, -1.56949E-09, 2.8900000000000003E-13, 1.60969E-09, 4.0120942162416872E-05, 8.5579447024702874E-09, 2.8900000000000003E-13
DataValue, -0.15, 0.1, 0, 2.03185E-09, -1.98056E-09, 3.5800000000000004E-13, 2.03185E-09, 4.5076046854177446E-05, 1.0189277264971209E-08, 3.5800000000000004E-13
DataValue, -0.1, 0.1, 0, 2.52156E-09, -2.44766E-09, 5.9960000000000007E-12, 2.52156E-09, 5.0215137160023769E-05, 1.160428626978156E-08, 5.9960000000000007E-12
DataValue, -0.05, 0.1, 0, 3.11904E-09, -3.01398E-09, -5.8300000000000008E-12, 3.11904E-09, 5.5848366135456458E-05, 1.3839483860998394E-08, 5.8300000000000008E-12
DataValue, 0, 0.1, 0, 3.84143E-09, -3.7258E-09, 5.84E-13, 3.84143E-09, 6.1979270728203958E-05, 1.5847683535294828E-08, 5.84E-13
DataValue, 0.05, 0.1, 0, 4.68364E-09, -4.56664E-09, 4.34E-13, 4.68364E-09, 6.8437124428193208E-05, 1.7367102099090664E-08, 4.34E-13
DataValue, 0.1, 0.1, 0, 5.64868E-09, -5.49931E-09, 4.3290000000000006E-12, 5.64868E-09, 7.515770086957158E-05, 1.8245561024753974E-08, 4.3290000000000006E-12
DataValue, 0.15, 0.1, 0, 6.71494E-09, -6.53519E-09, 1.3940000000000001E-12, 6.71494E-09, 8.1944737475935571E-05, 2.144018154849774E-08, 1.3940000000000001E-12
DataValue, 0.2, 0.1, 0, 8.06407E-09, -7.79855E-09, -1.2604000000000001E-11, 8.06407E-09, 8.9800167037706557E-05, 2.0117786335803022E-08, 1.2604000000000001E-11
DataValue, 0.25, 0.1, 0, 9.24068E-09, -8.51694E-09, 5.4520000000000006E-12, 9.24068E-09, 9.6128455724618821E-05, 1.1017427067828331E-08, 5.4520000000000006E-12
DataValue, 0.3, 0.1, 0, 1.00594E-08, -9.46134E-09, 6.2310000000000004E-12, 1.00594E-08, 0.00010029656026006076, 1.8014979614544475E-08, 6.2310000000000004E-12
DataValue, 0.35000000000000003, 0.1, 0, 1.2001299999999999E-08, -1.14078E-08, 4.1480000000000005E-12, 1.2001299999999999E-08, 0.00010955044500137824, 4.3262679027952016E-08, 4.1480000000000005E-12
DataValue, 0.4, 0.1, 0, 1.4664299999999998E-08, -1.4298799999999999E-08, 8.491E-12, 1.4664299999999998E-08, 0.00012109624271627918, 5.0885632202293608E-08, 8.491E-12
DataValue, 0.45, 0.1, 0, 1.74526E-08, -1.7064399999999998E-08, 1.7402E-11, 1.74526E-08, 0.00013210828891481411, 5.1953444519479025E-08, 1.7402E-11
DataValue, 0.5, 0.1, 0, 2.07042E-08, -2.03553E-08, 2.64E-12, 2.07042E-08, 0.00014388954096806341, 6.0972153978170043E-08, 2.64E-12
DataValue, 0.55, 0.1, 0, 2.4586499999999997E-08, -2.3997799999999997E-08, 1.343E-11, 2.4586499999999997E-08, 0.00015680082907944078, 7.1052959083521357E-08, 1.343E-11
DataValue, 0.6, 0.1, 0, 2.9085699999999997E-08, -2.84657E-08, 5.9430000000000008E-12, 2.9085699999999997E-08, 0.00017054530189952461, 7.7854651920871227E-08, 5.9430000000000008E-12
DataValue, 0.65, 0.1, 0, 3.4115299999999994E-08, -3.34993E-08, -4.3480000000000005E-12, 3.4115299999999994E-08, 0.00018470327555297983, 8.8200383894607064E-08, 4.3480000000000005E-12
DataValue, 0.70000000000000007, 0.1, 0, 4.00976E-08, -3.9294399999999996E-08, 1.067E-12, 4.00976E-08, 0.00020024385134130834, 9.6279672448869825E-08, 1.067E-12
DataValue, 0.75, 0.1, 0, 4.6540399999999994E-08, -4.57498E-08, -6.2310000000000004E-12, 4.6540399999999994E-08, 0.00021573224144758705, 1.0291164715607849E-07, 6.2310000000000004E-12
DataValue, 0.8, 0.1, 0, 5.3974299999999994E-08, -5.30548E-08, -5.0400000000000007E-13, 5.3974299999999994E-08, 0.00023232369659593487, 1.3230596553688305E-07, 5.0400000000000007E-13
DataValue, 0.85000000000000009, 0.1, 0, 6.3557499999999992E-08, -6.26496E-08, -1.343E-12, 6.3557499999999992E-08, 0.00025210612844593839, 1.5757263990913128E-07, 1.343E-12
DataValue, 0.9, 0.1, 0, 7.3994399999999989E-08, -7.2808299999999989E-08, -4.1800000000000004E-13, 7.3994399999999989E-08, 0.00027201911697525964, 1.7988889195177511E-07, 4.1800000000000004E-13
DataValue, 0.95000000000000007, 0.1, 0, 8.67417E-08, -8.52786E-08, -2.5340000000000003E-12, 8.67417E-08, 0.00029451943908679441, 1.6439583532152685E-07, 2.5340000000000003E-12
DataValue, 1, 0.1, 0, 9.76968E-08, -9.4379299999999991E-08, 8.0580000000000014E-12, 9.76968E-08, 0.00031256487326633488, 1.4815625665768265E-07, 8.0580000000000014E-12
DataValue, 1.05, 0.1, 0, 1.10896E-07, -1.09129E-07, 3.808E-12, 1.10896E-07, 0.00033301051034464362, 2.5605376249170581E-07, 3.808E-12
DataValue, 1.1, 0.1, 0, 1.3189E-07, -1.30283E-07, 9.3220000000000009E-12, 1.3189E-07, 0.00036316662842282192, 3.81511806186806E-07, 9.3220000000000009E-12
DataValue, 1.1500000000000001, 0.1, 0, 1.55849E-07, -1.54258E-07, 6.8870000000000008E-12, 1.55849E-07, 0.0003947771523277405, 4.0552849946799826E-07, 6.8870000000000008E-12
DataValue, 1.2, 0.1, 0, 1.82199E-07, -1.80567E-07, 4.9360000000000008E-12, 1.82199E-07, 0.000426847748032012, 4.5521381610754469E-07, 4.9360000000000008E-12
DataValue, 1.25, 0.1, 0, 2.1367199999999998E-07, -2.1136099999999998E-07, 9.191E-12, 2.1367199999999998E-07, 0.00046224668738672423, 5.0097549750954876E-07, 9.191E-12
DataValue, 1.3, 0.1, 0, 2.47633E-07, -2.44169E-07, 6.9170000000000005E-12, 2.47633E-07, 0.000497627370629872, 5.6823610257350039E-07, 6.9170000000000005E-12
DataValue, 1.35, 0.1, 0, 2.89044E-07, -2.85905E-07, 5.8310000000000005E-12, 2.89044E-07, 0.00053762812426434692, 6.389979023144837E-07, 5.8310000000000005E-12
DataValue, 1.4000000000000001, 0.1, 0, 3.33581E-07, -3.29582E-07, 8.918E-12, 3.33581E-07, 0.00057756471498871876, 7.2638459827271409E-07, 8.918E-12
DataValue, 1.4500000000000002, 0.1, 0, 3.8795E-07, -3.8466E-07, 9.301E-12, 3.8795E-07, 0.0006228563237216108, 8.908609768466392E-07, 9.301E-12
DataValue, 1.5, 0.1, 0, 4.51517E-07, -4.47416E-07, 2.7077000000000002E-11, 4.51517E-07, 0.00067195014696032319, 9.8153291702295917E-07, 2.7077000000000002E-11
DataValue, 1.55, 0.1, 0, 5.21181E-07, -5.16568E-07, 2.7085000000000003E-11, 5.21181E-07, 0.00072192866683627407, 1.0325866138393147E-06, 2.7085000000000003E-11
DataValue, 1.6, 0.1, 0, 5.98405E-07, -5.93818E-07, 4.4737000000000005E-11, 5.98405E-07, 0.00077356641602386027, 1.1788616827358349E-06, 4.4737000000000005E-11
DataValue, 1.6500000000000001, 0.1, 0, 6.89737E-07, -6.83903E-07, 4.9517E-11, 6.89737E-07, 0.00083050406380703521, 1.2966198225991186E-06, 4.9517E-11
DataValue, 1.7000000000000002, 0.1, 0, 7.87542E-07, -7.83293E-07, 8.1363E-11, 7.87542E-07, 0.000887435631468559, 1.3586807017750889E-06, 8.1363E-11
DataValue, 1.75, 0.1, 0, 8.96935E-07, -8.9271E-07, 1.21616E-10, 8.96935E-07, 0.00094706652353464585, 1.5000066983048605E-06, 1.21616E-10
DataValue, 1.8, 0.1, 0, 1.019919E-06, -1.015346E-06, 1.6031000000000001E-10, 1.019919E-06, 0.0010099103920645633, 1.4811814425616577E-06, 1.6031000000000001E-10
DataValue, 1.85, 0.1, 0, 1.14227E-06, -1.1367E-06, 2.0650100000000002E-10, 1.14227E-06, 0.0010687703214442288, 1.5675525073291786E-06, 2.0650100000000002E-10
DataValue, 1.9000000000000001, 0.1, 0, 1.2884800000000001E-06, -1.28366E-06, 2.72599E-10, 1.2884800000000001E-06, 0.001135112329243234, 1.7424069820501663E-06, 2.72599E-10
DataValue, 1.9500000000000002, 0.1, 0, 1.4418500000000002E-06, -1.4379300000000002E-06, 3.58531E-10, 1.4418500000000002E-06, 0.0012007705859155612, 1.7307120691936149E-06, 3.58531E-10
DataValue, 2, 0.1, 0, 1.6044500000000002E-06, -1.6011500000000001E-06, 4.56451E-10, 1.6044500000000002E-06, 0.0012666688596472246, 1.7292752000708591E-06, 4.56451E-10
DataValue, 2.05, 0.1, 0, 1.7749500000000003E-06, -1.7712300000000003E-06, 5.8413600000000008E-10, 1.7749500000000003E-06, 0.0013322724946496494, 1.7093740892115836E-06, 5.8413600000000008E-10
DataValue, 2.1, 0.1, 0, 1.9527600000000003E-06, -1.94896E-06, 7.2338E-10, 1.9527600000000003E-06, 0.0013974118934659175, 1.6560110987236949E-06, 7.2338E-10
DataValue, 2.15, 0.1, 0, 2.1344000000000003E-06, -2.13283E-06, 9.0317200000000012E-10, 2.1344000000000003E-06, 0.001460958589419974, 1.6238170900933574E-06, 9.0317200000000012E-10
DataValue, 2.2, 0.1, 0, 2.3251400000000002E-06, -2.3235900000000002E-06, 1.06896E-09, 2.3251400000000002E-06, 0.0015248409753151311, 1.619203982926391E-06, 1.06896E-09
DataValue, 2.25, 0.1, 0, 2.5224E-06, -2.5211900000000003E-06, 1.32661E-09, 2.5224E-06, 0.0015882065356873458, 1.6228428310272518E-06, 1.32661E-09
