
SetupTitle, Transfer stab
PrimitiveTest, I/V Sweep
TestParameter, Context.MainFrame, 4155C
TestParameter, Channel.UnitType, SMU, SMU, SMU
TestParameter, Channel.Unit, SMU3:MP, SMU1:MP, SMU4:MP
TestParameter, Channel.IName, ID, IS, IG
TestParameter, Channel.VName, VD, VS, VG
TestParameter, Channel.Mode, V, COMMON, V
TestParameter, Channel.Func, CONST, CONST, VAR1
TestParameter, Channel.Index, 
TestParameter, Channel.Time, 
TestParameter, Measurement.Port.Unit, SMU3:MP, SMU1:MP, SMU4:MP
TestParameter, Measurement.Port.SeriesResistor, NONE, NONE, NONE
TestParameter, Measurement.Port.Filter, ON, ON, ON
TestParameter, Measurement.Primary.Locus, Single
TestParameter, Measurement.Primary.Scale, LINEAR
TestParameter, Measurement.Primary.Start, -2
TestParameter, Measurement.Primary.Stop, 3
TestParameter, Measurement.Primary.Step, 0.05
TestParameter, Measurement.Primary.Compliance, 0.1
TestParameter, Measurement.Primary.PowerCompliance, 0
TestParameter, Measurement.Aborting.Condition, CONTINUE AT ANY
TestParameter, Measurement.PostOutput.Value, START
TestParameter, Measurement.PostOutput.Retention, OFF
TestParameter, Measurement.Bias.Source, 3, 0, -2
TestParameter, Measurement.Bias.Compliance, 0.1, 0.1, 0.1
TestParameter, Measurement.Monitor.Unit, SMU3:MP, SMU1:MP, SMU4:MP
TestParameter, Measurement.Monitor.Adc, HR ADC, HR ADC, HR ADC
TestParameter, Measurement.Monitor.RangingMode, AUTO, AUTO, AUTO
TestParameter, Measurement.Monitor.RangeBoundary, , , 
TestParameter, Measurement.Monitor.RangeRating, BY FULL RANGE, BY FULL RANGE, BY FULL RANGE
TestParameter, Measurement.Monitor.RangeRatingCoeff, 50, 50, 50
TestParameter, Measurement.Timing.Hold, 0.5
TestParameter, Measurement.Timing.Delay, 0.05
TestParameter, Measurement.Adc.HighResolution.AutoZero, OFF
TestParameter, Measurement.Adc.HighResolution.Mode, AUTO
TestParameter, Measurement.Adc.HighResolution.Coeff, 1
TestParameter, Measurement.Ag16440ASelector.SemiconductorRelay.Channel1, DEFAULT
TestParameter, Measurement.Ag16440ASelector.SemiconductorRelay.Channel3, DEFAULT
TestParameter, Function.User.Name, absID, sqrtID, gm2, absIG
TestParameter, Function.User.Unit, A, A, A/V, A
TestParameter, Function.User.Definition, abs(ID), sqrt(abs(ID)), (delta(sqrtID)/delta(VG))^2, abs(IG)
TestParameter, Output.Graph.Enabled, true
TestParameter, Output.Graph.XAxis.Data, VG
TestParameter, Output.Graph.XAxis.Scale, Linear
TestParameter, Output.Graph.XAxis.Left, -5
TestParameter, Output.Graph.XAxis.Right, 7
TestParameter, Output.Graph.YAxis.Data, ID, absIG, gm2
TestParameter, Output.Graph.YAxis.Scale, Log, Log, Linear
TestParameter, Output.Graph.YAxis.Bottom, 1E-14, 1E-14, 0
TestParameter, Output.Graph.YAxis.Top, 0.01, 0.01, 1E-05
TestParameter, Output.Graph.YAxis.Group, , , 
TestParameter, Output.List.Data, VG, IG, VD, ID, VS, IS, sqrtID, gm2, absIG
TestParameter, AutoAnalysis.Interpolation, false
TestParameter, AutoAnalysis.Line1.Enabled, false
TestParameter, AutoAnalysis.Line1.Type, 1
TestParameter, AutoAnalysis.Line1.Fix, True
TestParameter, AutoAnalysis.Line1.YAxis, 0
TestParameter, AutoAnalysis.Line1.Point1.Type, 0
TestParameter, AutoAnalysis.Line1.Point1.XY.X, 
TestParameter, AutoAnalysis.Line1.Point1.XY.Y, 
TestParameter, AutoAnalysis.Line1.Point1.Data.Var, 
TestParameter, AutoAnalysis.Line1.Point1.Data.Condition, 
TestParameter, AutoAnalysis.Line1.Point1.Data.Start, false
TestParameter, AutoAnalysis.Line1.Point1.Data.StartVar, 
TestParameter, AutoAnalysis.Line1.Point1.Data.StartCondition, 
TestParameter, AutoAnalysis.Line1.Point2.Type, 0
TestParameter, AutoAnalysis.Line1.Point2.XY.X, 
TestParameter, AutoAnalysis.Line1.Point2.XY.Y, 
TestParameter, AutoAnalysis.Line1.Point2.Data.Var, 
TestParameter, AutoAnalysis.Line1.Point2.Data.Condition, 
TestParameter, AutoAnalysis.Line1.Point2.Data.Start, false
TestParameter, AutoAnalysis.Line1.Point2.Data.StartVar, 
TestParameter, AutoAnalysis.Line1.Point2.Data.StartCondition, 
TestParameter, AutoAnalysis.Line1.GradientExpr, 0
TestParameter, AutoAnalysis.Line2.Enabled, false
TestParameter, AutoAnalysis.Line2.Type, 1
TestParameter, AutoAnalysis.Line2.Fix, True
TestParameter, AutoAnalysis.Line2.YAxis, 0
TestParameter, AutoAnalysis.Line2.Point1.Type, 0
TestParameter, AutoAnalysis.Line2.Point1.XY.X, 
TestParameter, AutoAnalysis.Line2.Point1.XY.Y, 
TestParameter, AutoAnalysis.Line2.Point1.Data.Var, 
TestParameter, AutoAnalysis.Line2.Point1.Data.Condition, 
TestParameter, AutoAnalysis.Line2.Point1.Data.Start, false
TestParameter, AutoAnalysis.Line2.Point1.Data.StartVar, 
TestParameter, AutoAnalysis.Line2.Point1.Data.StartCondition, 
TestParameter, AutoAnalysis.Line2.Point2.Type, 0
TestParameter, AutoAnalysis.Line2.Point2.XY.X, 
TestParameter, AutoAnalysis.Line2.Point2.XY.Y, 
TestParameter, AutoAnalysis.Line2.Point2.Data.Var, 
TestParameter, AutoAnalysis.Line2.Point2.Data.Condition, 
TestParameter, AutoAnalysis.Line2.Point2.Data.Start, false
TestParameter, AutoAnalysis.Line2.Point2.Data.StartVar, 
TestParameter, AutoAnalysis.Line2.Point2.Data.StartCondition, 
TestParameter, AutoAnalysis.Line2.GradientExpr, 0
TestParameter, AutoAnalysis.Marker.Enabled, false
TestParameter, AutoAnalysis.Marker.Data.Var, 
TestParameter, AutoAnalysis.Marker.Data.Condition, 
TestParameter, AutoAnalysis.Marker.Data.Start, false
TestParameter, AutoAnalysis.Marker.Data.StartVar, 
TestParameter, AutoAnalysis.Marker.Data.StartCondition, 
MetaData, TestRecord.EntryPoint, true
MetaData, TestRecord.RecordTime, 05/02/2019 13:41:38
MetaData, TestRecord.TestTarget, 150-300-10-5
MetaData, TestRecord.IterationIndex, 3
MetaData, TestRecord.Preservation, true
MetaData, TestRecord.Flag, 
MetaData, TestRecord.Remarks, good
MetaData, TestRecord.LinkKey, a390f715-7e58-43f7-99e2-b14b46979726
Dimension1, 101, 101, 101, 101, 101, 101, 101, 101, 101, 101
Dimension2, 1, 1, 1, 1, 1, 1, 1, 1, 1, 1
DataName, VG, VD, VS, ID, IS, IG, absID, sqrtID, gm2, absIG
DataValue, -2, 3, 0, 1.778E-12, -2.7600000000000004E-13, -2.4340000000000003E-12, 1.778E-12, 1.3334166640626628E-06, 2.7799740920855418E-13, 2.4340000000000003E-12
DataValue, -1.9500000000000002, 3, 0, 1.8490000000000003E-12, -3.8000000000000005E-13, -2.758E-12, 1.8490000000000003E-12, 1.3597793938724033E-06, 4.2942007696688087E-11, 2.758E-12
DataValue, -1.9000000000000001, 3, 0, 3.955E-12, -1.87E-13, -7.1970000000000009E-12, 3.955E-12, 1.9887181801351344E-06, 1.60267502773943E-11, 7.1970000000000009E-12
DataValue, -1.85, 3, 0, 3.0980000000000003E-12, 7.8700000000000008E-13, -2.5830000000000002E-12, 3.0980000000000003E-12, 1.760113632695344E-06, 2.1129300278285319E-11, 2.5830000000000002E-12
DataValue, -1.8, 3, 0, 2.3380000000000003E-12, -7.02E-13, -2.971E-12, 2.3380000000000003E-12, 1.5290519938837922E-06, 7.3889388455326653E-12, 2.971E-12
DataValue, -1.75, 3, 0, 2.215E-12, 2.165E-12, -4.026E-12, 2.215E-12, 1.4882876066137217E-06, 1.8646433346719824E-11, 4.026E-12
DataValue, -1.7000000000000002, 3, 0, 3.8450000000000007E-12, -2.7E-13, -1.7930000000000001E-12, 3.8450000000000007E-12, 1.960867155112758E-06, 1.5039975596315909E-12, 1.7930000000000001E-12
DataValue, -1.6500000000000001, 3, 0, 1.8650000000000002E-12, 8.8E-14, -8.46E-13, 1.8650000000000002E-12, 1.3656500283747664E-06, 9.2038749365470025E-11, 8.46E-13
DataValue, -1.6, 3, 0, 1.003E-12, -1.619E-12, -2.7000000000000002E-12, 1.003E-12, 1.0014988766843425E-06, 6.0865805368480876E-13, 2.7000000000000002E-12
DataValue, -1.55, 3, 0, 1.6580000000000002E-12, 1.9580000000000003E-12, -3.5620000000000004E-12, 1.6580000000000002E-12, 1.2876334882255898E-06, 1.0842917992603606E-10, 3.5620000000000004E-12
DataValue, -1.5, 3, 0, 4.173E-12, -8.9000000000000012E-14, -4.941E-12, 4.173E-12, 2.042792206760149E-06, 5.3019570271552458E-12, 4.941E-12
DataValue, -1.4500000000000002, 3, 0, 2.3040000000000003E-12, -1.5570000000000001E-12, -2.703E-12, 2.3040000000000003E-12, 1.5178932768808222E-06, 1.3780056338072911E-10, 2.703E-12
DataValue, -1.4000000000000001, 3, 0, -7.55E-13, -9.59E-13, -1.4130000000000001E-12, 7.55E-13, 8.6890735984913832E-07, 1.5458350519448171E-11, 1.4130000000000001E-12
DataValue, -1.35, 3, 0, 1.2650000000000002E-12, -1.5000000000000002E-14, 1.091E-12, 1.2650000000000002E-12, 1.1247221879201994E-06, 4.8861673477884515E-12, 1.091E-12
DataValue, -1.3, 3, 0, 1.1880000000000002E-12, 3.6800000000000005E-13, 6.05E-13, 1.1880000000000002E-12, 1.0899541274750971E-06, 1.2349702605162519E-11, 6.05E-13
DataValue, -1.25, 3, 0, 2.1790000000000003E-12, 8.94E-13, -7.09E-13, 2.1790000000000003E-12, 1.4761436244485156E-06, 2.522562830249527E-12, 7.09E-13
DataValue, -1.2, 3, 0, 8.67E-13, -6.8900000000000009E-13, -3.26E-13, 8.67E-13, 9.3112834775878237E-07, 8.2893413303546834E-11, 3.26E-13
DataValue, -1.1500000000000001, 3, 0, 3.2000000000000005E-13, 1.011E-12, -2.1000000000000002E-14, 3.2000000000000005E-13, 5.6568542494923806E-07, 7.6654580949599113E-11, 2.1000000000000002E-14
DataValue, -1.1, 3, 0, 3.2640000000000002E-12, 1.667E-12, 3.1910000000000004E-12, 3.2640000000000002E-12, 1.8066543665017944E-06, 5.6862747748392213E-13, 3.1910000000000004E-12
DataValue, -1.05, 3, 0, -4.11E-13, 3.844E-12, -3.322E-12, 4.11E-13, 6.4109281699298422E-07, 6.0993578037292932E-11, 3.322E-12
DataValue, -1, 3, 0, 1.0520000000000002E-12, 1.4260000000000002E-12, -1.6320000000000001E-12, 1.0520000000000002E-12, 1.0256705123966468E-06, 6.9682459678786864E-13, 1.6320000000000001E-12
DataValue, -0.95000000000000007, 3, 0, 5.2500000000000009E-13, 3.7000000000000004E-13, -4.0220000000000004E-12, 5.2500000000000009E-13, 7.24568837309472E-07, 3.0963568940683336E-12, 4.0220000000000004E-12
DataValue, -0.9, 3, 0, 7.2200000000000005E-13, -1.2960000000000001E-12, -7.26E-13, 7.2200000000000005E-13, 8.4970583144992015E-07, 5.3553923415502874E-14, 7.26E-13
DataValue, -0.85000000000000009, 3, 0, 4.92E-13, -2.61E-13, -6.0400000000000005E-13, 4.92E-13, 7.0142711667000727E-07, 1.3797930294820926E-10, 6.0400000000000005E-13
DataValue, -0.8, 3, 0, 4.0980000000000005E-12, -1.116E-12, -3.8100000000000004E-13, 4.0980000000000005E-12, 2.0243517480912254E-06, 3.2178735430370194E-11, 3.8100000000000004E-13
DataValue, -0.75, 3, 0, 1.8000000000000002E-14, -5.67E-13, -4.23E-13, 1.8000000000000002E-14, 1.3416407864998738E-07, 1.059590884728812E-10, 4.23E-13
DataValue, -0.70000000000000007, 3, 0, 9.9E-13, -1.5240000000000002E-12, -4.5600000000000008E-13, 9.9E-13, 9.9498743710662E-07, 1.135721549657672E-11, 4.5600000000000008E-13
DataValue, -0.65, 3, 0, 2.2200000000000001E-13, -1.4780000000000002E-12, -3.873E-12, 2.2200000000000001E-13, 4.7116875957558986E-07, 4.6503932708396348E-11, 3.873E-12
DataValue, -0.6, 3, 0, 9.8000000000000012E-14, 1.4900000000000001E-12, 2.077E-12, 9.8000000000000012E-14, 3.1304951684997057E-07, 1.7009859534361352E-10, 2.077E-12
DataValue, -0.55, 3, 0, -3.1520000000000003E-12, -1.6200000000000002E-13, -2.269E-12, 3.1520000000000003E-12, 1.7753872816937718E-06, 4.7465001793257414E-11, 2.269E-12
DataValue, -0.5, 3, 0, 1.0040000000000002E-12, -7.71E-13, 9.0600000000000008E-13, 1.0040000000000002E-12, 1.001998003990028E-06, 1.6215253157477935E-10, 9.0600000000000008E-13
DataValue, -0.45, 3, 0, 2.5200000000000004E-13, -7.3E-14, -2.31E-12, 2.5200000000000004E-13, 5.0199601592044536E-07, 2.6224646677488355E-11, 2.31E-12
DataValue, -0.4, 3, 0, -2.4000000000000004E-13, -1.6100000000000002E-13, 1.5150000000000001E-12, 2.4000000000000004E-13, 4.8989794855663568E-07, 1.6329235465452968E-11, 1.5150000000000001E-12
DataValue, -0.35000000000000003, 3, 0, 8.21E-13, 2.9000000000000003E-13, -1.734E-12, 8.21E-13, 9.0609050320594352E-07, 8.2829100879296E-15, 1.734E-12
DataValue, -0.3, 3, 0, 2.49E-13, 5.38E-13, -2.4620000000000002E-12, 2.49E-13, 4.98998997994986E-07, 9.8899258464951777E-12, 2.4620000000000002E-12
DataValue, -0.25, 3, 0, -3.5E-13, -2.9590000000000002E-12, -1.7000000000000002E-12, 3.5E-13, 5.9160797830996166E-07, 3.9056777538142962E-10, 1.7000000000000002E-12
DataValue, -0.2, 3, 0, 6.1270000000000009E-12, -3.5790000000000004E-12, 3.627E-12, 6.1270000000000009E-12, 2.4752777621915487E-06, 6.5441514653798961E-10, 3.627E-12
DataValue, -0.15, 3, 0, 9.921E-12, -7.7670000000000011E-12, -4.0600000000000004E-13, 9.921E-12, 3.1497618957629161E-06, 9.6507635626950173E-10, 4.0600000000000004E-13
DataValue, -0.1, 3, 0, 3.1157000000000005E-11, -3.1013000000000004E-11, -1.638E-12, 3.1157000000000005E-11, 5.5818455729265755E-06, 4.373886804124461E-09, 1.638E-12
DataValue, -0.05, 3, 0, 9.5322E-11, -9.0537E-11, 4.0000000000000006E-14, 9.5322E-11, 9.7632986229040447E-06, 1.2612615849896671E-08, 4.0000000000000006E-14
DataValue, 0, 3, 0, 2.82658E-10, -2.69628E-10, 1.5150000000000001E-12, 2.82658E-10, 1.6812435873483653E-05, 3.2638369155052888E-08, 1.5150000000000001E-12
DataValue, 0.05, 3, 0, 7.7447500000000006E-10, -7.3302500000000006E-10, 7.2000000000000009E-14, 7.7447500000000006E-10, 2.7829390938358678E-05, 6.8977981482822565E-08, 7.2000000000000009E-14
DataValue, 0.1, 3, 0, 1.85555E-09, -1.73964E-09, 9.48E-13, 1.85555E-09, 4.307609545908264E-05, 1.5482405891991498E-07, 9.48E-13
DataValue, 0.15, 3, 0, 4.51276E-09, -4.43968E-09, -1.827E-12, 4.51276E-09, 6.7177079424458463E-05, 3.1546402068786473E-07, 1.827E-12
DataValue, 0.2, 3, 0, 9.84903E-09, -9.6377E-09, -3.1300000000000003E-13, 9.84903E-09, 9.92422792966788E-05, 4.2980482786560635E-07, 3.1300000000000003E-13
DataValue, 0.25, 3, 0, 1.7618999999999997E-08, -1.72391E-08, -7.7E-14, 1.7618999999999997E-08, 0.00013273658124270037, 5.8072681272445729E-07, 7.7E-14
DataValue, 0.3, 3, 0, 3.07819E-08, -3.05663E-08, 2.6500000000000003E-13, 3.07819E-08, 0.00017544771300874798, 8.2167064045796024E-07, 2.6500000000000003E-13
DataValue, 0.35000000000000003, 3, 0, 4.9899799999999993E-08, -4.9686199999999997E-08, -3.8000000000000005E-13, 4.9899799999999993E-08, 0.00022338263137495714, 9.73784929952692E-07, 3.8000000000000005E-13
DataValue, 0.4, 3, 0, 7.5146299999999993E-08, -7.4613099999999987E-08, 1.5890000000000002E-12, 7.5146299999999993E-08, 0.00027412825465464151, 1.1018652777308216E-06, 1.5890000000000002E-12
DataValue, 0.45, 3, 0, 1.0781529999999999E-07, -1.0713849999999999E-07, 2.8310000000000004E-12, 1.0781529999999999E-07, 0.00032835240215353992, 1.1290845604166115E-06, 2.8310000000000004E-12
DataValue, 0.5, 3, 0, 1.4469399999999999E-07, -1.4361999999999999E-07, -1.877E-12, 1.4469399999999999E-07, 0.00038038664540175431, 1.2371685707021322E-06, 1.877E-12
DataValue, 0.55, 3, 0, 1.93231E-07, -1.92194E-07, 2.089E-12, 1.93231E-07, 0.00043958048182329477, 1.4502588405886296E-06, 2.089E-12
DataValue, 0.6, 3, 0, 2.50814E-07, -2.49953E-07, 2.269E-12, 2.50814E-07, 0.00050081333848051609, 1.5442511480673963E-06, 2.269E-12
DataValue, 0.65, 3, 0, 3.17925E-07, -3.17198E-07, -4.113E-12, 3.17925E-07, 0.00056384838387637506, 1.6474639191458256E-06, 4.113E-12
DataValue, 0.70000000000000007, 3, 0, 3.95851E-07, -3.9431699999999997E-07, -1.988E-12, 3.95851E-07, 0.00062916690949222688, 1.7152464853330174E-06, 1.988E-12
DataValue, 0.75, 3, 0, 4.8276899999999995E-07, -4.82097E-07, -1.053E-12, 4.8276899999999995E-07, 0.00069481580292909278, 1.7239185769659981E-06, 1.053E-12
DataValue, 0.8, 3, 0, 5.78307E-07, -5.76679E-07, 3.8E-14, 5.78307E-07, 0.00076046498933218484, 1.8274278522860203E-06, 3.8E-14
DataValue, 0.85000000000000009, 3, 0, 6.88897E-07, -6.86964E-07, 1.7460000000000002E-12, 6.88897E-07, 0.00082999819276911684, 1.9319413397941864E-06, 1.7460000000000002E-12
DataValue, 0.9, 3, 0, 8.09027E-07, -8.076E-07, -3.5700000000000004E-13, 8.09027E-07, 0.000899459282013366, 1.9618839828177158E-06, 3.5700000000000004E-13
DataValue, 0.95000000000000007, 3, 0, 9.41027E-07, -9.40295E-07, -3.768E-12, 9.41027E-07, 0.00097006546170864158, 2.0215508133690646E-06, 3.768E-12
DataValue, 1, 3, 0, 1.085015E-06, -1.082909E-06, 6.400000000000001E-13, 1.085015E-06, 0.0010416405330055086, 1.9747127122698908E-06, 6.400000000000001E-13
DataValue, 1.05, 3, 0, 1.2334100000000002E-06, -1.2294300000000002E-06, -1.82E-13, 1.2334100000000002E-06, 0.0011105899333237268, 2.0733149150490975E-06, 1.82E-13
DataValue, 1.1, 3, 0, 1.40572E-06, -1.40401E-06, 1.696E-12, 1.40572E-06, 0.001185630633882239, 2.2219125651068913E-06, 1.696E-12
DataValue, 1.1500000000000001, 3, 0, 1.5867200000000001E-06, -1.5844000000000002E-06, 9.9100000000000012E-13, 1.5867200000000001E-06, 0.0012596507452464752, 2.2518063206444623E-06, 9.9100000000000012E-13
DataValue, 1.2, 3, 0, 1.7840700000000002E-06, -1.7806400000000002E-06, -6.2500000000000006E-13, 1.7840700000000002E-06, 0.0013356908324908127, 2.3068713190037372E-06, 6.2500000000000006E-13
DataValue, 1.25, 3, 0, 1.99243E-06, -1.99108E-06, -1.393E-12, 1.99243E-06, 0.0014115346258593872, 2.3737840200399034E-06, 1.393E-12
DataValue, 1.3, 3, 0, 2.21939E-06, -2.21709E-06, -6.4700000000000007E-13, 2.21939E-06, 0.0014897617259145839, 2.4469041175218915E-06, 6.4700000000000007E-13
DataValue, 1.35, 3, 0, 2.4585000000000003E-06, -2.45644E-06, 1E-12, 2.4585000000000003E-06, 0.0015679604586851035, 2.4868319534822635E-06, 1E-12
DataValue, 1.4000000000000001, 3, 0, 2.71412E-06, -2.7097E-06, 2.2710000000000003E-12, 2.71412E-06, 0.0016474586489499516, 2.5160297021665128E-06, 2.2710000000000003E-12
DataValue, 1.4500000000000002, 3, 0, 2.9810800000000004E-06, -2.9794500000000003E-06, 5.5200000000000007E-13, 2.9810800000000004E-06, 0.0017265804354272061, 2.5330060611762621E-06, 5.5200000000000007E-13
DataValue, 1.5, 3, 0, 3.2638500000000005E-06, -3.2627300000000005E-06, -1.1730000000000002E-12, 3.2638500000000005E-06, 0.00180661285282708, 2.5779596722229657E-06, 1.1730000000000002E-12
DataValue, 1.55, 3, 0, 3.5613000000000005E-06, -3.5581900000000002E-06, -3.3000000000000005E-14, 3.5613000000000005E-06, 0.0018871406942779865, 2.5982374390701991E-06, 3.3000000000000005E-14
DataValue, 1.6, 3, 0, 3.87225E-06, -3.8677200000000008E-06, 3.1E-14, 3.87225E-06, 0.0019678033438329146, 2.6252097256213523E-06, 3.1E-14
DataValue, 1.6500000000000001, 3, 0, 4.1990800000000005E-06, -4.1962000000000006E-06, -7.9000000000000007E-13, 4.1990800000000005E-06, 0.0020491656838821015, 2.6887115490321132E-06, 7.9000000000000007E-13
DataValue, 1.7000000000000002, 3, 0, 4.5444700000000007E-06, -4.53682E-06, 6.32E-13, 4.5444700000000007E-06, 0.0021317762546758986, 2.7422086328836918E-06, 6.32E-13
DataValue, 1.75, 3, 0, 4.9051700000000005E-06, -4.90313E-06, -4.1700000000000004E-13, 4.9051700000000005E-06, 0.0022147618382119556, 2.7237848950309777E-06, 4.1700000000000004E-13
DataValue, 1.8, 3, 0, 5.2753600000000009E-06, -5.2704900000000008E-06, 3.1E-12, 5.2753600000000009E-06, 0.0022968151862960157, 2.7022450488922303E-06, 3.1E-12
DataValue, 1.85, 3, 0, 5.6603400000000009E-06, -5.6570300000000006E-06, -6.0000000000000005E-15, 5.6603400000000009E-06, 0.0023791469059307796, 2.7748501226689621E-06, 6.0000000000000005E-15
DataValue, 1.9000000000000001, 3, 0, 6.0683100000000007E-06, -6.064040000000001E-06, 1.498E-12, 6.0683100000000007E-06, 0.0024633940001550707, 2.7872993989683972E-06, 1.498E-12
DataValue, 1.9500000000000002, 3, 0, 6.482620000000001E-06, -6.4807300000000009E-06, 1.055E-12, 6.482620000000001E-06, 0.0025460989768663748, 2.8035673947896505E-06, 1.055E-12
DataValue, 2, 3, 0, 6.92128E-06, -6.9185600000000007E-06, 1.6330000000000002E-12, 6.92128E-06, 0.002630832567838554, 2.8714784780270513E-06, 1.6330000000000002E-12
DataValue, 2.05, 3, 0, 7.3742300000000009E-06, -7.3700500000000007E-06, 9.1200000000000015E-13, 7.3742300000000009E-06, 0.0027155533506083066, 2.828022515854967E-06, 9.1200000000000015E-13
DataValue, 2.1, 3, 0, 7.8344E-06, -7.82994E-06, -9.27E-13, 7.8344E-06, 0.0027989998213647674, 2.8179159791493351E-06, 9.27E-13
DataValue, 2.15, 3, 0, 8.3141100000000013E-06, -8.30771E-06, 3.05E-13, 8.3141100000000013E-06, 0.0028834198445595815, 2.8617799925517925E-06, 3.05E-13
DataValue, 2.2, 3, 0, 8.81002E-06, -8.8094100000000014E-06, 4.0640000000000005E-12, 8.81002E-06, 0.0029681677850148568, 2.866035768391532E-06, 4.0640000000000005E-12
