
SetupTitle, Transfer sat
PrimitiveTest, I/V Sweep
TestParameter, Context.MainFrame, 4155C
TestParameter, Channel.UnitType, SMU, SMU, SMU
TestParameter, Channel.Unit, SMU1:MP, SMU3:MP, SMU4:MP
TestParameter, Channel.IName, ID, IS, IG
TestParameter, Channel.VName, VD, VS, VG
TestParameter, Channel.Mode, V, COMMON, V
TestParameter, Channel.Func, CONST, CONST, VAR1
TestParameter, Channel.Index, 
TestParameter, Channel.Time, 
TestParameter, Measurement.Port.Unit, SMU1:MP, SMU3:MP, SMU4:MP
TestParameter, Measurement.Port.SeriesResistor, NONE, NONE, NONE
TestParameter, Measurement.Port.Filter, ON, ON, ON
TestParameter, Measurement.Primary.Locus, Double
TestParameter, Measurement.Primary.Scale, LINEAR
TestParameter, Measurement.Primary.Start, -2
TestParameter, Measurement.Primary.Stop, 3
TestParameter, Measurement.Primary.Step, 0.05
TestParameter, Measurement.Primary.Compliance, 0.001
TestParameter, Measurement.Primary.PowerCompliance, 0
TestParameter, Measurement.Aborting.Condition, CONTINUE AT ANY
TestParameter, Measurement.PostOutput.Value, START
TestParameter, Measurement.PostOutput.Retention, OFF
TestParameter, Measurement.Bias.Source, 5, 0, -2
TestParameter, Measurement.Bias.Compliance, 0.001, 0.1, 0.001
TestParameter, Measurement.Monitor.Unit, SMU1:MP, SMU3:MP, SMU4:MP
TestParameter, Measurement.Monitor.Adc, HR ADC, HR ADC, HR ADC
TestParameter, Measurement.Monitor.RangingMode, AUTO, AUTO, AUTO
TestParameter, Measurement.Monitor.RangeBoundary, , , 
TestParameter, Measurement.Monitor.RangeRating, BY FULL RANGE, BY FULL RANGE, BY FULL RANGE
TestParameter, Measurement.Monitor.RangeRatingCoeff, 50, 50, 50
TestParameter, Measurement.Timing.Hold, 0.5
TestParameter, Measurement.Timing.Delay, 0.05
TestParameter, Measurement.Adc.HighResolution.AutoZero, OFF
TestParameter, Measurement.Adc.HighResolution.Mode, AUTO
TestParameter, Measurement.Adc.HighResolution.Coeff, 1
TestParameter, Measurement.Ag16440ASelector.SemiconductorRelay.Channel1, DEFAULT
TestParameter, Measurement.Ag16440ASelector.SemiconductorRelay.Channel3, DEFAULT
TestParameter, Function.User.Name, absID, sqrtID, gm2, absIG
TestParameter, Function.User.Unit, A, A, A/V, A
TestParameter, Function.User.Definition, abs(ID), sqrt(abs(ID)), (delta(sqrtID)/delta(VG))^2, abs(IG)
TestParameter, Output.Graph.Enabled, true
TestParameter, Output.Graph.XAxis.Data, VG
TestParameter, Output.Graph.XAxis.Scale, Linear
TestParameter, Output.Graph.XAxis.Left, -5
TestParameter, Output.Graph.XAxis.Right, 7
TestParameter, Output.Graph.YAxis.Data, ID, absIG, gm2
TestParameter, Output.Graph.YAxis.Scale, Log, Log, Linear
TestParameter, Output.Graph.YAxis.Bottom, 1E-14, 1E-14, 0
TestParameter, Output.Graph.YAxis.Top, 0.01, 0.01, 1E-05
TestParameter, Output.Graph.YAxis.Group, , , 
TestParameter, Output.List.Data, VG, IG, VD, ID, VS, IS, sqrtID, gm2, absIG
TestParameter, AutoAnalysis.Interpolation, false
TestParameter, AutoAnalysis.Line1.Enabled, false
TestParameter, AutoAnalysis.Line1.Type, 1
TestParameter, AutoAnalysis.Line1.Fix, True
TestParameter, AutoAnalysis.Line1.YAxis, 0
TestParameter, AutoAnalysis.Line1.Point1.Type, 0
TestParameter, AutoAnalysis.Line1.Point1.XY.X, 
TestParameter, AutoAnalysis.Line1.Point1.XY.Y, 
TestParameter, AutoAnalysis.Line1.Point1.Data.Var, 
TestParameter, AutoAnalysis.Line1.Point1.Data.Condition, 
TestParameter, AutoAnalysis.Line1.Point1.Data.Start, false
TestParameter, AutoAnalysis.Line1.Point1.Data.StartVar, 
TestParameter, AutoAnalysis.Line1.Point1.Data.StartCondition, 
TestParameter, AutoAnalysis.Line1.Point2.Type, 0
TestParameter, AutoAnalysis.Line1.Point2.XY.X, 
TestParameter, AutoAnalysis.Line1.Point2.XY.Y, 
TestParameter, AutoAnalysis.Line1.Point2.Data.Var, 
TestParameter, AutoAnalysis.Line1.Point2.Data.Condition, 
TestParameter, AutoAnalysis.Line1.Point2.Data.Start, false
TestParameter, AutoAnalysis.Line1.Point2.Data.StartVar, 
TestParameter, AutoAnalysis.Line1.Point2.Data.StartCondition, 
TestParameter, AutoAnalysis.Line1.GradientExpr, 0
TestParameter, AutoAnalysis.Line2.Enabled, false
TestParameter, AutoAnalysis.Line2.Type, 1
TestParameter, AutoAnalysis.Line2.Fix, True
TestParameter, AutoAnalysis.Line2.YAxis, 0
TestParameter, AutoAnalysis.Line2.Point1.Type, 0
TestParameter, AutoAnalysis.Line2.Point1.XY.X, 
TestParameter, AutoAnalysis.Line2.Point1.XY.Y, 
TestParameter, AutoAnalysis.Line2.Point1.Data.Var, 
TestParameter, AutoAnalysis.Line2.Point1.Data.Condition, 
TestParameter, AutoAnalysis.Line2.Point1.Data.Start, false
TestParameter, AutoAnalysis.Line2.Point1.Data.StartVar, 
TestParameter, AutoAnalysis.Line2.Point1.Data.StartCondition, 
TestParameter, AutoAnalysis.Line2.Point2.Type, 0
TestParameter, AutoAnalysis.Line2.Point2.XY.X, 
TestParameter, AutoAnalysis.Line2.Point2.XY.Y, 
TestParameter, AutoAnalysis.Line2.Point2.Data.Var, 
TestParameter, AutoAnalysis.Line2.Point2.Data.Condition, 
TestParameter, AutoAnalysis.Line2.Point2.Data.Start, false
TestParameter, AutoAnalysis.Line2.Point2.Data.StartVar, 
TestParameter, AutoAnalysis.Line2.Point2.Data.StartCondition, 
TestParameter, AutoAnalysis.Line2.GradientExpr, 0
TestParameter, AutoAnalysis.Marker.Enabled, false
TestParameter, AutoAnalysis.Marker.Data.Var, 
TestParameter, AutoAnalysis.Marker.Data.Condition, 
TestParameter, AutoAnalysis.Marker.Data.Start, false
TestParameter, AutoAnalysis.Marker.Data.StartVar, 
TestParameter, AutoAnalysis.Marker.Data.StartCondition, 
MetaData, TestRecord.EntryPoint, true
MetaData, TestRecord.RecordTime, 05/02/2019 10:01:36
MetaData, TestRecord.TestTarget, 250-300-10-10
MetaData, TestRecord.IterationIndex, 2
MetaData, TestRecord.Preservation, true
MetaData, TestRecord.Flag, 
MetaData, TestRecord.Remarks, good-after bad 2 wrong
MetaData, TestRecord.LinkKey, 9b4173ab-9d65-41ce-ae3b-18a257c7c6b6
Dimension1, 202, 202, 202, 202, 202, 202, 202, 202, 202, 202
Dimension2, 1, 1, 1, 1, 1, 1, 1, 1, 1, 1
DataName, VG, VD, VS, ID, IS, IG, absID, sqrtID, gm2, absIG
DataValue, -2, 5, 0, 1.0611300000000001E-10, -3.0560000000000003E-12, -9.7713E-11, 1.0611300000000001E-10, 1.0301116444347186E-05, 4.0226836726455977E-12, 9.7713E-11
DataValue, -1.9500000000000002, 5, 0, 1.0405700000000001E-10, -1.1897E-11, -8.6137000000000012E-11, 1.0405700000000001E-10, 1.0200833299294721E-05, 7.8142456228583123E-12, 8.6137000000000012E-11
DataValue, -1.9000000000000001, 5, 0, 1.0043200000000001E-10, -7.965E-12, -8.1466000000000008E-11, 1.0043200000000001E-10, 1.0021576722252843E-05, 7.0139235215124968E-12, 8.1466000000000008E-11
DataValue, -1.85, 5, 0, 9.8724E-11, -8.131E-12, -8.4816E-11, 9.8724E-11, 9.9359951690809518E-06, 1.2286942680283184E-12, 8.4816E-11
DataValue, -1.8, 5, 0, 1.0266600000000001E-10, -1.1195000000000002E-11, -8.9012E-11, 1.0266600000000001E-10, 1.0132423204742289E-05, 2.0361926391999971E-12, 8.9012E-11
DataValue, -1.75, 5, 0, 1.0158000000000001E-10, -1.1064E-11, -8.4101000000000008E-11, 1.0158000000000001E-10, 1.0078690391117291E-05, 2.3499352826424894E-12, 8.4101000000000008E-11
DataValue, -1.7000000000000002, 5, 0, 9.9583000000000007E-11, -9.066E-12, -7.7611E-11, 9.9583000000000007E-11, 9.97912821843672E-06, 2.7680580418077732E-12, 7.7611E-11
DataValue, -1.6500000000000001, 5, 0, 9.8254E-11, -1.2397E-11, -7.8662000000000007E-11, 9.8254E-11, 9.9123155720547964E-06, 1.1974292068973193E-12, 7.8662000000000007E-11
DataValue, -1.6, 5, 0, 9.7411000000000011E-11, -1.0340000000000002E-11, -8.3255E-11, 9.7411000000000011E-11, 9.8697011099627531E-06, 3.9685621102865554E-12, 8.3255E-11
DataValue, -1.55, 5, 0, 1.0224300000000001E-10, -1.3891E-11, -7.9576E-11, 1.0224300000000001E-10, 1.0111528074430691E-05, 1.2283275164318664E-12, 7.9576E-11
DataValue, -1.5, 5, 0, 9.9611000000000014E-11, -1.3196000000000002E-11, -8.0316E-11, 9.9611000000000014E-11, 9.9805310479953925E-06, 2.1532647749625733E-12, 8.0316E-11
DataValue, -1.4500000000000002, 5, 0, 9.9297000000000009E-11, -1.4262E-11, -7.6307E-11, 9.9297000000000009E-11, 9.96478800577313E-06, 2.4025245707967292E-13, 7.6307E-11
DataValue, -1.4000000000000001, 5, 0, 9.8635E-11, -1.7379E-11, -7.6498E-11, 9.8635E-11, 9.93151549361929E-06, 8.7691373007833534E-12, 7.6498E-11
DataValue, -1.35, 5, 0, 9.348300000000001E-11, -1.0620000000000001E-11, -7.9727E-11, 9.348300000000001E-11, 9.6686607138734574E-06, 1.8726153189421118E-14, 7.9727E-11
DataValue, -1.3, 5, 0, 9.8907000000000011E-11, -1.8543E-11, -7.2514000000000012E-11, 9.8907000000000011E-11, 9.94519984716245E-06, 1.1176687401828138E-11, 7.2514000000000012E-11
DataValue, -1.25, 5, 0, 8.713E-11, -7.529E-12, -7.4928E-11, 8.713E-11, 9.3343451832466533E-06, 1.6454651436032432E-12, 7.4928E-11
DataValue, -1.2, 5, 0, 9.6372E-11, -1.6295E-11, -6.609700000000001E-11, 9.6372E-11, 9.8169241618747367E-06, 4.101865019952731E-12, 6.609700000000001E-11
DataValue, -1.1500000000000001, 5, 0, 9.0952000000000011E-11, -1.5824000000000002E-11, -6.4382E-11, 9.0952000000000011E-11, 9.5368757987089265E-06, 3.5296896013405137E-13, 6.4382E-11
DataValue, -1.1, 5, 0, 9.7542000000000011E-11, -1.2962E-11, -6.9949E-11, 9.7542000000000011E-11, 9.87633535275104E-06, 1.9443656356721074E-11, 6.9949E-11
DataValue, -1.05, 5, 0, 9.9557E-11, -1.4024000000000001E-11, -9.3873000000000008E-11, 9.9557E-11, 9.9778254143876468E-06, 1.459608083038111E-12, 9.3873000000000008E-11
DataValue, -1, 5, 0, 9.9943E-11, -1.9909E-11, -7.293E-11, 9.9943E-11, 9.9971495937592136E-06, 1.7090965296798479E-11, 7.293E-11
DataValue, -0.95000000000000007, 5, 0, 9.1478000000000012E-11, -1.9087000000000002E-11, -5.853E-11, 9.1478000000000012E-11, 9.5644132073013239E-06, 1.9121867671800544E-11, 5.853E-11
DataValue, -0.9, 5, 0, 9.1391E-11, -2.3313E-11, -6.2588000000000009E-11, 9.1391E-11, 9.5598640157692628E-06, 2.28065859857969E-12, 6.2588000000000009E-11
DataValue, -0.85000000000000009, 5, 0, 8.8612000000000009E-11, -1.9380000000000002E-11, -6.4642E-11, 8.8612000000000009E-11, 9.41339471179234E-06, 2.9759472339956359E-13, 6.4642E-11
DataValue, -0.8, 5, 0, 9.2437E-11, -1.8937E-11, -4.9863E-11, 9.2437E-11, 9.614416258931168E-06, 1.0055512464991169E-13, 4.9863E-11
DataValue, -0.75, 5, 0, 8.8016E-11, -1.9196E-11, -6.1682E-11, 8.8016E-11, 9.38168428375204E-06, 7.7452881260621845E-12, 6.1682E-11
DataValue, -0.70000000000000007, 5, 0, 8.7163000000000012E-11, -2.0693E-11, -6.2293E-11, 8.7163000000000012E-11, 9.3361126814108245E-06, 2.0524369020494048E-13, 6.2293E-11
DataValue, -0.65, 5, 0, 8.7168E-11, -1.7975E-11, -5.8037000000000007E-11, 8.7168E-11, 9.3363804549729017E-06, 2.7050870594654738E-11, 5.8037000000000007E-11
DataValue, -0.6, 5, 0, 7.7722000000000008E-11, -2.4179000000000002E-11, -6.0484E-11, 7.7722000000000008E-11, 8.8160081669653644E-06, 2.6928075402068871E-11, 6.0484E-11
DataValue, -0.55, 5, 0, 9.7127E-11, -2.6818000000000003E-11, -5.1134000000000004E-11, 9.7127E-11, 9.8553031409490389E-06, 2.2252511655862634E-11, 5.1134000000000004E-11
DataValue, -0.5, 5, 0, 8.6262000000000012E-11, -2.866E-11, -4.7868E-11, 8.6262000000000012E-11, 9.2877338463157961E-06, 8.8778392791147247E-11, 4.7868E-11
DataValue, -0.45, 5, 0, 7.9443000000000012E-11, -2.5171E-11, -6.3848E-11, 7.9443000000000012E-11, 8.9130802756398419E-06, 1.8309226414501432E-13, 6.3848E-11
DataValue, -0.4, 5, 0, 8.5469000000000008E-11, -2.6360000000000003E-11, -5.0176000000000006E-11, 8.5469000000000008E-11, 9.2449445644633258E-06, 8.3920902183043415E-12, 5.0176000000000006E-11
DataValue, -0.35000000000000003, 5, 0, 8.4691E-11, -2.3506000000000003E-11, -5.8943E-11, 8.4691E-11, 9.20277132172695E-06, 1.9895279640133718E-14, 5.8943E-11
DataValue, -0.3, 5, 0, 8.5730000000000011E-11, -2.5571E-11, -4.9093E-11, 8.5730000000000011E-11, 9.25904962725657E-06, 3.5820898937747559E-13, 4.9093E-11
DataValue, -0.25, 5, 0, 8.3593E-11, -2.6457000000000002E-11, -3.7123000000000003E-11, 8.3593E-11, 9.1429207587072533E-06, 7.57213822630735E-12, 3.7123000000000003E-11
DataValue, -0.2, 5, 0, 8.0710000000000011E-11, -2.3463000000000002E-11, -5.8883000000000007E-11, 8.0710000000000011E-11, 8.9838744425776569E-06, 1.9038181470551285E-11, 5.8883000000000007E-11
DataValue, -0.15, 5, 0, 9.1762E-11, -3.1362E-11, -4.5001E-11, 9.1762E-11, 9.5792484047549371E-06, 7.305039682641839E-13, 4.5001E-11
DataValue, -0.1, 5, 0, 8.2253E-11, -2.6941000000000002E-11, -5.1316E-11, 8.2253E-11, 9.0693439674543159E-06, 1.3290434478097905E-14, 5.1316E-11
DataValue, -0.05, 5, 0, 9.1983E-11, -3.3848E-11, -4.3365000000000004E-11, 9.1983E-11, 9.5907768194239616E-06, 9.3829497562862536E-12, 4.3365000000000004E-11
DataValue, 0, 5, 0, 8.7903E-11, -3.5773E-11, -5.11E-11, 8.7903E-11, 9.3756599767696348E-06, 1.2527545818877738E-10, 5.11E-11
DataValue, 0.05, 5, 0, 1.14705E-10, -6.0108000000000008E-11, -3.9084000000000004E-11, 1.14705E-10, 1.0710042016724304E-05, 9.5623128458706188E-10, 3.9084000000000004E-11
DataValue, 0.1, 5, 0, 1.5545000000000002E-10, -9.3840000000000009E-11, -6.4043E-11, 1.5545000000000002E-10, 1.2467958934805649E-05, 1.9231625763719959E-09, 6.4043E-11
DataValue, 0.15, 5, 0, 2.2787200000000003E-10, -1.7728200000000002E-10, -5.1922000000000004E-11, 2.2787200000000003E-10, 1.509542977195416E-05, 6.1923521789768051E-09, 5.1922000000000004E-11
DataValue, 0.2, 5, 0, 4.1359800000000003E-10, -3.50503E-10, -3.9669E-11, 4.1359800000000003E-10, 2.0337108939079812E-05, 1.3933120294776785E-08, 3.9669E-11
DataValue, 0.25, 5, 0, 7.23572E-10, -6.42429E-10, -4.2418E-11, 7.23572E-10, 2.6899293671024152E-05, 1.9497861023559215E-08, 4.2418E-11
DataValue, 0.3, 5, 0, 1.17653E-09, -1.09475E-09, -3.5814000000000006E-11, 1.17653E-09, 3.4300583085422909E-05, 3.2182669333076848E-08, 3.5814000000000006E-11
DataValue, 0.35000000000000003, 5, 0, 2.01052E-09, -1.94532E-09, -3.5256E-11, 2.01052E-09, 4.48388224644671E-05, 4.9201669996501549E-08, 3.5256E-11
DataValue, 0.4, 5, 0, 3.19022E-09, -3.11271E-09, -3.4066E-11, 3.19022E-09, 5.6482032541331235E-05, 5.7774982683755204E-08, 3.4066E-11
DataValue, 0.45, 5, 0, 4.7438E-09, -4.60819E-09, -3.2106000000000004E-11, 4.7438E-09, 6.8875249545827423E-05, 5.0258799567392166E-08, 3.2106000000000004E-11
DataValue, 0.5, 5, 0, 6.22529E-09, -6.16218E-09, -2.976E-11, 6.22529E-09, 7.8900506969220422E-05, 7.1520213225542043E-08, 2.976E-11
DataValue, 0.55, 5, 0, 9.1429E-09, -8.84607E-09, -2.7384000000000002E-11, 9.1429E-09, 9.5618512851853126E-05, 8.37288812872102E-08, 2.7384000000000002E-11
DataValue, 0.6, 5, 0, 1.1628699999999998E-08, -1.11174E-08, -2.6695E-11, 1.1628699999999998E-08, 0.00010783645023831227, 6.7812574681856774E-08, 2.6695E-11
DataValue, 0.65, 5, 0, 1.4800999999999998E-08, -1.4352099999999999E-08, -2.1719E-11, 1.4800999999999998E-08, 0.00012165936051122411, 7.98140982805736E-08, 2.1719E-11
DataValue, 0.70000000000000007, 5, 0, 1.8519899999999998E-08, -1.8394899999999998E-08, -1.8419E-11, 1.8519899999999998E-08, 0.00013608783928037067, 8.3148547771614864E-08, 1.8419E-11
DataValue, 0.75, 5, 0, 2.2648699999999997E-08, -2.2416799999999997E-08, -1.9217000000000003E-11, 2.2648699999999997E-08, 0.00015049485041023828, 8.2385860164222141E-08, 1.9217000000000003E-11
DataValue, 0.8, 5, 0, 2.7156E-08, -2.6615999999999998E-08, -1.7863E-11, 2.7156E-08, 0.00016479077644091612, 9.96888638558713E-08, 1.7863E-11
DataValue, 0.85000000000000009, 5, 0, 3.3148899999999996E-08, -3.16947E-08, -1.5793E-11, 3.3148899999999996E-08, 0.00018206839374257136, 7.7766660003807342E-08, 1.5793E-11
DataValue, 0.9, 5, 0, 3.7124599999999995E-08, -3.7129099999999993E-08, -1.4110000000000002E-11, 3.7124599999999995E-08, 0.00019267745067858873, 8.9953270881860809E-08, 1.4110000000000002E-11
DataValue, 0.95000000000000007, 5, 0, 4.4969699999999995E-08, -4.4365999999999995E-08, -1.4225000000000001E-11, 4.4969699999999995E-08, 0.00021206060454502152, 1.2210332723845188E-07, 1.4225000000000001E-11
DataValue, 1, 5, 0, 5.18112E-08, -5.13737E-08, -1.3813000000000002E-11, 5.18112E-08, 0.00022762073719237444, 9.5461219641504807E-08, 1.3813000000000002E-11
DataValue, 1.05, 5, 0, 5.9028299999999994E-08, -5.8258299999999994E-08, -9.17E-12, 5.9028299999999994E-08, 0.00024295740367397738, 1.0632696772467861E-07, 9.17E-12
DataValue, 1.1, 5, 0, 6.77189E-08, -6.7501199999999988E-08, -1.1069000000000001E-11, 6.77189E-08, 0.00026022855339105275, 1.0777503295400449E-07, 1.1069000000000001E-11
DataValue, 1.1500000000000001, 5, 0, 7.605819999999999E-08, -7.59046E-08, -9.8100000000000012E-12, 7.605819999999999E-08, 0.00027578651163535895, 1.0062281726980139E-07, 9.8100000000000012E-12
DataValue, 1.2, 5, 0, 8.5234599999999987E-08, -8.4067E-08, -8.133E-12, 8.5234599999999987E-08, 0.00029194965319383404, 1.1306206798619655E-07, 8.133E-12
DataValue, 1.25, 5, 0, 9.5735299999999993E-08, -9.55753E-08, -6.9800000000000006E-12, 9.5735299999999993E-08, 0.00030941121505207272, 1.1980951216698759E-07, 6.9800000000000006E-12
DataValue, 1.3, 5, 0, 1.0664349999999999E-07, -1.056309E-07, -4.6710000000000006E-12, 1.0664349999999999E-07, 0.00032656316387492327, 1.0372903912471824E-07, 4.6710000000000006E-12
DataValue, 1.35, 5, 0, 1.16703E-07, -1.13538E-07, -6.7510000000000006E-12, 1.16703E-07, 0.00034161820794565383, 7.9175373505790725E-08, 6.7510000000000006E-12
DataValue, 1.4000000000000001, 5, 0, 1.25813E-07, -1.26146E-07, -6.4820000000000009E-12, 1.25813E-07, 0.00035470128277185575, 9.3887763871136051E-08, 6.4820000000000009E-12
DataValue, 1.4500000000000002, 5, 0, 1.3857699999999998E-07, -1.37392E-07, -4.2900000000000005E-12, 1.3857699999999998E-07, 0.00037225931821782514, 1.1708531787269989E-07, 4.2900000000000005E-12
DataValue, 1.5, 5, 0, 1.51258E-07, -1.50721E-07, -3.635E-12, 1.51258E-07, 0.00038891901470614672, 1.1811783631471921E-07, 3.635E-12
DataValue, 1.55, 5, 0, 1.65346E-07, -1.64999E-07, -3.984E-12, 1.65346E-07, 0.00040662759375133408, 1.2907378103145955E-07, 3.984E-12
DataValue, 1.6, 5, 0, 1.80494E-07, -1.81988E-07, -4.6600000000000007E-12, 1.80494E-07, 0.00042484585439898079, 1.6500379749117357E-07, 4.6600000000000007E-12
DataValue, 1.6500000000000001, 5, 0, 2.00031E-07, -1.95715E-07, 2.211E-12, 2.00031E-07, 0.00044724825321067495, 1.2422411034774616E-07, 2.211E-12
DataValue, 1.7000000000000002, 5, 0, 2.11684E-07, -2.11173E-07, 4.925E-12, 2.11684E-07, 0.00046009129528822864, 8.4964322236766761E-08, 4.925E-12
DataValue, 1.75, 5, 0, 2.26954E-07, -2.23902E-07, 4.9840000000000006E-12, 2.26954E-07, 0.00047639689335678923, 1.0908059598130867E-07, 4.9840000000000006E-12
DataValue, 1.8, 5, 0, 2.4316599999999997E-07, -2.4181599999999997E-07, 4.446E-12, 2.4316599999999997E-07, 0.00049311864698062269, 2.6515336383551594E-08, 4.446E-12
DataValue, 1.85, 5, 0, 2.42734E-07, -2.41994E-07, 5.5360000000000006E-12, 2.42734E-07, 0.00049268042380431554, 3.3060818158099867E-08, 5.5360000000000006E-12
DataValue, 1.9000000000000001, 5, 0, 2.61429E-07, -2.6067599999999997E-07, 8.749E-12, 2.61429E-07, 0.00051130128104670341, 2.9357376159805289E-07, 8.749E-12
DataValue, 1.9500000000000002, 5, 0, 2.99059E-07, -2.9594499999999997E-07, 1.2008000000000001E-11, 2.99059E-07, 0.00054686287129407493, 1.0995194248849247E-07, 1.2008000000000001E-11
DataValue, 2, 5, 0, 2.96437E-07, -2.96707E-07, 1.3931000000000001E-11, 2.96437E-07, 0.00054446028321632428, 9.1331960234465E-08, 1.3931000000000001E-11
DataValue, 2.05, 5, 0, 3.33026E-07, -3.2981799999999997E-07, 1.6231E-11, 3.33026E-07, 0.0005770840493377026, 2.442353809269343E-07, 1.6231E-11
DataValue, 2.1, 5, 0, 3.5269399999999997E-07, -3.57244E-07, 1.8139000000000003E-11, 3.5269399999999997E-07, 0.00059388045935188, 1.9183692640121727E-07, 1.8139000000000003E-11
DataValue, 2.15, 5, 0, 3.85496E-07, -3.83709E-07, 2.2952000000000003E-11, 3.85496E-07, 0.00062088324184181364, 1.8634938719295479E-07, 2.2952000000000003E-11
DataValue, 2.2, 5, 0, 4.05831E-07, -4.03406E-07, 2.4771E-11, 4.05831E-07, 0.0006370486637612546, 1.2261301085221358E-07, 2.4771E-11
DataValue, 2.25, 5, 0, 4.30204E-07, -4.28032E-07, 2.6796000000000002E-11, 4.30204E-07, 0.00065589938252753367, 1.6028433406388593E-07, 2.6796000000000002E-11
DataValue, 2.3000000000000003, 5, 0, 4.58443E-07, -4.50804E-07, 3.0706E-11, 4.58443E-07, 0.00067708418974304809, 1.3512965277879436E-07, 3.0706E-11
