
SetupTitle, Transfer sat
PrimitiveTest, I/V Sweep
TestParameter, Context.MainFrame, 4155C
TestParameter, Channel.UnitType, SMU, SMU, SMU
TestParameter, Channel.Unit, SMU3:MP, SMU1:MP, SMU4:MP
TestParameter, Channel.IName, ID, IS, IG
TestParameter, Channel.VName, VD, VS, VG
TestParameter, Channel.Mode, V, COMMON, V
TestParameter, Channel.Func, CONST, CONST, VAR1
TestParameter, Channel.Index, 
TestParameter, Channel.Time, 
TestParameter, Measurement.Port.Unit, SMU3:MP, SMU1:MP, SMU4:MP
TestParameter, Measurement.Port.SeriesResistor, NONE, NONE, NONE
TestParameter, Measurement.Port.Filter, ON, ON, ON
TestParameter, Measurement.Primary.Locus, Double
TestParameter, Measurement.Primary.Scale, LINEAR
TestParameter, Measurement.Primary.Start, -2
TestParameter, Measurement.Primary.Stop, 3
TestParameter, Measurement.Primary.Step, 0.05
TestParameter, Measurement.Primary.Compliance, 0.001
TestParameter, Measurement.Primary.PowerCompliance, 0
TestParameter, Measurement.Aborting.Condition, CONTINUE AT ANY
TestParameter, Measurement.PostOutput.Value, START
TestParameter, Measurement.PostOutput.Retention, OFF
TestParameter, Measurement.Bias.Source, 5, 0, -2
TestParameter, Measurement.Bias.Compliance, 0.001, 0.1, 0.001
TestParameter, Measurement.Monitor.Unit, SMU3:MP, SMU1:MP, SMU4:MP
TestParameter, Measurement.Monitor.Adc, HR ADC, HR ADC, HR ADC
TestParameter, Measurement.Monitor.RangingMode, AUTO, AUTO, AUTO
TestParameter, Measurement.Monitor.RangeBoundary, , , 
TestParameter, Measurement.Monitor.RangeRating, BY FULL RANGE, BY FULL RANGE, BY FULL RANGE
TestParameter, Measurement.Monitor.RangeRatingCoeff, 50, 50, 50
TestParameter, Measurement.Timing.Hold, 0.5
TestParameter, Measurement.Timing.Delay, 0.05
TestParameter, Measurement.Adc.HighResolution.AutoZero, OFF
TestParameter, Measurement.Adc.HighResolution.Mode, AUTO
TestParameter, Measurement.Adc.HighResolution.Coeff, 1
TestParameter, Measurement.Ag16440ASelector.SemiconductorRelay.Channel1, DEFAULT
TestParameter, Measurement.Ag16440ASelector.SemiconductorRelay.Channel3, DEFAULT
TestParameter, Function.User.Name, absID, sqrtID, gm2, absIG
TestParameter, Function.User.Unit, A, A, A/V, A
TestParameter, Function.User.Definition, abs(ID), sqrt(abs(ID)), (delta(sqrtID)/delta(VG))^2, abs(IG)
TestParameter, Output.Graph.Enabled, true
TestParameter, Output.Graph.XAxis.Data, VG
TestParameter, Output.Graph.XAxis.Scale, Linear
TestParameter, Output.Graph.XAxis.Left, -5
TestParameter, Output.Graph.XAxis.Right, 7
TestParameter, Output.Graph.YAxis.Data, ID, absIG, gm2
TestParameter, Output.Graph.YAxis.Scale, Log, Log, Linear
TestParameter, Output.Graph.YAxis.Bottom, 1E-14, 1E-14, 0
TestParameter, Output.Graph.YAxis.Top, 0.01, 0.01, 1E-05
TestParameter, Output.Graph.YAxis.Group, , , 
TestParameter, Output.List.Data, VG, IG, VD, ID, VS, IS, sqrtID, gm2, absIG
TestParameter, AutoAnalysis.Interpolation, false
TestParameter, AutoAnalysis.Line1.Enabled, false
TestParameter, AutoAnalysis.Line1.Type, 1
TestParameter, AutoAnalysis.Line1.Fix, True
TestParameter, AutoAnalysis.Line1.YAxis, 0
TestParameter, AutoAnalysis.Line1.Point1.Type, 0
TestParameter, AutoAnalysis.Line1.Point1.XY.X, 
TestParameter, AutoAnalysis.Line1.Point1.XY.Y, 
TestParameter, AutoAnalysis.Line1.Point1.Data.Var, 
TestParameter, AutoAnalysis.Line1.Point1.Data.Condition, 
TestParameter, AutoAnalysis.Line1.Point1.Data.Start, false
TestParameter, AutoAnalysis.Line1.Point1.Data.StartVar, 
TestParameter, AutoAnalysis.Line1.Point1.Data.StartCondition, 
TestParameter, AutoAnalysis.Line1.Point2.Type, 0
TestParameter, AutoAnalysis.Line1.Point2.XY.X, 
TestParameter, AutoAnalysis.Line1.Point2.XY.Y, 
TestParameter, AutoAnalysis.Line1.Point2.Data.Var, 
TestParameter, AutoAnalysis.Line1.Point2.Data.Condition, 
TestParameter, AutoAnalysis.Line1.Point2.Data.Start, false
TestParameter, AutoAnalysis.Line1.Point2.Data.StartVar, 
TestParameter, AutoAnalysis.Line1.Point2.Data.StartCondition, 
TestParameter, AutoAnalysis.Line1.GradientExpr, 0
TestParameter, AutoAnalysis.Line2.Enabled, false
TestParameter, AutoAnalysis.Line2.Type, 1
TestParameter, AutoAnalysis.Line2.Fix, True
TestParameter, AutoAnalysis.Line2.YAxis, 0
TestParameter, AutoAnalysis.Line2.Point1.Type, 0
TestParameter, AutoAnalysis.Line2.Point1.XY.X, 
TestParameter, AutoAnalysis.Line2.Point1.XY.Y, 
TestParameter, AutoAnalysis.Line2.Point1.Data.Var, 
TestParameter, AutoAnalysis.Line2.Point1.Data.Condition, 
TestParameter, AutoAnalysis.Line2.Point1.Data.Start, false
TestParameter, AutoAnalysis.Line2.Point1.Data.StartVar, 
TestParameter, AutoAnalysis.Line2.Point1.Data.StartCondition, 
TestParameter, AutoAnalysis.Line2.Point2.Type, 0
TestParameter, AutoAnalysis.Line2.Point2.XY.X, 
TestParameter, AutoAnalysis.Line2.Point2.XY.Y, 
TestParameter, AutoAnalysis.Line2.Point2.Data.Var, 
TestParameter, AutoAnalysis.Line2.Point2.Data.Condition, 
TestParameter, AutoAnalysis.Line2.Point2.Data.Start, false
TestParameter, AutoAnalysis.Line2.Point2.Data.StartVar, 
TestParameter, AutoAnalysis.Line2.Point2.Data.StartCondition, 
TestParameter, AutoAnalysis.Line2.GradientExpr, 0
TestParameter, AutoAnalysis.Marker.Enabled, false
TestParameter, AutoAnalysis.Marker.Data.Var, 
TestParameter, AutoAnalysis.Marker.Data.Condition, 
TestParameter, AutoAnalysis.Marker.Data.Start, false
TestParameter, AutoAnalysis.Marker.Data.StartVar, 
TestParameter, AutoAnalysis.Marker.Data.StartCondition, 
MetaData, TestRecord.EntryPoint, true
MetaData, TestRecord.RecordTime, 05/02/2019 16:26:23
MetaData, TestRecord.TestTarget, br-br-10-5
MetaData, TestRecord.IterationIndex, 1
MetaData, TestRecord.Preservation, true
MetaData, TestRecord.Flag, 
MetaData, TestRecord.Remarks, good
MetaData, TestRecord.LinkKey, 9ee4bae6-ca6f-4956-ad70-0c051b340f0c
Dimension1, 202, 202, 202, 202, 202, 202, 202, 202, 202, 202
Dimension2, 1, 1, 1, 1, 1, 1, 1, 1, 1, 1
DataName, VG, VD, VS, ID, IS, IG, absID, sqrtID, gm2, absIG
DataValue, -2, 5, 0, 1.02E-12, -2.56E-13, 1.379E-12, 1.02E-12, 1.0099504938362078E-06, 5.1494307196738646E-11, 1.379E-12
DataValue, -1.9500000000000002, 5, 0, -4.24E-13, 3.54E-13, 1.122E-12, 4.24E-13, 6.5115282384398826E-07, 1.3320300890737428E-11, 1.122E-12
DataValue, -1.9000000000000001, 5, 0, 4.1600000000000004E-13, 1.113E-12, -8.21E-13, 4.1600000000000004E-13, 6.44980619863884E-07, 1.9951808977691695E-12, 8.21E-13
DataValue, -1.85, 5, 0, -2.6E-13, 6.7500000000000005E-13, -8.1400000000000007E-13, 2.6E-13, 5.0990195135927852E-07, 1.5522229848243076E-11, 8.1400000000000007E-13
DataValue, -1.8, 5, 0, -6.3000000000000009E-14, -4.5000000000000004E-14, -6.9900000000000005E-13, 6.3000000000000009E-14, 2.5099800796022268E-07, 1.8037291773726294E-12, 6.9900000000000005E-13
DataValue, -1.75, 5, 0, -4.1500000000000005E-13, -6.29E-13, -1.602E-12, 4.1500000000000005E-13, 6.4420493633625633E-07, 8.0014265342493088E-14, 1.602E-12
DataValue, -1.7000000000000002, 5, 0, -7.8000000000000008E-14, -2.5E-13, 3.2100000000000005E-13, 7.8000000000000008E-14, 2.7928480087537884E-07, 1.8197230527829276E-12, 3.2100000000000005E-13
DataValue, -1.6500000000000001, 5, 0, 6.07E-13, -6.77E-13, 5.9600000000000009E-13, 6.07E-13, 7.7910204723129822E-07, 3.014785823361661E-14, 5.9600000000000009E-13
DataValue, -1.6, 5, 0, 8.8E-14, -6.5E-14, 1.364E-12, 8.8E-14, 2.9664793948382653E-07, 4.8240858952428204E-12, 1.364E-12
DataValue, -1.55, 5, 0, 3.1300000000000003E-13, 8.9E-13, 2.24E-13, 3.1300000000000003E-13, 5.5946402922797464E-07, 1.9380896624015689E-11, 2.24E-13
DataValue, -1.5, 5, 0, 5.43E-13, 4.5700000000000007E-13, -6.84E-13, 5.43E-13, 7.3688533707762162E-07, 3.2873541361450758E-12, 6.84E-13
DataValue, -1.4500000000000002, 5, 0, 1.4300000000000002E-13, -8.1100000000000008E-13, 1.9700000000000002E-13, 1.4300000000000002E-13, 3.7815340802378078E-07, 5.1077693251156378E-12, 1.9700000000000002E-13
DataValue, -1.4000000000000001, 5, 0, -2.61E-13, 9.0000000000000008E-14, 7.77E-13, 2.61E-13, 5.10881590977792E-07, 1.4953651800653804E-11, 7.77E-13
DataValue, -1.35, 5, 0, -5.85E-13, 8.65E-13, -9.76E-13, 5.85E-13, 7.6485292703891778E-07, 1.8251315890734972E-11, 9.76E-13
DataValue, -1.3, 5, 0, 7E-15, -1.36E-13, -7.94E-13, 7E-15, 8.3666002653407552E-08, 2.8125217770695756E-11, 7.94E-13
DataValue, -1.25, 5, 0, 5.5000000000000005E-14, -5.5200000000000007E-13, 4.77E-13, 5.5000000000000005E-14, 2.3452078799117149E-07, 3.1929952077044135E-10, 4.77E-13
DataValue, -1.2, 5, 0, 3.4990000000000003E-12, 2.73E-13, -2.8E-14, 3.4990000000000003E-12, 1.8705614130522421E-06, 2.2166743898688241E-12, 2.8E-14
DataValue, -1.1500000000000001, 5, 0, -1.47E-13, -7.590000000000001E-13, 4.8000000000000008E-13, 1.47E-13, 3.8340579025361627E-07, 4.9432922486138063E-11, 4.8000000000000008E-13
DataValue, -1.1, 5, 0, 1.3630000000000002E-12, 9.0600000000000008E-13, 1.905E-12, 1.3630000000000002E-12, 1.1674759098157016E-06, 7.3334877973763818E-13, 1.905E-12
DataValue, -1.05, 5, 0, 2.2000000000000002E-13, 1.0000000000000002E-14, -1.283E-12, 2.2000000000000002E-13, 4.69041575982343E-07, 2.6988216909683338E-13, 1.283E-12
DataValue, -1, 5, 0, -1.487E-12, -5.87E-13, -8.3600000000000007E-13, 1.487E-12, 1.2194260945215171E-06, 1.0532598244863743E-10, 8.3600000000000007E-13
DataValue, -0.95000000000000007, 5, 0, -2.236E-12, -7.830000000000001E-13, 7.6E-14, 2.236E-12, 1.4953260514014996E-06, 1.0769604983751453E-10, 7.6E-14
DataValue, -0.9, 5, 0, 3.3000000000000005E-14, -8E-15, 1.2840000000000002E-12, 3.3000000000000005E-14, 1.8165902124584951E-07, 1.1703011684326702E-10, 1.2840000000000002E-12
DataValue, -0.85000000000000009, 5, 0, -1.71E-13, 6.2100000000000008E-13, -4.0000000000000006E-14, 1.71E-13, 4.1352146256270667E-07, 7.146910979090698E-15, 4.0000000000000006E-14
DataValue, -0.8, 5, 0, -3.0000000000000005E-14, 6.63E-13, -1.2600000000000002E-13, 3.0000000000000005E-14, 1.7320508075688775E-07, 5.5740286267432749E-12, 1.2600000000000002E-13
DataValue, -0.75, 5, 0, 4.22E-13, 5.3E-14, -1.02E-12, 4.22E-13, 6.4961527075646862E-07, 3.3615521856859028E-11, 1.02E-12
DataValue, -0.70000000000000007, 5, 0, 5.67E-13, -3.6000000000000003E-13, 7.9E-14, 5.67E-13, 7.52994023880668E-07, 3.4382944566330365E-11, 7.9E-14
DataValue, -0.65, 5, 0, 4E-15, 1.0100000000000001E-13, 1.0040000000000002E-12, 4E-15, 6.3245553203367584E-08, 9.0800029403117224E-12, 1.0040000000000002E-12
DataValue, -0.6, 5, 0, -2.0400000000000001E-13, 1.3900000000000001E-13, -2.7700000000000003E-13, 2.0400000000000001E-13, 4.5166359162544861E-07, 4.4373949924263379E-11, 2.7700000000000003E-13
DataValue, -0.55, 5, 0, -5.3200000000000006E-13, 3.7000000000000004E-13, 9.5000000000000012E-14, 5.3200000000000006E-13, 7.2938330115241876E-07, 1.2130773364151545E-10, 9.5000000000000012E-14
DataValue, -0.5, 5, 0, 2.4120000000000002E-12, -2.1000000000000001E-13, -2.95E-13, 2.4120000000000002E-12, 1.5530614926653743E-06, 4.7720934275211713E-13, 2.95E-13
DataValue, -0.45, 5, 0, -4.36E-13, -2.84E-13, -2.4000000000000004E-13, 4.36E-13, 6.603029607687671E-07, 1.6001346469998979E-10, 2.4000000000000004E-13
DataValue, -0.4, 5, 0, 8.3000000000000012E-14, 1.89E-13, 7.8600000000000008E-13, 8.3000000000000012E-14, 2.8809720581775871E-07, 2.6562602057750906E-11, 7.8600000000000008E-13
DataValue, -0.35000000000000003, 5, 0, 2.1000000000000002E-14, 1.41E-13, -3.8400000000000003E-13, 2.1000000000000002E-14, 1.449137674618944E-07, 8.83642444763938E-13, 3.8400000000000003E-13
DataValue, -0.3, 5, 0, 1.46E-13, 1.2100000000000002E-13, -2.38E-13, 1.46E-13, 3.8209946349085604E-07, 1.8750074627031905E-11, 2.38E-13
DataValue, -0.25, 5, 0, 3.3400000000000004E-13, 1.0500000000000001E-13, 2.7600000000000004E-13, 3.3400000000000004E-13, 5.7792733107199562E-07, 1.0208684291874437E-10, 2.7600000000000004E-13
DataValue, -0.2, 5, 0, 1.939E-12, -1.34E-13, -2.8600000000000004E-13, 1.939E-12, 1.3924798023669859E-06, 4.6760636315156667E-11, 2.8600000000000004E-13
DataValue, -0.15, 5, 0, -1.592E-12, -5.3E-14, 3.6000000000000004E-14, 1.592E-12, 1.2617448236470004E-06, 3.393546378031853E-11, 3.6000000000000004E-14
DataValue, -0.1, 5, 0, 6.56E-13, -3.1100000000000004E-13, 5.4000000000000003E-14, 6.56E-13, 8.0993826925266345E-07, 3.9868659934741194E-12, 5.4000000000000003E-14
DataValue, -0.05, 5, 0, -1.128E-12, -1.258E-12, -1.58E-13, 1.128E-12, 1.0620734437881403E-06, 7.82799096605132E-11, 1.58E-13
DataValue, 0, 5, 0, 2.8720000000000003E-12, -2.456E-12, 4.1800000000000004E-13, 2.8720000000000003E-12, 1.6946976131451888E-06, 7.3273344023737215E-11, 4.1800000000000004E-13
DataValue, 0.05, 5, 0, 3.679E-12, -4.746E-12, 2.8900000000000003E-13, 3.679E-12, 1.9180719485983837E-06, 1.5365648662313422E-10, 2.8900000000000003E-13
DataValue, 0.1, 5, 0, 8.61E-12, -7.9150000000000009E-12, 1.89E-13, 8.61E-12, 2.934280150224242E-06, 3.4808709272015087E-10, 1.89E-13
DataValue, 0.15, 5, 0, 1.4317E-11, -1.3322000000000002E-11, -3.3400000000000004E-13, 1.4317E-11, 3.7837811776052803E-06, 4.5659758064614477E-10, 3.3400000000000004E-13
DataValue, 0.2, 5, 0, 2.5716E-11, -2.1699E-11, -6.7300000000000006E-13, 2.5716E-11, 5.0710945564049586E-06, 5.7304686226695937E-10, 6.7300000000000006E-13
DataValue, 0.25, 5, 0, 3.8163E-11, -3.5737000000000004E-11, 1.7800000000000002E-13, 3.8163E-11, 6.1776209012855427E-06, 5.8678728422116406E-10, 1.7800000000000002E-13
DataValue, 0.3, 5, 0, 5.6152000000000005E-11, -5.4237000000000005E-11, 3.4900000000000003E-13, 5.6152000000000005E-11, 7.4934638185554751E-06, 1.1223006307500357E-09, 3.4900000000000003E-13
DataValue, 0.35000000000000003, 5, 0, 9.0777000000000009E-11, -8.5093E-11, -1.8600000000000002E-13, 9.0777000000000009E-11, 9.5276964687168751E-06, 1.5968092919556749E-09, 1.8600000000000002E-13
DataValue, 0.4, 5, 0, 1.32008E-10, -1.22746E-10, -3.1000000000000004E-13, 1.32008E-10, 1.1489473443113049E-05, 2.3411890239469693E-09, 3.1000000000000004E-13
DataValue, 0.45, 5, 0, 2.0639000000000002E-10, -1.86148E-10, 9.0900000000000006E-13, 2.0639000000000002E-10, 1.4366279963859817E-05, 3.289239410461634E-09, 9.0900000000000006E-13
DataValue, 0.5, 5, 0, 2.9668900000000003E-10, -2.71882E-10, 8.3100000000000009E-13, 2.9668900000000003E-10, 1.7224662551121286E-05, 3.8389705677073315E-09, 8.3100000000000009E-13
DataValue, 0.55, 5, 0, 4.22805E-10, -4.0073900000000005E-10, 3.4240000000000004E-12, 4.22805E-10, 2.056222264250633E-05, 5.4002450557333219E-09, 3.4240000000000004E-12
DataValue, 0.6, 5, 0, 6.03847E-10, -5.8256900000000008E-10, 4.0200000000000005E-13, 6.03847E-10, 2.4573298516886171E-05, 7.3058595730814982E-09, 4.0200000000000005E-13
DataValue, 0.65, 5, 0, 8.4737200000000006E-10, -7.9162700000000006E-10, -8.1100000000000008E-13, 8.4737200000000006E-10, 2.9109654755767889E-05, 6.9653126257836137E-09, 8.1100000000000008E-13
DataValue, 0.70000000000000007, 5, 0, 1.08367E-09, -1.01716E-09, -7.73E-13, 1.08367E-09, 3.2919143366740274E-05, 1.2013876891349289E-08, 7.73E-13
DataValue, 0.75, 5, 0, 1.60564E-09, -1.53358E-09, 1.395E-12, 1.60564E-09, 4.0070437981135173E-05, 2.1158923119147512E-08, 1.395E-12
DataValue, 0.8, 5, 0, 2.25295E-09, -2.22336E-09, -9.65E-13, 2.25295E-09, 4.7465250447037566E-05, 2.5806493729570463E-08, 9.65E-13
DataValue, 0.85000000000000009, 5, 0, 3.15112E-09, -3.02943E-09, 5.88E-13, 3.15112E-09, 5.6134837667886778E-05, 3.080179430314985E-08, 5.88E-13
DataValue, 0.9, 5, 0, 4.22704E-09, -4.14954E-09, 2.7800000000000003E-13, 4.22704E-09, 6.5015690413930088E-05, 3.0759167793073965E-08, 2.7800000000000003E-13
DataValue, 0.95000000000000007, 5, 0, 5.42773E-09, -5.4534E-09, 8.3900000000000006E-13, 5.42773E-09, 7.3673129429935313E-05, 3.7458083480394604E-08, 8.3900000000000006E-13
DataValue, 1, 5, 0, 7.11826E-09, -6.98338E-09, -3.15E-13, 7.11826E-09, 8.4369781320091136E-05, 5.3654945465963861E-08, 3.15E-13
DataValue, 1.05, 5, 0, 9.37734E-09, -9.21136E-09, 8.25E-13, 9.37734E-09, 9.6836666609296292E-05, 4.1103101341753339E-08, 8.25E-13
DataValue, 1.1, 5, 0, 1.0950299999999999E-08, -1.0708699999999999E-08, 2.9900000000000004E-13, 1.0950299999999999E-08, 0.00010464368112791139, 4.8704863945031229E-08, 2.9900000000000004E-13
DataValue, 1.1500000000000001, 5, 0, 1.4138599999999998E-08, -1.3875799999999999E-08, -4.12E-13, 1.4138599999999998E-08, 0.00011890584510443546, 7.5309927362177475E-08, 4.12E-13
DataValue, 1.2, 5, 0, 1.74468E-08, -1.7233099999999998E-08, 9.52E-13, 1.74468E-08, 0.00013208633540226635, 8.0034008743903963E-08, 9.52E-13
DataValue, 1.25, 5, 0, 2.16667E-08, -2.1485999999999998E-08, -2.4000000000000004E-13, 2.16667E-08, 0.00014719612766645731, 9.1405912726642384E-08, 2.4000000000000004E-13
DataValue, 1.3, 5, 0, 2.63477E-08, -2.58047E-08, 4.4400000000000003E-13, 2.63477E-08, 0.00016231974618018596, 1.1005174110567956E-07, 4.4400000000000003E-13
DataValue, 1.35, 5, 0, 3.25334E-08, -3.2090899999999994E-08, 3.54E-13, 3.25334E-08, 0.00018037017491813882, 1.1833497637323361E-07, 3.54E-13
DataValue, 1.4000000000000001, 5, 0, 3.86986E-08, -3.8212199999999996E-08, -7.8000000000000008E-14, 3.86986E-08, 0.000196719597396904, 1.1945576025332972E-07, 7.8000000000000008E-14
DataValue, 1.4500000000000002, 5, 0, 4.6196E-08, -4.5519899999999995E-08, 7.4E-14, 4.6196E-08, 0.00021493254755853056, 1.2144354493796757E-07, 7.4E-14
DataValue, 1.5, 5, 0, 5.3623899999999992E-08, -5.3040699999999995E-08, 6.9400000000000007E-13, 5.3623899999999992E-08, 0.00023156834844166417, 1.3861097531649919E-07, 6.9400000000000007E-13
DataValue, 1.55, 5, 0, 6.35862E-08, -6.1856699999999993E-08, -1.9000000000000002E-13, 6.35862E-08, 0.00025216304249433538, 1.3698049696155545E-07, 1.9000000000000002E-13
DataValue, 1.6, 5, 0, 7.2134799999999993E-08, -7.15949E-08, -2.2000000000000002E-13, 7.2134799999999993E-08, 0.00026857922481085539, 1.3035379191882739E-07, 2.2000000000000002E-13
DataValue, 1.6500000000000001, 5, 0, 8.3098199999999992E-08, -8.19584E-08, 2.11E-13, 8.3098199999999992E-08, 0.00028826758402567568, 1.535309141492569E-07, 2.11E-13
DataValue, 1.7000000000000002, 5, 0, 9.4717599999999993E-08, -9.3755299999999985E-08, 1.1300000000000001E-13, 9.4717599999999993E-08, 0.0003077622458977059, 1.4294116451716409E-07, 1.1300000000000001E-13
DataValue, 1.75, 5, 0, 1.06325E-07, -1.03607E-07, -3.51E-13, 1.06325E-07, 0.00032607514471360736, 1.596944069181823E-07, 3.51E-13
DataValue, 1.8, 5, 0, 1.20912E-07, -1.19901E-07, -2.5E-14, 1.20912E-07, 0.00034772402850536516, 1.9125677326924036E-07, 2.5E-14
DataValue, 1.85, 5, 0, 1.3675799999999999E-07, -1.3463299999999999E-07, 5.91E-13, 1.3675799999999999E-07, 0.00036980805832215175, 1.8665056612640086E-07, 5.91E-13
DataValue, 1.9000000000000001, 5, 0, 1.52824E-07, -1.51793E-07, -3.6700000000000005E-13, 1.52824E-07, 0.00039092710317909657, 1.9039960773605569E-07, 3.6700000000000005E-13
DataValue, 1.9500000000000002, 5, 0, 1.70935E-07, -1.68926E-07, 4.2600000000000005E-13, 1.70935E-07, 0.00041344286183220047, 1.910723857167619E-07, 4.2600000000000005E-13
DataValue, 2, 5, 0, 1.88911E-07, -1.87022E-07, 6.9000000000000009E-14, 1.88911E-07, 0.00043463893060792427, 1.9655369459333745E-07, 6.9000000000000009E-14
DataValue, 2.05, 5, 0, 2.0956E-07, -2.05698E-07, -3.7E-14, 2.0956E-07, 0.00045777723840313423, 2.2080184596905166E-07, 3.7E-14
DataValue, 2.1, 5, 0, 2.31966E-07, -2.29713E-07, 4.45E-13, 2.31966E-07, 0.00048162848752954804, 2.1779023583670849E-07, 4.45E-13
DataValue, 2.15, 5, 0, 2.54465E-07, -2.5164299999999997E-07, 1.0100000000000001E-13, 2.54465E-07, 0.00050444523984274046, 1.9446889912291639E-07, 1.0100000000000001E-13
DataValue, 2.2, 5, 0, 2.76389E-07, -2.75371E-07, -1.64E-13, 2.76389E-07, 0.000525727115526677, 1.9831793426053991E-07, 1.64E-13
DataValue, 2.25, 5, 0, 3.01377E-07, -3.0007799999999997E-07, 5.38E-13, 3.01377E-07, 0.000548978141641359, 2.2079867158764948E-07, 5.38E-13
DataValue, 2.3000000000000003, 5, 0, 3.28004E-07, -3.22907E-07, -3.38E-13, 3.28004E-07, 0.00057271633467188626, 2.0407839915495645E-07, 3.38E-13
DataValue, 2.35, 5, 0, 3.53018E-07, -3.50061E-07, 3.8300000000000003E-13, 3.53018E-07, 0.00059415317890254527, 2.0230721045705772E-07, 3.8300000000000003E-13
