
SetupTitle, Transfer sat
PrimitiveTest, I/V Sweep
TestParameter, Context.MainFrame, 4155C
TestParameter, Channel.UnitType, SMU, SMU, SMU
TestParameter, Channel.Unit, SMU1:MP, SMU3:MP, SMU4:MP
TestParameter, Channel.IName, IS, ID, IG
TestParameter, Channel.VName, VS, VD, VG
TestParameter, Channel.Mode, COMMON, V, V
TestParameter, Channel.Func, CONST, CONST, VAR1
TestParameter, Channel.Index, 
TestParameter, Channel.Time, 
TestParameter, Measurement.Port.Unit, SMU1:MP, SMU3:MP, SMU4:MP
TestParameter, Measurement.Port.SeriesResistor, NONE, NONE, NONE
TestParameter, Measurement.Port.Filter, ON, ON, ON
TestParameter, Measurement.Primary.Locus, Double
TestParameter, Measurement.Primary.Scale, LINEAR
TestParameter, Measurement.Primary.Start, -2
TestParameter, Measurement.Primary.Stop, 3
TestParameter, Measurement.Primary.Step, 0.05
TestParameter, Measurement.Primary.Compliance, 0.001
TestParameter, Measurement.Primary.PowerCompliance, 0
TestParameter, Measurement.Aborting.Condition, CONTINUE AT ANY
TestParameter, Measurement.PostOutput.Value, START
TestParameter, Measurement.PostOutput.Retention, OFF
TestParameter, Measurement.Bias.Source, 0, 5, -2
TestParameter, Measurement.Bias.Compliance, 0.1, 0.001, 0.001
TestParameter, Measurement.Monitor.Unit, SMU3:MP, SMU1:MP, SMU4:MP
TestParameter, Measurement.Monitor.Adc, HR ADC, HR ADC, HR ADC
TestParameter, Measurement.Monitor.RangingMode, AUTO, AUTO, AUTO
TestParameter, Measurement.Monitor.RangeBoundary, , , 
TestParameter, Measurement.Monitor.RangeRating, BY FULL RANGE, BY FULL RANGE, BY FULL RANGE
TestParameter, Measurement.Monitor.RangeRatingCoeff, 50, 50, 50
TestParameter, Measurement.Timing.Hold, 0.5
TestParameter, Measurement.Timing.Delay, 0.05
TestParameter, Measurement.Adc.HighResolution.AutoZero, OFF
TestParameter, Measurement.Adc.HighResolution.Mode, AUTO
TestParameter, Measurement.Adc.HighResolution.Coeff, 1
TestParameter, Measurement.Ag16440ASelector.SemiconductorRelay.Channel1, DEFAULT
TestParameter, Measurement.Ag16440ASelector.SemiconductorRelay.Channel3, DEFAULT
TestParameter, Function.User.Name, absID, sqrtID, gm2, absIG
TestParameter, Function.User.Unit, A, A, A/V, A
TestParameter, Function.User.Definition, abs(ID), sqrt(abs(ID)), (delta(sqrtID)/delta(VG))^2, abs(IG)
TestParameter, Output.Graph.Enabled, true
TestParameter, Output.Graph.XAxis.Data, VG
TestParameter, Output.Graph.XAxis.Scale, Linear
TestParameter, Output.Graph.XAxis.Left, -5
TestParameter, Output.Graph.XAxis.Right, 7
TestParameter, Output.Graph.YAxis.Data, ID, absIG, gm2
TestParameter, Output.Graph.YAxis.Scale, Log, Log, Linear
TestParameter, Output.Graph.YAxis.Bottom, 1E-14, 1E-14, 0
TestParameter, Output.Graph.YAxis.Top, 0.01, 0.01, 1E-05
TestParameter, Output.Graph.YAxis.Group, , , 
TestParameter, Output.List.Data, VG, IG, VD, ID, VS, IS, sqrtID, gm2, absIG
TestParameter, AutoAnalysis.Interpolation, false
TestParameter, AutoAnalysis.Line1.Enabled, false
TestParameter, AutoAnalysis.Line1.Type, 1
TestParameter, AutoAnalysis.Line1.Fix, True
TestParameter, AutoAnalysis.Line1.YAxis, 0
TestParameter, AutoAnalysis.Line1.Point1.Type, 0
TestParameter, AutoAnalysis.Line1.Point1.XY.X, 
TestParameter, AutoAnalysis.Line1.Point1.XY.Y, 
TestParameter, AutoAnalysis.Line1.Point1.Data.Var, 
TestParameter, AutoAnalysis.Line1.Point1.Data.Condition, 
TestParameter, AutoAnalysis.Line1.Point1.Data.Start, false
TestParameter, AutoAnalysis.Line1.Point1.Data.StartVar, 
TestParameter, AutoAnalysis.Line1.Point1.Data.StartCondition, 
TestParameter, AutoAnalysis.Line1.Point2.Type, 0
TestParameter, AutoAnalysis.Line1.Point2.XY.X, 
TestParameter, AutoAnalysis.Line1.Point2.XY.Y, 
TestParameter, AutoAnalysis.Line1.Point2.Data.Var, 
TestParameter, AutoAnalysis.Line1.Point2.Data.Condition, 
TestParameter, AutoAnalysis.Line1.Point2.Data.Start, false
TestParameter, AutoAnalysis.Line1.Point2.Data.StartVar, 
TestParameter, AutoAnalysis.Line1.Point2.Data.StartCondition, 
TestParameter, AutoAnalysis.Line1.GradientExpr, 0
TestParameter, AutoAnalysis.Line2.Enabled, false
TestParameter, AutoAnalysis.Line2.Type, 1
TestParameter, AutoAnalysis.Line2.Fix, True
TestParameter, AutoAnalysis.Line2.YAxis, 0
TestParameter, AutoAnalysis.Line2.Point1.Type, 0
TestParameter, AutoAnalysis.Line2.Point1.XY.X, 
TestParameter, AutoAnalysis.Line2.Point1.XY.Y, 
TestParameter, AutoAnalysis.Line2.Point1.Data.Var, 
TestParameter, AutoAnalysis.Line2.Point1.Data.Condition, 
TestParameter, AutoAnalysis.Line2.Point1.Data.Start, false
TestParameter, AutoAnalysis.Line2.Point1.Data.StartVar, 
TestParameter, AutoAnalysis.Line2.Point1.Data.StartCondition, 
TestParameter, AutoAnalysis.Line2.Point2.Type, 0
TestParameter, AutoAnalysis.Line2.Point2.XY.X, 
TestParameter, AutoAnalysis.Line2.Point2.XY.Y, 
TestParameter, AutoAnalysis.Line2.Point2.Data.Var, 
TestParameter, AutoAnalysis.Line2.Point2.Data.Condition, 
TestParameter, AutoAnalysis.Line2.Point2.Data.Start, false
TestParameter, AutoAnalysis.Line2.Point2.Data.StartVar, 
TestParameter, AutoAnalysis.Line2.Point2.Data.StartCondition, 
TestParameter, AutoAnalysis.Line2.GradientExpr, 0
TestParameter, AutoAnalysis.Marker.Enabled, false
TestParameter, AutoAnalysis.Marker.Data.Var, 
TestParameter, AutoAnalysis.Marker.Data.Condition, 
TestParameter, AutoAnalysis.Marker.Data.Start, false
TestParameter, AutoAnalysis.Marker.Data.StartVar, 
TestParameter, AutoAnalysis.Marker.Data.StartCondition, 
MetaData, TestRecord.EntryPoint, true
MetaData, TestRecord.RecordTime, 05/02/2019 17:59:49
MetaData, TestRecord.TestTarget, 150-180-20-5
MetaData, TestRecord.IterationIndex, 1
MetaData, TestRecord.Preservation, true
MetaData, TestRecord.Flag, 
MetaData, TestRecord.Remarks, good
MetaData, TestRecord.LinkKey, 26eb6f8c-f7fa-48a1-9544-327bfc5d3d44
Dimension1, 202, 202, 202, 202, 202, 202, 202, 202, 202, 202
Dimension2, 1, 1, 1, 1, 1, 1, 1, 1, 1, 1
DataName, VG, VS, VD, ID, IS, IG, absID, sqrtID, gm2, absIG
DataValue, -2, 0, 5, 8.185E-12, -4.1E-14, -4.762E-12, 8.185E-12, 2.8609439001839934E-06, 1.7139493445539132E-10, 4.762E-12
DataValue, -1.9500000000000002, 0, 5, 4.8680000000000007E-12, -1.065E-12, -2.235E-12, 4.8680000000000007E-12, 2.2063544592834581E-06, 2.5857058634458008E-11, 2.235E-12
DataValue, -1.9000000000000001, 0, 5, 5.5340000000000005E-12, 3.06E-13, -4.906E-12, 5.5340000000000005E-12, 2.3524455360326626E-06, 1.1481057055843233E-11, 4.906E-12
DataValue, -1.85, 0, 5, 6.4780000000000005E-12, -6.0200000000000006E-13, -5.474E-12, 6.4780000000000005E-12, 2.5451915448547287E-06, 1.5094848499208831E-11, 5.474E-12
DataValue, -1.8, 0, 5, 3.857E-12, -9.34E-13, -3.9060000000000005E-12, 3.857E-12, 1.9639246421387967E-06, 4.9592123429339146E-12, 3.9060000000000005E-12
DataValue, -1.75, 0, 5, 5.3940000000000006E-12, 4.33E-13, -8.436E-12, 5.3940000000000006E-12, 2.3224986544667793E-06, 2.6541878082652483E-11, 8.436E-12
DataValue, -1.7000000000000002, 0, 5, 6.1460000000000007E-12, -5.6E-14, -4.4710000000000006E-12, 6.1460000000000007E-12, 2.4791127445116331E-06, 3.2726648428675761E-13, 4.4710000000000006E-12
DataValue, -1.6500000000000001, 0, 5, 5.6630000000000004E-12, 3.9370000000000007E-12, 8.0300000000000011E-13, 5.6630000000000004E-12, 2.3797058641773356E-06, 4.4446327219463218E-13, 8.0300000000000011E-13
DataValue, -1.6, 0, 5, 6.481E-12, 2.16E-12, -1.9651E-11, 6.481E-12, 2.5457808232446094E-06, 1.2555595593202939E-11, 1.9651E-11
DataValue, -1.55, 0, 5, 7.475E-12, -3.1700000000000004E-12, -1.8665E-11, 7.475E-12, 2.7340446228984634E-06, 1.4050227303592361E-11, 1.8665E-11
DataValue, -1.5, 0, 5, 4.7130000000000006E-12, -1.0139000000000001E-11, -1.3851000000000002E-11, 4.7130000000000006E-12, 2.1709444949145983E-06, 1.3462985972199383E-12, 1.3851000000000002E-11
DataValue, -1.4500000000000002, 0, 5, 6.8540000000000005E-12, -6.3650000000000004E-12, 3.0200000000000003E-13, 6.8540000000000005E-12, 2.6180145148566308E-06, 1.7252859659013202E-11, 3.0200000000000003E-13
DataValue, -1.4000000000000001, 0, 5, 6.689E-12, -2.761E-12, 9.28E-13, 6.689E-12, 2.5863101128828306E-06, 3.0593758396983989E-10, 9.28E-13
DataValue, -1.35, 0, 5, 7.55E-13, 1.6390000000000002E-12, -2.37E-13, 7.55E-13, 8.6890735984913832E-07, 7.0622975179026491E-12, 2.37E-13
DataValue, -1.3, 0, 5, 5.385E-12, 5.12E-13, -4.5210000000000006E-12, 5.385E-12, 2.3205602771744588E-06, 1.3573515026243398E-10, 4.5210000000000006E-12
DataValue, -1.25, 0, 5, 4.1370000000000006E-12, 1.8000000000000002E-14, -5.6730000000000006E-12, 4.1370000000000006E-12, 2.0339616515558991E-06, 4.4743551633551971E-15, 5.6730000000000006E-12
DataValue, -1.2, 0, 5, 5.3540000000000008E-12, -1.837E-12, -4.827E-12, 5.3540000000000008E-12, 2.3138712150852304E-06, 1.9164698874396208E-13, 4.827E-12
DataValue, -1.1500000000000001, 0, 5, 4.317E-12, -1.709E-12, -3.4570000000000003E-12, 4.317E-12, 2.077739155909615E-06, 1.12694074865614E-12, 3.4570000000000003E-12
DataValue, -1.1, 0, 5, 4.8740000000000004E-12, -2.092E-12, -1.6850000000000002E-12, 4.8740000000000004E-12, 2.2077137495608437E-06, 7.37405464311221E-11, 1.6850000000000002E-12
DataValue, -1.05, 0, 5, 1.4860000000000001E-12, 3.6100000000000003E-13, -6.1E-14, 1.4860000000000001E-12, 1.2190159966136621E-06, 1.2867687763951874E-12, 6.1E-14
DataValue, -1, 0, 5, 4.386E-12, -6.57E-13, -3.0770000000000003E-12, 4.386E-12, 2.0942779185198895E-06, 1.9636117838691133E-10, 3.0770000000000003E-12
DataValue, -0.95000000000000007, 0, 5, 6.8660000000000008E-12, -8.43E-13, -5.5910000000000007E-12, 6.8660000000000008E-12, 2.62030532572065E-06, 8.8119495560812565E-13, 5.5910000000000007E-12
DataValue, -0.9, 0, 5, 4.788E-12, -2.1530000000000002E-12, -4.5110000000000005E-12, 4.788E-12, 2.1881499034572565E-06, 2.4945673453020418E-11, 4.5110000000000005E-12
DataValue, -0.85000000000000009, 0, 5, 4.4980000000000004E-12, -8.4100000000000005E-13, -4.704E-12, 4.4980000000000004E-12, 2.1208488866489286E-06, 4.6124002252593956E-12, 4.704E-12
DataValue, -0.8, 0, 5, 5.774E-12, -3.2120000000000004E-12, -3.691E-12, 5.774E-12, 2.4029148965371203E-06, 3.0099466188528685E-12, 3.691E-12
DataValue, -0.75, 0, 5, 5.264E-12, -2.69E-12, 1.9320000000000002E-12, 5.264E-12, 2.294340863951998E-06, 7.135363391413857E-11, 1.9320000000000002E-12
DataValue, -0.70000000000000007, 0, 5, 2.428E-12, -2.8670000000000002E-12, 3.091E-12, 2.428E-12, 1.5582040944625965E-06, 1.4213520571268285E-10, 3.091E-12
DataValue, -0.65, 0, 5, 1.2156000000000001E-11, -5.316E-12, 3.796E-12, 1.2156000000000001E-11, 3.4865455683240398E-06, 1.3402155457244579E-09, 3.796E-12
DataValue, -0.6, 0, 5, 2.7239000000000002E-11, -2.2685E-11, -8.649E-12, 2.7239000000000002E-11, 5.2190995391925609E-06, 1.4000042467728157E-09, 8.649E-12
DataValue, -0.55, 0, 5, 5.2247000000000007E-11, -4.771E-11, -5.869E-12, 5.2247000000000007E-11, 7.228208630082561E-06, 2.3504792813572611E-09, 5.869E-12
DataValue, -0.5, 0, 5, 1.0135E-10, -9.5487000000000011E-11, -3.0810000000000003E-12, 1.0135E-10, 1.0067273712381123E-05, 3.3777097203386092E-09, 3.0810000000000003E-12
DataValue, -0.45, 0, 5, 1.70042E-10, -1.61711E-10, 4.723E-12, 1.70042E-10, 1.3040015337414294E-05, 3.0778608160789748E-09, 4.723E-12
DataValue, -0.4, 0, 5, 2.4383200000000004E-10, -2.35662E-10, -3.1070000000000004E-12, 2.4383200000000004E-10, 1.5615120876893654E-05, 2.2385293185083576E-09, 3.1070000000000004E-12
DataValue, -0.35000000000000003, 0, 5, 3.1582E-10, -2.99934E-10, 2.1620000000000003E-12, 3.1582E-10, 1.7771325217889633E-05, 1.7121622792060038E-09, 2.1620000000000003E-12
DataValue, -0.3, 0, 5, 3.9017900000000003E-10, -3.6853200000000004E-10, -6.880000000000001E-13, 3.9017900000000003E-10, 1.9752949146899558E-05, 1.5277125573293104E-09, 6.880000000000001E-13
DataValue, -0.25, 0, 5, 4.70019E-10, -4.38943E-10, -4.005E-12, 4.70019E-10, 2.1679921586574063E-05, 1.4275761806954623E-09, 4.005E-12
DataValue, -0.2, 0, 5, 5.53721E-10, -5.2204000000000009E-10, -3.3780000000000003E-12, 5.53721E-10, 2.3531277058417379E-05, 1.2602789396318339E-09, 3.3780000000000003E-12
DataValue, -0.15, 0, 5, 6.36551E-10, -5.9997400000000008E-10, 1.053E-12, 6.36551E-10, 2.5229962346384905E-05, 1.2215458008744886E-09, 1.053E-12
DataValue, -0.1, 0, 5, 7.3042300000000007E-10, -6.93714E-10, -6.621E-12, 7.3042300000000007E-10, 2.7026339004756082E-05, 1.1621975656431311E-09, 6.621E-12
DataValue, -0.05, 0, 5, 8.2019600000000009E-10, -7.51994E-10, 3.9560000000000005E-12, 8.2019600000000009E-10, 2.8639064230522618E-05, 4.8002636431666794E-10, 3.9560000000000005E-12
DataValue, 0, 0, 5, 8.5365E-10, -8.0466000000000009E-10, -1.7E-13, 8.5365E-10, 2.9217289401996211E-05, 5.0076948672861713E-10, 1.7E-13
DataValue, 0.05, 0, 5, 9.5338E-10, -8.893580000000001E-10, 1.6240000000000002E-12, 9.5338E-10, 3.087685217116538E-05, 1.8763019355320875E-09, 1.6240000000000002E-12
DataValue, 0.1, 0, 5, 1.12553E-09, -1.06087E-09, -3.9240000000000006E-12, 1.12553E-09, 3.3548919505700921E-05, 3.41012685129111E-09, 3.9240000000000006E-12
DataValue, 0.15, 0, 5, 1.3481E-09, -1.29422E-09, -1.5200000000000002E-12, 1.3481E-09, 3.6716481312892712E-05, 3.2952100519380356E-09, 1.5200000000000002E-12
DataValue, 0.2, 0, 5, 1.54365E-09, -1.50032E-09, -1.479E-12, 1.54365E-09, 3.9289311523619241E-05, 3.2030769329743585E-09, 1.479E-12
DataValue, 0.25, 0, 5, 1.79573E-09, -1.75873E-09, -2.269E-12, 1.79573E-09, 4.2376054559149322E-05, 4.6084510903896565E-09, 2.269E-12
DataValue, 0.3, 0, 5, 2.12317E-09, -2.08829E-09, -4.028E-12, 2.12317E-09, 4.607786887433055E-05, 5.4870713347898552E-09, 4.028E-12
DataValue, 0.35000000000000003, 0, 5, 2.4784E-09, -2.43625E-09, -5.8280000000000006E-12, 2.4784E-09, 4.9783531413510636E-05, 5.6850775572341958E-09, 5.8280000000000006E-12
DataValue, 0.4, 0, 5, 2.87487E-09, -2.76877E-09, -2.749E-12, 2.87487E-09, 5.3617814203863251E-05, 6.4269316430420362E-09, 2.749E-12
DataValue, 0.45, 0, 5, 3.34088E-09, -3.23219E-09, -3.7720000000000005E-12, 3.34088E-09, 5.7800346019725522E-05, 7.747757229294477E-09, 3.7720000000000005E-12
DataValue, 0.5, 0, 5, 3.89625E-09, -3.74443E-09, 6.153E-12, 3.89625E-09, 6.2419948734358951E-05, 8.82891621556663E-09, 6.153E-12
DataValue, 0.55, 0, 5, 4.51538E-09, -4.42869E-09, -4.026E-12, 4.51538E-09, 6.7196577293787818E-05, 9.9668977683010291E-09, 4.026E-12
DataValue, 0.6, 0, 5, 5.24225E-09, -5.08767E-09, -4.841E-12, 5.24225E-09, 7.2403383898820642E-05, 1.127093903537722E-08, 4.841E-12
DataValue, 0.65, 0, 5, 6.05487E-09, -5.93315E-09, -2.303E-12, 6.05487E-09, 7.7813045178813051E-05, 1.5737880791657887E-08, 2.303E-12
DataValue, 0.70000000000000007, 0, 5, 7.21624E-09, -7.02893E-09, -5.3100000000000006E-13, 7.21624E-09, 8.4948454959463509E-05, 1.8160851480511384E-08, 5.3100000000000006E-13
DataValue, 0.75, 0, 5, 8.33373E-09, -8.2626E-09, 1.1580000000000001E-12, 8.33373E-09, 9.1289265524485414E-05, 1.4483867664476808E-08, 1.1580000000000001E-12
DataValue, 0.8, 0, 5, 9.40577E-09, -8.75146E-09, 1.942E-12, 9.40577E-09, 9.6983349086325116E-05, 1.0287000052917842E-08, 1.942E-12
DataValue, 0.85000000000000009, 0, 5, 1.02884E-08, -9.9222999999999991E-09, -3.5910000000000003E-12, 1.02884E-08, 0.00010143175045319882, 2.332389635470903E-08, 3.5910000000000003E-12
DataValue, 0.9, 0, 5, 1.26013E-08, -1.2334499999999999E-08, 4.3700000000000006E-13, 1.26013E-08, 0.00011225551211410511, 5.02266160384527E-08, 4.3700000000000006E-13
DataValue, 0.95000000000000007, 0, 5, 1.53371E-08, -1.4771399999999999E-08, -1.0620000000000001E-12, 1.53371E-08, 0.00012384304582817719, 5.1111044923442235E-08, 1.0620000000000001E-12
DataValue, 1, 0, 5, 1.81881E-08, -1.7781399999999997E-08, -1.904E-12, 1.81881E-08, 0.00013486326408625887, 5.7438309560814543E-08, 1.904E-12
DataValue, 1.05, 0, 5, 2.1847599999999996E-08, -2.1257399999999998E-08, -4.6100000000000006E-13, 2.1847599999999996E-08, 0.00014780933664691143, 6.7852502869239635E-08, 4.6100000000000006E-13
DataValue, 1.1, 0, 5, 2.5892599999999997E-08, -2.4944399999999997E-08, -2.05E-13, 2.5892599999999997E-08, 0.00016091177707054259, 7.4944503594482409E-08, 2.05E-13
DataValue, 1.1500000000000001, 0, 5, 3.06899E-08, -3.0817E-08, -1.477E-12, 3.06899E-08, 0.00017518533043608419, 1.1276420656389287E-07, 1.477E-12
DataValue, 1.2, 0, 5, 3.7827199999999996E-08, -3.6844499999999996E-08, 2.2200000000000001E-13, 3.7827199999999996E-08, 0.00019449215922499291, 1.3771682999740875E-07, 2.2200000000000001E-13
DataValue, 1.25, 0, 5, 4.5069399999999993E-08, -4.46491E-08, -1.4500000000000001E-13, 4.5069399999999993E-08, 0.0002122955487051012, 1.6063555026926494E-07, 1.4500000000000001E-13
DataValue, 1.3, 0, 5, 5.5023799999999993E-08, -5.4016999999999993E-08, 1.0410000000000001E-12, 5.5023799999999993E-08, 0.00023457152427351448, 2.193329029794677E-07, 1.0410000000000001E-12
DataValue, 1.35, 0, 5, 6.7147599999999992E-08, -6.7005399999999992E-08, -1.197E-12, 6.7147599999999992E-08, 0.00025912853953202449, 2.5200362915528905E-07, 1.197E-12
DataValue, 1.4000000000000001, 0, 5, 8.1094799999999988E-08, -7.9388899999999992E-08, -1.324E-12, 8.1094799999999988E-08, 0.00028477148733677674, 1.9615588302962987E-07, 1.324E-12
DataValue, 1.4500000000000002, 0, 5, 9.20625E-08, -8.9287899999999993E-08, 2.0240000000000003E-12, 9.20625E-08, 0.00030341802846897546, 2.1291209616995245E-07, 2.0240000000000003E-12
DataValue, 1.5, 0, 5, 1.09504E-07, -1.06587E-07, -1.6870000000000002E-12, 1.09504E-07, 0.00033091388607914296, 4.3544493930975413E-07, 1.6870000000000002E-12
DataValue, 1.55, 0, 5, 1.36461E-07, -1.34771E-07, 8.22E-13, 1.36461E-07, 0.000369406280401403, 5.8194138097990961E-07, 8.22E-13
DataValue, 1.6, 0, 5, 1.65811E-07, -1.64399E-07, -2.4840000000000003E-12, 1.65811E-07, 0.00040719896856450903, 7.2229298327210744E-07, 2.4840000000000003E-12
DataValue, 1.6500000000000001, 0, 5, 2.06474E-07, -2.036E-07, -1.043E-12, 2.06474E-07, 0.00045439410207439971, 8.4727355498480181E-07, 1.043E-12
DataValue, 1.7000000000000002, 0, 5, 2.49247E-07, -2.46654E-07, -2.32E-13, 2.49247E-07, 0.00049924643213547352, 8.87218241841152E-07, 2.32E-13
DataValue, 1.75, 0, 5, 3.00947E-07, -2.98456E-07, -3.3490000000000004E-12, 3.00947E-07, 0.000548586365124034, 1.0208105263474507E-06, 3.3490000000000004E-12
DataValue, 1.8, 0, 5, 3.60338E-07, -3.61094E-07, -1.9150000000000002E-12, 3.60338E-07, 0.00060028160058425912, 1.2668474009854518E-06, 1.9150000000000002E-12
DataValue, 1.85, 0, 5, 4.37107E-07, -4.3367099999999997E-07, 1.207E-12, 4.37107E-07, 0.00066114068094468362, 1.5609595310383088E-06, 1.207E-12
DataValue, 1.9000000000000001, 0, 5, 5.25944E-07, -5.20451E-07, -1.7620000000000002E-12, 5.25944E-07, 0.00072521996663081471, 1.724114266580599E-06, 1.7620000000000002E-12
DataValue, 1.9500000000000002, 0, 5, 6.27971E-07, -6.20918E-07, -3.447E-12, 6.27971E-07, 0.000792446212685757, 2.0401931823851717E-06, 3.447E-12
DataValue, 2, 0, 5, 7.5352E-07, -7.43664E-07, -1.331E-12, 7.5352E-07, 0.00086805529777773949, 2.2209709941206683E-06, 1.331E-12
DataValue, 2.05, 0, 5, 8.86376E-07, -8.79498E-07, 2.2200000000000001E-13, 8.86376E-07, 0.000941475437810249, 2.205302811814232E-06, 2.2200000000000001E-13
DataValue, 2.1, 0, 5, 1.03339E-06, -1.025821E-06, 1.1400000000000002E-13, 1.03339E-06, 0.001016557917681034, 2.6905503639069357E-06, 1.1400000000000002E-13
DataValue, 2.15, 0, 5, 1.2221400000000002E-06, -1.2049700000000001E-06, -3.5030000000000003E-12, 1.2221400000000002E-06, 0.0011055044097605402, 3.0279192666294531E-06, 3.5030000000000003E-12
DataValue, 2.2, 0, 5, 1.41745E-06, -1.4106800000000002E-06, -2.9000000000000003E-13, 1.41745E-06, 0.0011905670917676165, 3.39042979621365E-06, 2.9000000000000003E-13
DataValue, 2.25, 0, 5, 1.6631600000000002E-06, -1.6528E-06, 5.9310000000000005E-12, 1.6631600000000002E-06, 0.0012896356074488639, 3.66917274488658E-06, 5.9310000000000005E-12
DataValue, 2.3000000000000003, 0, 5, 1.91025E-06, -1.8948700000000003E-06, -1.4860000000000001E-12, 1.91025E-06, 0.0013821179399747332, 3.7698183499206904E-06, 1.4860000000000001E-12
DataValue, 2.35, 0, 5, 2.2016500000000003E-06, -2.18555E-06, 1.3800000000000002E-12, 2.2016500000000003E-06, 0.0014837958080544643, 4.4586611447702518E-06, 1.3800000000000002E-12
