
SetupTitle, Transfer stab
PrimitiveTest, I/V Sweep
TestParameter, Context.MainFrame, 4155C
TestParameter, Channel.UnitType, SMU, SMU, SMU
TestParameter, Channel.Unit, SMU3:MP, SMU1:MP, SMU4:MP
TestParameter, Channel.IName, ID, IS, IG
TestParameter, Channel.VName, VD, VS, VG
TestParameter, Channel.Mode, V, COMMON, V
TestParameter, Channel.Func, CONST, CONST, VAR1
TestParameter, Channel.Index, 
TestParameter, Channel.Time, 
TestParameter, Measurement.Port.Unit, SMU3:MP, SMU1:MP, SMU4:MP
TestParameter, Measurement.Port.SeriesResistor, NONE, NONE, NONE
TestParameter, Measurement.Port.Filter, ON, ON, ON
TestParameter, Measurement.Primary.Locus, Single
TestParameter, Measurement.Primary.Scale, LINEAR
TestParameter, Measurement.Primary.Start, -2
TestParameter, Measurement.Primary.Stop, 3
TestParameter, Measurement.Primary.Step, 0.05
TestParameter, Measurement.Primary.Compliance, 0.1
TestParameter, Measurement.Primary.PowerCompliance, 0
TestParameter, Measurement.Aborting.Condition, CONTINUE AT ANY
TestParameter, Measurement.PostOutput.Value, START
TestParameter, Measurement.PostOutput.Retention, OFF
TestParameter, Measurement.Bias.Source, 3, 0, -2
TestParameter, Measurement.Bias.Compliance, 0.1, 0.1, 0.1
TestParameter, Measurement.Monitor.Unit, SMU3:MP, SMU1:MP, SMU4:MP
TestParameter, Measurement.Monitor.Adc, HR ADC, HR ADC, HR ADC
TestParameter, Measurement.Monitor.RangingMode, AUTO, AUTO, AUTO
TestParameter, Measurement.Monitor.RangeBoundary, , , 
TestParameter, Measurement.Monitor.RangeRating, BY FULL RANGE, BY FULL RANGE, BY FULL RANGE
TestParameter, Measurement.Monitor.RangeRatingCoeff, 50, 50, 50
TestParameter, Measurement.Timing.Hold, 0.5
TestParameter, Measurement.Timing.Delay, 0.05
TestParameter, Measurement.Adc.HighResolution.AutoZero, OFF
TestParameter, Measurement.Adc.HighResolution.Mode, AUTO
TestParameter, Measurement.Adc.HighResolution.Coeff, 1
TestParameter, Measurement.Ag16440ASelector.SemiconductorRelay.Channel1, DEFAULT
TestParameter, Measurement.Ag16440ASelector.SemiconductorRelay.Channel3, DEFAULT
TestParameter, Function.User.Name, absID, sqrtID, gm2, absIG
TestParameter, Function.User.Unit, A, A, A/V, A
TestParameter, Function.User.Definition, abs(ID), sqrt(abs(ID)), (delta(sqrtID)/delta(VG))^2, abs(IG)
TestParameter, Output.Graph.Enabled, true
TestParameter, Output.Graph.XAxis.Data, VG
TestParameter, Output.Graph.XAxis.Scale, Linear
TestParameter, Output.Graph.XAxis.Left, -5
TestParameter, Output.Graph.XAxis.Right, 7
TestParameter, Output.Graph.YAxis.Data, ID, absIG, gm2
TestParameter, Output.Graph.YAxis.Scale, Log, Log, Linear
TestParameter, Output.Graph.YAxis.Bottom, 1E-14, 1E-14, 0
TestParameter, Output.Graph.YAxis.Top, 0.01, 0.01, 1E-05
TestParameter, Output.Graph.YAxis.Group, , , 
TestParameter, Output.List.Data, VG, IG, VD, ID, VS, IS, sqrtID, gm2, absIG
TestParameter, AutoAnalysis.Interpolation, false
TestParameter, AutoAnalysis.Line1.Enabled, false
TestParameter, AutoAnalysis.Line1.Type, 1
TestParameter, AutoAnalysis.Line1.Fix, True
TestParameter, AutoAnalysis.Line1.YAxis, 0
TestParameter, AutoAnalysis.Line1.Point1.Type, 0
TestParameter, AutoAnalysis.Line1.Point1.XY.X, 
TestParameter, AutoAnalysis.Line1.Point1.XY.Y, 
TestParameter, AutoAnalysis.Line1.Point1.Data.Var, 
TestParameter, AutoAnalysis.Line1.Point1.Data.Condition, 
TestParameter, AutoAnalysis.Line1.Point1.Data.Start, false
TestParameter, AutoAnalysis.Line1.Point1.Data.StartVar, 
TestParameter, AutoAnalysis.Line1.Point1.Data.StartCondition, 
TestParameter, AutoAnalysis.Line1.Point2.Type, 0
TestParameter, AutoAnalysis.Line1.Point2.XY.X, 
TestParameter, AutoAnalysis.Line1.Point2.XY.Y, 
TestParameter, AutoAnalysis.Line1.Point2.Data.Var, 
TestParameter, AutoAnalysis.Line1.Point2.Data.Condition, 
TestParameter, AutoAnalysis.Line1.Point2.Data.Start, false
TestParameter, AutoAnalysis.Line1.Point2.Data.StartVar, 
TestParameter, AutoAnalysis.Line1.Point2.Data.StartCondition, 
TestParameter, AutoAnalysis.Line1.GradientExpr, 0
TestParameter, AutoAnalysis.Line2.Enabled, false
TestParameter, AutoAnalysis.Line2.Type, 1
TestParameter, AutoAnalysis.Line2.Fix, True
TestParameter, AutoAnalysis.Line2.YAxis, 0
TestParameter, AutoAnalysis.Line2.Point1.Type, 0
TestParameter, AutoAnalysis.Line2.Point1.XY.X, 
TestParameter, AutoAnalysis.Line2.Point1.XY.Y, 
TestParameter, AutoAnalysis.Line2.Point1.Data.Var, 
TestParameter, AutoAnalysis.Line2.Point1.Data.Condition, 
TestParameter, AutoAnalysis.Line2.Point1.Data.Start, false
TestParameter, AutoAnalysis.Line2.Point1.Data.StartVar, 
TestParameter, AutoAnalysis.Line2.Point1.Data.StartCondition, 
TestParameter, AutoAnalysis.Line2.Point2.Type, 0
TestParameter, AutoAnalysis.Line2.Point2.XY.X, 
TestParameter, AutoAnalysis.Line2.Point2.XY.Y, 
TestParameter, AutoAnalysis.Line2.Point2.Data.Var, 
TestParameter, AutoAnalysis.Line2.Point2.Data.Condition, 
TestParameter, AutoAnalysis.Line2.Point2.Data.Start, false
TestParameter, AutoAnalysis.Line2.Point2.Data.StartVar, 
TestParameter, AutoAnalysis.Line2.Point2.Data.StartCondition, 
TestParameter, AutoAnalysis.Line2.GradientExpr, 0
TestParameter, AutoAnalysis.Marker.Enabled, false
TestParameter, AutoAnalysis.Marker.Data.Var, 
TestParameter, AutoAnalysis.Marker.Data.Condition, 
TestParameter, AutoAnalysis.Marker.Data.Start, false
TestParameter, AutoAnalysis.Marker.Data.StartVar, 
TestParameter, AutoAnalysis.Marker.Data.StartCondition, 
MetaData, TestRecord.EntryPoint, true
MetaData, TestRecord.RecordTime, 05/02/2019 18:21:46
MetaData, TestRecord.TestTarget, 350-300-20-10
MetaData, TestRecord.IterationIndex, 3
MetaData, TestRecord.Preservation, true
MetaData, TestRecord.Flag, 
MetaData, TestRecord.Remarks, good
MetaData, TestRecord.LinkKey, 3b3c16d7-dceb-499e-b586-a1d7298ecc41
Dimension1, 101, 101, 101, 101, 101, 101, 101, 101, 101, 101
Dimension2, 1, 1, 1, 1, 1, 1, 1, 1, 1, 1
DataName, VG, VD, VS, ID, IS, IG, absID, sqrtID, gm2, absIG
DataValue, -2, 3, 0, 2.4720000000000004E-12, -8.49E-13, -2.8430000000000003E-12, 2.4720000000000004E-12, 1.5722595205626839E-06, 8.2560463233259853E-11, 2.8430000000000003E-12
DataValue, -1.9500000000000002, 3, 0, 4.107E-12, -9.61E-13, -2.464E-12, 4.107E-12, 2.0265734627691147E-06, 3.729894966231289E-12, 2.464E-12
DataValue, -1.9000000000000001, 3, 0, 1.902E-12, -1.4590000000000001E-12, -1.1080000000000001E-12, 1.902E-12, 1.379130160644745E-06, 6.0027592393910223E-11, 1.1080000000000001E-12
DataValue, -1.85, 3, 0, 1.567E-12, -8.7400000000000011E-13, 8.7500000000000011E-13, 1.567E-12, 1.2517987058628876E-06, 6.1404709771593283E-13, 8.7500000000000011E-13
DataValue, -1.8, 3, 0, 1.692E-12, 3.7E-14, -1.067E-12, 1.692E-12, 1.300769003320728E-06, 1.3808056715610303E-12, 1.067E-12
DataValue, -1.75, 3, 0, 1.875E-12, -2.6E-13, -1.441E-12, 1.875E-12, 1.3693063937629153E-06, 2.6392424536314928E-14, 1.441E-12
DataValue, -1.7000000000000002, 3, 0, 1.65E-12, -6.2500000000000006E-13, -2.038E-12, 1.65E-12, 1.2845232578665129E-06, 8.1151519016500651E-12, 2.038E-12
DataValue, -1.6500000000000001, 3, 0, 1.176E-12, -1.001E-12, -5.86E-13, 1.176E-12, 1.0844353369380767E-06, 3.8382518303657642E-13, 5.86E-13
DataValue, -1.6, 3, 0, 1.813E-12, -7.1700000000000008E-13, -2.9700000000000005E-13, 1.813E-12, 1.3464768843169942E-06, 8.4930295720289138E-12, 2.9700000000000005E-13
DataValue, -1.55, 3, 0, 1.893E-12, -2.67E-13, -3.77E-13, 1.893E-12, 1.3758633653092155E-06, 9.0397628458581355E-13, 3.77E-13
DataValue, -1.5, 3, 0, 1.5660000000000002E-12, -5.0200000000000008E-13, -1.696E-12, 1.5660000000000002E-12, 1.2513992168768527E-06, 1.5491324244993304E-12, 1.696E-12
DataValue, -1.4500000000000002, 3, 0, 1.5660000000000002E-12, -7.01E-13, -8.96E-13, 1.5660000000000002E-12, 1.2513992168768527E-06, 5.2833807172651262E-14, 8.96E-13
DataValue, -1.4000000000000001, 3, 0, 1.5090000000000001E-12, -6.39E-13, -6.2000000000000008E-13, 1.5090000000000001E-12, 1.2284136111261549E-06, 3.6432577063606517E-11, 6.2000000000000008E-13
DataValue, -1.35, 3, 0, 3.4410000000000004E-12, -8.5800000000000008E-13, -6.2200000000000008E-13, 3.4410000000000004E-12, 1.8549932614432863E-06, 1.5759672625912285E-14, 6.2200000000000008E-13
DataValue, -1.3, 3, 0, 1.5400000000000001E-12, -4.13E-13, -2.12E-13, 1.5400000000000001E-12, 1.2409673645990857E-06, 2.1525005449789266E-11, 2.12E-13
DataValue, -1.25, 3, 0, 1.935E-12, -5.34E-13, -9.86E-13, 1.935E-12, 1.3910427743243557E-06, 3.13063328130694E-13, 9.86E-13
DataValue, -1.2, 3, 0, 1.6820000000000001E-12, -8.91E-13, -1.0540000000000002E-12, 1.6820000000000001E-12, 1.296919426949878E-06, 3.1402617929150994E-11, 1.0540000000000002E-12
DataValue, -1.1500000000000001, 3, 0, -6.9000000000000009E-13, -6.37E-13, -4.64E-13, 6.9000000000000009E-13, 8.3066238629180759E-07, 7.2073859747046141E-13, 4.64E-13
DataValue, -1.1, 3, 0, 1.4690000000000001E-12, -7.340000000000001E-13, -6.52E-13, 1.4690000000000001E-12, 1.212023102090055E-06, 2.8113290970035063E-11, 6.52E-13
DataValue, -1.05, 3, 0, 1.852E-12, -4.8200000000000007E-13, -3.7300000000000003E-13, 1.852E-12, 1.36088206689632E-06, 1.9844523395282061E-13, 3.7300000000000003E-13
DataValue, -1, 3, 0, 1.3630000000000002E-12, -6.4800000000000007E-13, -1.2610000000000002E-12, 1.3630000000000002E-12, 1.1674759098157016E-06, 1.3596183858745105E-13, 1.2610000000000002E-12
DataValue, -0.95000000000000007, 3, 0, 1.7530000000000001E-12, -8.0900000000000009E-13, -3.9100000000000005E-13, 1.7530000000000001E-12, 1.3240090634130871E-06, 1.7456462558596596E-11, 3.9100000000000005E-13
DataValue, -0.9, 3, 0, -5.62E-13, -6.14E-13, -5.1E-13, 5.62E-13, 7.496665925596525E-07, 1.7819751819123878E-13, 5.1E-13
DataValue, -0.85000000000000009, 3, 0, 1.6430000000000002E-12, -7.28E-13, -5.14E-13, 1.6430000000000002E-12, 1.2817956155331473E-06, 2.9191830575851853E-11, 5.14E-13
DataValue, -0.8, 3, 0, 1.6640000000000002E-12, -4.67E-13, -3.4800000000000003E-13, 1.6640000000000002E-12, 1.289961239727768E-06, 3.27030769490868E-11, 3.4800000000000003E-13
DataValue, -0.75, 3, 0, -5.0400000000000007E-13, -9.0800000000000007E-13, -1.045E-12, 5.0400000000000007E-13, 7.09929573971954E-07, 2.6173123193438517E-14, 1.045E-12
DataValue, -0.70000000000000007, 3, 0, 1.7060000000000002E-12, -6.6500000000000009E-13, -1.12E-13, 1.7060000000000002E-12, 1.3061393493804556E-06, 2.6293548506975139E-11, 1.12E-13
DataValue, -0.65, 3, 0, 1.4950000000000002E-12, -7.09E-13, -6.62E-13, 1.4950000000000002E-12, 1.2227019260637485E-06, 2.1595723426499233E-11, 6.62E-13
DataValue, -0.6, 3, 0, 7.08E-13, -7.4400000000000006E-13, -5.2600000000000008E-13, 7.08E-13, 8.4142735871850516E-07, 1.0861977888501556E-12, 5.2600000000000008E-13
DataValue, -0.55, 3, 0, 1.251E-12, -7.3900000000000008E-13, -6.400000000000001E-13, 1.251E-12, 1.1184811129384349E-06, 1.94267857216749E-11, 6.400000000000001E-13
DataValue, -0.5, 3, 0, 1.644E-12, -6.11E-13, -4.65E-13, 1.644E-12, 1.2821856339859684E-06, 6.4853581402145248E-11, 4.65E-13
DataValue, -0.45, 3, 0, 3.7010000000000005E-12, -8.8100000000000008E-13, -6.52E-13, 3.7010000000000005E-12, 1.9237983262286097E-06, 9.681370271879063E-13, 6.52E-13
DataValue, -0.4, 3, 0, 1.906E-12, -6.6600000000000009E-13, -1.53E-13, 1.906E-12, 1.3805795884337853E-06, 5.4409509301519331E-11, 1.53E-13
DataValue, -0.35000000000000003, 3, 0, 1.4070000000000002E-12, -8.24E-13, -8.5500000000000009E-13, 1.4070000000000002E-12, 1.1861703081766968E-06, 4.4965153532721043E-14, 8.5500000000000009E-13
DataValue, -0.3, 3, 0, 1.9650000000000002E-12, -7.1400000000000009E-13, -1.64E-13, 1.9650000000000002E-12, 1.4017845768876188E-06, 3.5023941156104793E-12, 1.64E-13
DataValue, -0.25, 3, 0, 1.8860000000000002E-12, -8.7300000000000012E-13, -5.46E-13, 1.8860000000000002E-12, 1.3733171520082315E-06, 2.19011393703306E-12, 5.46E-13
DataValue, -0.2, 3, 0, 1.5720000000000002E-12, -1.2310000000000001E-12, -5.1E-13, 1.5720000000000002E-12, 1.2537942414925985E-06, 4.2796318143582821E-12, 5.1E-13
DataValue, -0.15, 3, 0, 2.4970000000000004E-12, -1.4490000000000002E-12, -3.19E-13, 2.4970000000000004E-12, 1.5801898620102586E-06, 4.8988824377316294E-11, 3.19E-13
DataValue, -0.1, 3, 0, 3.817E-12, -2.569E-12, -4.0200000000000005E-13, 3.817E-12, 1.9537144110642169E-06, 6.2783675824539021E-11, 4.0200000000000005E-13
DataValue, -0.05, 3, 0, 5.629E-12, -5.7940000000000006E-12, -1.4840000000000001E-12, 5.629E-12, 2.3725513693068902E-06, 1.5194576824943082E-10, 1.4840000000000001E-12
DataValue, 0, 3, 0, 1.0153E-11, -9.982E-12, 7.792E-12, 1.0153E-11, 3.1863772532454469E-06, 4.5421192507187488E-10, 7.792E-12
DataValue, 0.05, 3, 0, 2.0284000000000002E-11, -1.7337000000000002E-11, 1.959E-12, 2.0284000000000002E-11, 4.5037761933737341E-06, 9.9803700528813719E-10, 1.959E-12
DataValue, 0.1, 3, 0, 4.0266000000000005E-11, -3.6034000000000006E-11, -2.481E-12, 4.0266000000000005E-11, 6.3455496215851947E-06, 2.0071280322520058E-09, 2.481E-12
DataValue, 0.15, 3, 0, 8.0710000000000011E-11, -7.7971000000000012E-11, 3.74E-13, 8.0710000000000011E-11, 8.9838744425776569E-06, 4.1034315249737E-09, 3.74E-13
DataValue, 0.2, 3, 0, 1.62597E-10, -1.55635E-10, 2.8E-14, 1.62597E-10, 1.2751352869401741E-05, 7.5039627390099918E-09, 2.8E-14
DataValue, 0.25, 3, 0, 3.1139600000000005E-10, -2.9692500000000004E-10, -1.4400000000000002E-13, 3.1139600000000005E-10, 1.7646416066725845E-05, 1.2648706980559676E-08, 1.4400000000000002E-13
DataValue, 0.3, 3, 0, 5.7590400000000008E-10, -5.4801300000000008E-10, -1.078E-12, 5.7590400000000008E-10, 2.3997999916659723E-05, 1.94152085440676E-08, 1.078E-12
DataValue, 0.35000000000000003, 3, 0, 9.97313E-10, -9.21617E-10, 2.126E-12, 9.97313E-10, 3.1580262823478847E-05, 2.5340384032070127E-08, 2.126E-12
DataValue, 0.4, 3, 0, 1.59334E-09, -1.528E-09, -2.682E-12, 1.59334E-09, 3.9916663187195395E-05, 4.1210891071754582E-08, 2.682E-12
DataValue, 0.45, 3, 0, 2.69161E-09, -2.65583E-09, 7.4500000000000006E-13, 2.69161E-09, 5.1880728599355658E-05, 6.50725689142665E-08, 7.4500000000000006E-13
DataValue, 0.5, 3, 0, 4.28056E-09, -4.22368E-09, -1.0500000000000002E-12, 4.28056E-09, 6.5425988720079731E-05, 8.0473690481051819E-08, 1.0500000000000002E-12
DataValue, 0.55, 3, 0, 6.43984E-09, -6.33699E-09, -3.7690000000000006E-12, 6.43984E-09, 8.0248613695191028E-05, 9.68471181392522E-08, 3.7690000000000006E-12
DataValue, 0.6, 3, 0, 9.32118E-09, -9.18365E-09, -3.3330000000000004E-12, 9.32118E-09, 9.6546258342827566E-05, 9.4287883202796287E-08, 3.3330000000000004E-12
DataValue, 0.65, 3, 0, 1.2310999999999999E-08, -1.1986299999999999E-08, 1.425E-12, 1.2310999999999999E-08, 0.00011095494581135173, 1.112906046417602E-07, 1.425E-12
DataValue, 0.70000000000000007, 3, 0, 1.68757E-08, -1.6739299999999998E-08, -3.0070000000000004E-12, 1.68757E-08, 0.00012990650484098168, 1.5250629235967121E-07, 3.0070000000000004E-12
DataValue, 0.75, 3, 0, 2.2502099999999997E-08, -2.22769E-08, 2.03E-12, 2.2502099999999997E-08, 0.00015000699983667428, 1.6614359044473944E-07, 2.03E-12
DataValue, 0.8, 3, 0, 2.9127299999999996E-08, -2.87022E-08, 2.159E-12, 2.9127299999999996E-08, 0.00017066722005118615, 1.7323966227993317E-07, 2.159E-12
DataValue, 0.85000000000000009, 3, 0, 3.6721699999999993E-08, -3.6473899999999994E-08, 3.3540000000000005E-12, 3.6721699999999993E-08, 0.00019162906877611235, 1.859077152647267E-07, 3.3540000000000005E-12
DataValue, 0.9, 3, 0, 4.5703699999999994E-08, -4.52773E-08, 1.34E-13, 4.5703699999999994E-08, 0.00021378423702415479, 2.0050878145805883E-07, 1.34E-13
DataValue, 0.95000000000000007, 3, 0, 5.5888399999999992E-08, -5.5080999999999995E-08, 5.2900000000000007E-13, 5.5888399999999992E-08, 0.00023640727569176036, 2.2547135941284794E-07, 5.2900000000000007E-13
DataValue, 1, 3, 0, 6.8260999999999992E-08, -6.7167899999999991E-08, -2.757E-12, 6.8260999999999992E-08, 0.00026126806157661137, 2.510024159802962E-07, 2.757E-12
DataValue, 1.05, 3, 0, 8.20865E-08, -8.11197E-08, 8.2700000000000011E-13, 8.20865E-08, 0.00028650741700695986, 2.5906797759186186E-07, 8.2700000000000011E-13
DataValue, 1.1, 3, 0, 9.7448099999999992E-08, -9.6083299999999991E-08, 8.6100000000000007E-13, 9.7448099999999992E-08, 0.00031216678234559164, 2.0120994337368928E-07, 8.6100000000000007E-13
DataValue, 1.1500000000000001, 3, 0, 1.0980199999999999E-07, -1.08061E-07, -2.6000000000000002E-12, 1.0980199999999999E-07, 0.00033136384836007684, 2.4647953687886347E-07, 2.6000000000000002E-12
DataValue, 1.2, 3, 0, 1.30909E-07, -1.28671E-07, 8.95E-13, 1.30909E-07, 0.00036181348786356763, 3.770672793800721E-07, 8.95E-13
DataValue, 1.25, 3, 0, 1.54268E-07, -1.52814E-07, 1.55E-12, 1.54268E-07, 0.000392769652595513, 3.9635886867331047E-07, 1.55E-12
DataValue, 1.3, 3, 0, 1.8043E-07, -1.7907E-07, 3.5910000000000003E-12, 1.8043E-07, 0.00042477052628448695, 4.196351476009515E-07, 3.5910000000000003E-12
DataValue, 1.35, 3, 0, 2.09351E-07, -2.07074E-07, 2.6040000000000002E-12, 2.09351E-07, 0.00045754890449000097, 4.622234968461939E-07, 2.6040000000000002E-12
DataValue, 1.4000000000000001, 3, 0, 2.4281E-07, -2.39891E-07, -1.9100000000000002E-13, 2.4281E-07, 0.00049275754687269884, 5.1175566565081482E-07, 1.9100000000000002E-13
DataValue, 1.4500000000000002, 3, 0, 2.79932E-07, -2.7722E-07, -9.69E-13, 2.79932E-07, 0.00052908600435089942, 5.395423200461566E-07, 9.69E-13
DataValue, 1.5, 3, 0, 3.20595E-07, -3.18183E-07, -6.7690000000000007E-12, 3.20595E-07, 0.00056621109137847169, 5.6638069617179708E-07, 6.7690000000000007E-12
DataValue, 1.55, 3, 0, 3.65232E-07, -3.63844E-07, 3.1060000000000003E-12, 3.65232E-07, 0.00060434427274526229, 6.3918594665351028E-07, 3.1060000000000003E-12
DataValue, 1.6, 3, 0, 4.1752299999999997E-07, -4.16382E-07, 5.445E-12, 4.1752299999999997E-07, 0.00064616019685523806, 6.8449685958698823E-07, 5.445E-12
DataValue, 1.6500000000000001, 3, 0, 4.72077E-07, -4.69077E-07, -2.4550000000000003E-12, 4.72077E-07, 0.0006870785981239701, 7.1152518495001423E-07, 2.4550000000000003E-12
DataValue, 1.7000000000000002, 3, 0, 5.33648E-07, -5.296E-07, -2.6590000000000003E-12, 5.33648E-07, 0.00073051214911184061, 7.78380205560368E-07, 2.6590000000000003E-12
DataValue, 1.75, 3, 0, 6.01097E-07, -5.99372E-07, -3.938E-12, 6.01097E-07, 0.00077530445632667424, 8.1613980652481916E-07, 3.938E-12
DataValue, 1.8, 3, 0, 6.73799E-07, -6.69995E-07, -2.1580000000000003E-12, 6.73799E-07, 0.00082085260552671694, 8.3046067347058492E-07, 2.1580000000000003E-12
DataValue, 1.85, 3, 0, 7.50708E-07, -7.48802E-07, -1.335E-12, 7.50708E-07, 0.00086643407135222927, 8.5560492712688616E-07, 1.335E-12
DataValue, 1.9000000000000001, 3, 0, 8.34211E-07, -8.32807E-07, 7.49E-12, 8.34211E-07, 0.000913351520500185, 9.5215395994423032E-07, 7.49E-12
DataValue, 1.9500000000000002, 3, 0, 9.2932E-07, -9.26219E-07, 2.228E-12, 9.2932E-07, 0.00096401244805240972, 1.0065393810503615E-06, 2.228E-12
DataValue, 2, 3, 0, 1.027543E-06, -1.023199E-06, -4.841E-12, 1.027543E-06, 0.0010136779567495784, 9.1593504180833449E-07, 4.841E-12
DataValue, 2.05, 3, 0, 1.123E-06, -1.1210819999999999E-06, 3.029E-12, 1.123E-06, 0.0010597169433391165, 9.7572481650402E-07, 3.029E-12
DataValue, 2.1, 3, 0, 1.2375600000000002E-06, -1.2283700000000002E-06, -1.581E-12, 1.2375600000000002E-06, 0.0011124567407319712, 1.0642625627755191E-06, 1.581E-12
DataValue, 2.15, 3, 0, 1.35229E-06, -1.3493800000000002E-06, -2.749E-12, 1.35229E-06, 0.001162880045404512, 1.0630611716750866E-06, 2.749E-12
DataValue, 2.2, 3, 0, 1.4775900000000002E-06, -1.4738100000000003E-06, 3.1910000000000004E-12, 1.4775900000000002E-06, 0.0012155615986037072, 1.0768840654961952E-06, 3.1910000000000004E-12
DataValue, 2.25, 3, 0, 1.6044100000000001E-06, -1.6010700000000002E-06, 2.3870000000000002E-12, 1.6044100000000001E-06, 0.001266653070102465, 1.1160316203887868E-06, 2.3870000000000002E-12
DataValue, 2.3000000000000003, 3, 0, 1.7455800000000002E-06, -1.74145E-06, 4.8400000000000006E-13, 1.7455800000000002E-06, 0.001321203996360895, 1.2122088688428975E-06, 4.8400000000000006E-13
DataValue, 2.35, 3, 0, 1.8954500000000002E-06, -1.8891300000000002E-06, 5.2920000000000005E-12, 1.8954500000000002E-06, 0.0013767534274516989, 1.1881497583112189E-06, 5.2920000000000005E-12
