
SetupTitle, Transfer lin
PrimitiveTest, I/V Sweep
TestParameter, Context.MainFrame, 4155C
TestParameter, Channel.UnitType, SMU, SMU, SMU
TestParameter, Channel.Unit, SMU3:MP, SMU1:MP, SMU4:MP
TestParameter, Channel.IName, ID, IS, IG
TestParameter, Channel.VName, VD, VS, VG
TestParameter, Channel.Mode, V, COMMON, V
TestParameter, Channel.Func, CONST, CONST, VAR1
TestParameter, Channel.Index, 
TestParameter, Channel.Time, 
TestParameter, Measurement.Port.Unit, SMU3:MP, SMU1:MP, SMU4:MP
TestParameter, Measurement.Port.SeriesResistor, NONE, NONE, NONE
TestParameter, Measurement.Port.Filter, ON, ON, ON
TestParameter, Measurement.Primary.Locus, Double
TestParameter, Measurement.Primary.Scale, LINEAR
TestParameter, Measurement.Primary.Start, -2
TestParameter, Measurement.Primary.Stop, 3
TestParameter, Measurement.Primary.Step, 0.05
TestParameter, Measurement.Primary.Compliance, 0.001
TestParameter, Measurement.Primary.PowerCompliance, 0
TestParameter, Measurement.Aborting.Condition, CONTINUE AT ANY
TestParameter, Measurement.PostOutput.Value, START
TestParameter, Measurement.PostOutput.Retention, OFF
TestParameter, Measurement.Bias.Source, 0.1, 0, -2
TestParameter, Measurement.Bias.Compliance, 0.001, 0.1, 0.001
TestParameter, Measurement.Monitor.Unit, SMU3:MP, SMU1:MP, SMU4:MP
TestParameter, Measurement.Monitor.Adc, HR ADC, HR ADC, HR ADC
TestParameter, Measurement.Monitor.RangingMode, AUTO, AUTO, AUTO
TestParameter, Measurement.Monitor.RangeBoundary, , , 
TestParameter, Measurement.Monitor.RangeRating, BY FULL RANGE, BY FULL RANGE, BY FULL RANGE
TestParameter, Measurement.Monitor.RangeRatingCoeff, 50, 50, 50
TestParameter, Measurement.Timing.Hold, 0.5
TestParameter, Measurement.Timing.Delay, 0.05
TestParameter, Measurement.Adc.HighResolution.AutoZero, OFF
TestParameter, Measurement.Adc.HighResolution.Mode, AUTO
TestParameter, Measurement.Adc.HighResolution.Coeff, 1
TestParameter, Measurement.Ag16440ASelector.SemiconductorRelay.Channel1, DEFAULT
TestParameter, Measurement.Ag16440ASelector.SemiconductorRelay.Channel3, DEFAULT
TestParameter, Function.User.Name, absID, sqrtID, gm2, absIG
TestParameter, Function.User.Unit, A, A, A/V, A
TestParameter, Function.User.Definition, abs(ID), sqrt(abs(ID)), (delta(sqrtID)/delta(VG))^2, abs(IG)
TestParameter, Output.Graph.Enabled, true
TestParameter, Output.Graph.XAxis.Data, VG
TestParameter, Output.Graph.XAxis.Scale, Linear
TestParameter, Output.Graph.XAxis.Left, -5
TestParameter, Output.Graph.XAxis.Right, 7
TestParameter, Output.Graph.YAxis.Data, ID, absIG, gm2
TestParameter, Output.Graph.YAxis.Scale, Log, Log, Linear
TestParameter, Output.Graph.YAxis.Bottom, 1E-14, 1E-14, 0
TestParameter, Output.Graph.YAxis.Top, 0.01, 0.01, 1E-05
TestParameter, Output.Graph.YAxis.Group, , , 
TestParameter, Output.List.Data, VG, IG, VD, ID, VS, IS, sqrtID, gm2, absIG
TestParameter, AutoAnalysis.Interpolation, false
TestParameter, AutoAnalysis.Line1.Enabled, false
TestParameter, AutoAnalysis.Line1.Type, 1
TestParameter, AutoAnalysis.Line1.Fix, True
TestParameter, AutoAnalysis.Line1.YAxis, 0
TestParameter, AutoAnalysis.Line1.Point1.Type, 0
TestParameter, AutoAnalysis.Line1.Point1.XY.X, 
TestParameter, AutoAnalysis.Line1.Point1.XY.Y, 
TestParameter, AutoAnalysis.Line1.Point1.Data.Var, 
TestParameter, AutoAnalysis.Line1.Point1.Data.Condition, 
TestParameter, AutoAnalysis.Line1.Point1.Data.Start, false
TestParameter, AutoAnalysis.Line1.Point1.Data.StartVar, 
TestParameter, AutoAnalysis.Line1.Point1.Data.StartCondition, 
TestParameter, AutoAnalysis.Line1.Point2.Type, 0
TestParameter, AutoAnalysis.Line1.Point2.XY.X, 
TestParameter, AutoAnalysis.Line1.Point2.XY.Y, 
TestParameter, AutoAnalysis.Line1.Point2.Data.Var, 
TestParameter, AutoAnalysis.Line1.Point2.Data.Condition, 
TestParameter, AutoAnalysis.Line1.Point2.Data.Start, false
TestParameter, AutoAnalysis.Line1.Point2.Data.StartVar, 
TestParameter, AutoAnalysis.Line1.Point2.Data.StartCondition, 
TestParameter, AutoAnalysis.Line1.GradientExpr, 0
TestParameter, AutoAnalysis.Line2.Enabled, false
TestParameter, AutoAnalysis.Line2.Type, 1
TestParameter, AutoAnalysis.Line2.Fix, True
TestParameter, AutoAnalysis.Line2.YAxis, 0
TestParameter, AutoAnalysis.Line2.Point1.Type, 0
TestParameter, AutoAnalysis.Line2.Point1.XY.X, 
TestParameter, AutoAnalysis.Line2.Point1.XY.Y, 
TestParameter, AutoAnalysis.Line2.Point1.Data.Var, 
TestParameter, AutoAnalysis.Line2.Point1.Data.Condition, 
TestParameter, AutoAnalysis.Line2.Point1.Data.Start, false
TestParameter, AutoAnalysis.Line2.Point1.Data.StartVar, 
TestParameter, AutoAnalysis.Line2.Point1.Data.StartCondition, 
TestParameter, AutoAnalysis.Line2.Point2.Type, 0
TestParameter, AutoAnalysis.Line2.Point2.XY.X, 
TestParameter, AutoAnalysis.Line2.Point2.XY.Y, 
TestParameter, AutoAnalysis.Line2.Point2.Data.Var, 
TestParameter, AutoAnalysis.Line2.Point2.Data.Condition, 
TestParameter, AutoAnalysis.Line2.Point2.Data.Start, false
TestParameter, AutoAnalysis.Line2.Point2.Data.StartVar, 
TestParameter, AutoAnalysis.Line2.Point2.Data.StartCondition, 
TestParameter, AutoAnalysis.Line2.GradientExpr, 0
TestParameter, AutoAnalysis.Marker.Enabled, false
TestParameter, AutoAnalysis.Marker.Data.Var, 
TestParameter, AutoAnalysis.Marker.Data.Condition, 
TestParameter, AutoAnalysis.Marker.Data.Start, false
TestParameter, AutoAnalysis.Marker.Data.StartVar, 
TestParameter, AutoAnalysis.Marker.Data.StartCondition, 
MetaData, TestRecord.EntryPoint, true
MetaData, TestRecord.RecordTime, 05/02/2019 19:16:28
MetaData, TestRecord.TestTarget, 350-300-20-10b
MetaData, TestRecord.IterationIndex, 1
MetaData, TestRecord.Preservation, true
MetaData, TestRecord.Flag, 
MetaData, TestRecord.Remarks, good
MetaData, TestRecord.LinkKey, 39ea8e5a-8dcb-4556-9562-40431abf7ad2
Dimension1, 202, 202, 202, 202, 202, 202, 202, 202, 202, 202
Dimension2, 1, 1, 1, 1, 1, 1, 1, 1, 1, 1
DataName, VG, VD, VS, ID, IS, IG, absID, sqrtID, gm2, absIG
DataValue, -2, 0.1, 0, -3.5700000000000004E-13, 5.9500000000000009E-13, 3.7E-14, 3.5700000000000004E-13, 5.9749476985158625E-07, 1.6681409795783041E-12, 3.7E-14
DataValue, -1.9500000000000002, 0.1, 0, 2.84E-13, 1.199E-12, -2.591E-12, 2.84E-13, 5.3291650377896914E-07, 2.0454561108015308E-13, 2.591E-12
DataValue, -1.9000000000000001, 0.1, 0, 3.05E-13, -5.34E-13, 1.3300000000000001E-13, 3.05E-13, 5.52268050859363E-07, 1.769235577123403E-14, 1.3300000000000001E-13
DataValue, -1.85, 0.1, 0, 2.7E-13, 3.87E-13, 4.68E-13, 2.7E-13, 5.1961524227066323E-07, 3.4673399341571822E-12, 4.68E-13
DataValue, -1.8, 0.1, 0, 1.34E-13, 7.6400000000000008E-13, -1.871E-12, 1.34E-13, 3.6606010435446253E-07, 1.3045019678789945E-14, 1.871E-12
DataValue, -1.75, 0.1, 0, -2.82E-13, -8.5700000000000008E-13, 3.4E-14, 2.82E-13, 5.3103672189407016E-07, 1.6007236500708936E-10, 3.4E-14
DataValue, -1.7000000000000002, 0.1, 0, -2.661E-12, 6.8900000000000009E-13, 1.136E-12, 2.661E-12, 1.6312571838922274E-06, 1.4392858726639328E-11, 1.136E-12
DataValue, -1.6500000000000001, 0.1, 0, 2.3000000000000003E-14, 4.2000000000000004E-14, 1.08E-12, 2.3000000000000003E-14, 1.5165750888103103E-07, 1.1392195783191935E-10, 1.08E-12
DataValue, -1.6, 0.1, 0, 3.18E-13, 8.0400000000000011E-13, -2.3160000000000002E-12, 3.18E-13, 5.6391488719486736E-07, 4.1333849330441767E-12, 2.3160000000000002E-12
DataValue, -1.55, 0.1, 0, 1.2600000000000002E-13, -2.1330000000000003E-12, 3.3740000000000004E-12, 1.2600000000000002E-13, 3.54964786985977E-07, 1.1897707342713531E-11, 3.3740000000000004E-12
DataValue, -1.5, 0.1, 0, -8.26E-13, 1.867E-12, 1.54E-13, 8.26E-13, 9.0884542140014112E-07, 2.5609248863950527E-12, 1.54E-13
DataValue, -1.4500000000000002, 0.1, 0, 3.8E-14, -9.3000000000000008E-14, -2.3090000000000004E-12, 3.8E-14, 1.9493588689617928E-07, 3.0053025314616909E-11, 2.3090000000000004E-12
DataValue, -1.4000000000000001, 0.1, 0, 2.123E-12, 7.4500000000000006E-13, -9.3000000000000008E-14, 2.123E-12, 1.4570518178843196E-06, 8.4600950371972416E-12, 9.3000000000000008E-14
DataValue, -1.35, 0.1, 0, 2.36E-13, 2.1400000000000002E-13, -3.855E-12, 2.36E-13, 4.8579831205964476E-07, 3.445623651921543E-11, 3.855E-12
DataValue, -1.3, 0.1, 0, 7.5700000000000011E-13, 1.1960000000000002E-12, 2.0400000000000001E-13, 7.5700000000000011E-13, 8.7005746936624829E-07, 3.3409359673340061E-12, 2.0400000000000001E-13
DataValue, -1.25, 0.1, 0, -4.47E-13, 4.5900000000000006E-13, 3.862E-12, 4.47E-13, 6.6858058601787115E-07, 1.8950016523465094E-11, 3.862E-12
DataValue, -1.2, 0.1, 0, -1.89E-13, 1.946E-12, -2.0410000000000003E-12, 1.89E-13, 4.3474130238568316E-07, 1.1239409902075915E-12, 2.0410000000000003E-12
DataValue, -1.1500000000000001, 0.1, 0, 6.0000000000000007E-13, 8.5E-14, -2.4260000000000004E-12, 6.0000000000000007E-13, 7.7459666924148343E-07, 3.8778733113875239E-12, 2.4260000000000004E-12
DataValue, -1.1, 0.1, 0, 3.99E-13, -1.6930000000000002E-12, 1.216E-12, 3.99E-13, 6.316644678941503E-07, 3.5604462877190266E-13, 1.216E-12
DataValue, -1.05, 0.1, 0, -6.9600000000000006E-13, 1.3710000000000001E-12, 2.0700000000000003E-13, 6.9600000000000006E-13, 8.3426614458456847E-07, 2.1424622582326651E-11, 2.0700000000000003E-13
DataValue, -1, 0.1, 0, -1.1980000000000002E-12, 4.3200000000000003E-13, 1.251E-12, 1.1980000000000002E-12, 1.0945318634009703E-06, 1.5962009953404428E-11, 1.251E-12
DataValue, -0.95000000000000007, 0.1, 0, 1.89E-13, 1.5410000000000002E-12, -1.927E-12, 1.89E-13, 4.3474130238568316E-07, 1.9326985401398855E-12, 1.927E-12
DataValue, -0.9, 0.1, 0, -9.13E-13, 1.1520000000000001E-12, -5.7340000000000004E-12, 9.13E-13, 9.555103348473004E-07, 7.241144960238552E-11, 5.7340000000000004E-12
DataValue, -0.85000000000000009, 0.1, 0, 1.6530000000000001E-12, -3.0260000000000002E-12, 1.588E-12, 1.6530000000000001E-12, 1.2856904759700136E-06, 9.4135194998100932E-13, 1.588E-12
DataValue, -0.8, 0.1, 0, -7.3700000000000009E-13, 1.09E-13, 1.921E-12, 7.3700000000000009E-13, 8.5848704125339024E-07, 1.3530714366717409E-10, 1.921E-12
DataValue, -0.75, 0.1, 0, -1.5000000000000002E-14, 3.5E-13, 1.83E-13, 1.5000000000000002E-14, 1.2247448713915892E-07, 6.6815550495931847E-12, 1.83E-13
DataValue, -0.70000000000000007, 0.1, 0, 3.6000000000000003E-13, 5.91E-13, -2.966E-12, 3.6000000000000003E-13, 6.0000000000000008E-07, 7.7020410288672919E-12, 2.966E-12
DataValue, -0.65, 0.1, 0, 1.6000000000000003E-13, -1.162E-12, -1.6340000000000001E-12, 1.6000000000000003E-13, 4.0000000000000003E-07, 1.5416270376006711E-11, 1.6340000000000001E-12
DataValue, -0.6, 0.1, 0, -4.3000000000000006E-14, -1.8870000000000003E-12, 2.4720000000000004E-12, 4.3000000000000006E-14, 2.0736441353327722E-07, 8.1319006389264035E-14, 2.4720000000000004E-12
DataValue, -0.55, 0.1, 0, -1.3800000000000002E-13, -4.3800000000000005E-13, -6.31E-13, 1.3800000000000002E-13, 3.7148351242013424E-07, 2.2086496600698496E-10, 6.31E-13
DataValue, -0.5, 0.1, 0, 2.8680000000000003E-12, 5.2400000000000009E-13, -2.9700000000000005E-13, 2.8680000000000003E-12, 1.693517050401324E-06, 1.9441073568195386E-11, 2.9700000000000005E-13
DataValue, -0.45, 0.1, 0, 6.6E-13, 9.0400000000000009E-13, -1.356E-12, 6.6E-13, 8.1240384046359606E-07, 1.3107556673031405E-10, 1.356E-12
DataValue, -0.4, 0.1, 0, 3.0100000000000003E-13, -5.7100000000000009E-13, -1.205E-12, 3.0100000000000003E-13, 5.4863466897380816E-07, 1.2160767192650552E-11, 1.205E-12
DataValue, -0.35000000000000003, 0.1, 0, 2.1500000000000002E-13, -2.3100000000000003E-13, -2.311E-12, 2.1500000000000002E-13, 4.6368092477478522E-07, 1.8255578546688902E-12, 2.311E-12
DataValue, -0.3, 0.1, 0, -1.71E-13, -4.5600000000000008E-13, -8E-15, 1.71E-13, 4.1352146256270667E-07, 8.3318124070862749E-12, 8E-15
DataValue, -0.25, 0.1, 0, 5.66E-13, -4.8400000000000006E-13, 3.3480000000000003E-12, 5.66E-13, 7.5232971495216115E-07, 4.0273286038556287E-14, 3.3480000000000003E-12
DataValue, -0.2, 0.1, 0, 1.88E-13, 4.3370000000000006E-12, -9.73E-13, 1.88E-13, 4.33589667773576E-07, 1.957983269013291E-11, 9.73E-13
DataValue, -0.15, 0.1, 0, -9.6000000000000007E-14, 1.251E-12, -6.0100000000000004E-12, 9.6000000000000007E-14, 3.0983866769659334E-07, 4.3381638822433391E-12, 6.0100000000000004E-12
DataValue, -0.1, 0.1, 0, 4.12E-13, -2.2950000000000002E-12, -8.0000000000000013E-14, 4.12E-13, 6.4187226143524853E-07, 2.2769365590171958E-10, 8.0000000000000013E-14
DataValue, -0.05, 0.1, 0, 3.3080000000000004E-12, 1.5000000000000002E-13, 1.573E-12, 3.3080000000000004E-12, 1.8187908071023452E-06, 1.5560457006196844E-11, 1.573E-12
DataValue, 0, 0.1, 0, 1.074E-12, -3.7900000000000005E-13, 3.5450000000000003E-12, 1.074E-12, 1.0363397126425293E-06, 1.2425834896364703E-11, 3.5450000000000003E-12
DataValue, 0.05, 0.1, 0, 2.1500000000000003E-12, -3.1000000000000004E-13, 2.5010000000000003E-12, 2.1500000000000003E-12, 1.4662878298615181E-06, 7.6946917615301857E-12, 2.5010000000000003E-12
DataValue, 0.1, 0.1, 0, -5.7600000000000007E-13, 1.09E-13, -2.0280000000000002E-12, 5.7600000000000007E-13, 7.5894663844041111E-07, 1.4273726383174856E-10, 2.0280000000000002E-12
DataValue, 0.15, 0.1, 0, 7.081E-12, -2.46E-13, -2.273E-12, 7.081E-12, 2.66101484400219E-06, 6.3317627776988393E-11, 2.273E-12
DataValue, 0.2, 0.1, 0, 2.4170000000000003E-12, -3.2270000000000003E-12, 6.84E-13, 2.4170000000000003E-12, 1.5546703830716016E-06, 1.2070205051365276E-10, 6.84E-13
DataValue, 0.25, 0.1, 0, 2.441E-12, -4.872E-12, -5.0600000000000007E-13, 2.441E-12, 1.56236999459155E-06, 2.8228713470148946E-10, 5.0600000000000007E-13
DataValue, 0.3, 0.1, 0, 1.0464E-11, -9.0670000000000008E-12, 5.177E-12, 1.0464E-11, 3.2348106590649168E-06, 1.1062846711080111E-09, 5.177E-12
DataValue, 0.35000000000000003, 0.1, 0, 2.3897000000000003E-11, -1.7877E-11, -9.373E-12, 2.3897000000000003E-11, 4.88845578889694E-06, 2.0118433991914907E-09, 9.373E-12
DataValue, 0.4, 0.1, 0, 5.9601E-11, -5.4548000000000004E-11, -2.272E-12, 5.9601E-11, 7.7201683919458652E-06, 3.8400388430295632E-09, 2.272E-12
DataValue, 0.45, 0.1, 0, 1.2288300000000002E-10, -1.1966E-10, 7.9250000000000011E-12, 1.2288300000000002E-10, 1.108526048408426E-05, 6.2601420006331456E-09, 7.9250000000000011E-12
DataValue, 0.5, 0.1, 0, 2.4436800000000004E-10, -2.32877E-10, 1.049E-12, 2.4436800000000004E-10, 1.5632274306702785E-05, 1.0519735868641534E-08, 1.049E-12
DataValue, 0.55, 0.1, 0, 4.55474E-10, -4.35954E-10, -6.1E-13, 4.55474E-10, 2.1341836846907063E-05, 1.5813538453836174E-08, 6.1E-13
DataValue, 0.6, 0.1, 0, 7.95661E-10, -7.683450000000001E-10, 1.04E-12, 7.95661E-10, 2.8207463551336906E-05, 1.9738181133732853E-08, 1.04E-12
DataValue, 0.65, 0.1, 0, 1.25253E-09, -1.2106E-09, -8.6300000000000006E-13, 1.25253E-09, 3.5391100576274821E-05, 2.8520797703063918E-08, 8.6300000000000006E-13
DataValue, 0.70000000000000007, 0.1, 0, 2.03361E-09, -2.01682E-09, -6.1640000000000008E-12, 2.03361E-09, 4.5095565192156092E-05, 4.1494042980569386E-08, 6.1640000000000008E-12
DataValue, 0.75, 0.1, 0, 3.10931E-09, -3.07201E-09, -5.3760000000000005E-12, 3.10931E-09, 5.5761187218351082E-05, 4.6677103777733918E-08, 5.3760000000000005E-12
DataValue, 0.8, 0.1, 0, 4.44895E-09, -4.38851E-09, -2.6810000000000004E-12, 4.44895E-09, 6.670044977359598E-05, 5.1620513161066779E-08, 2.6810000000000004E-12
DataValue, 0.85000000000000009, 0.1, 0, 6.15932E-09, -6.0745E-09, 6.9130000000000009E-12, 6.15932E-09, 7.8481335360708533E-05, 5.7299916852135444E-08, 6.9130000000000009E-12
DataValue, 0.9, 0.1, 0, 8.21522E-09, -8.12555E-09, 3.3020000000000003E-12, 8.21522E-09, 9.0637850813001953E-05, 5.9995610910703638E-08, 3.3020000000000003E-12
DataValue, 0.95000000000000007, 0.1, 0, 1.060392E-08, -1.050096E-08, -3.996E-12, 1.060392E-08, 0.00010297533685305429, 5.4363992463600912E-08, 3.996E-12
DataValue, 1, 0.1, 0, 1.2985499999999999E-08, -1.27785E-08, 2.599E-12, 1.2985499999999999E-08, 0.00011395393806271023, 5.8006273439466747E-08, 2.599E-12
DataValue, 1.05, 0.1, 0, 1.61442E-08, -1.60103E-08, -2.8680000000000003E-12, 1.61442E-08, 0.00012705982842739871, 6.9481179933610262E-08, 2.8680000000000003E-12
DataValue, 1.1, 0.1, 0, 1.9687799999999996E-08, -1.9535699999999997E-08, 3.0560000000000003E-12, 1.9687799999999996E-08, 0.00014031322104491792, 7.0815856681190538E-08, 3.0560000000000003E-12
DataValue, 1.1500000000000001, 0.1, 0, 2.36148E-08, -2.3532599999999998E-08, 6.702E-12, 2.36148E-08, 0.00015367107730474203, 7.0435611172136909E-08, 6.702E-12
DataValue, 1.2, 0.1, 0, 2.7839899999999998E-08, -2.7728099999999997E-08, -4.3210000000000007E-12, 2.7839899999999998E-08, 0.00016685292925208115, 7.0251225456427919E-08, 4.3210000000000007E-12
DataValue, 1.25, 0.1, 0, 3.24634E-08, -3.23224E-08, 9.73E-13, 3.24634E-08, 0.00018017602504217923, 7.064829173247527E-08, 9.73E-13
DataValue, 1.3, 0.1, 0, 3.7416199999999993E-08, -3.7284E-08, 6.681E-12, 3.7416199999999993E-08, 0.00019343267562643081, 7.1740181419336777E-08, 6.681E-12
DataValue, 1.35, 0.1, 0, 4.2832599999999995E-08, -4.2703999999999996E-08, 4.1600000000000004E-13, 4.2832599999999995E-08, 0.00020696038268229016, 7.2746173471861766E-08, 4.1600000000000004E-13
DataValue, 1.4000000000000001, 0.1, 0, 4.8577999999999993E-08, -4.8413499999999992E-08, -9.485E-12, 4.8577999999999993E-08, 0.00022040417418914732, 7.424457651817202E-08, 9.485E-12
DataValue, 1.4500000000000002, 0.1, 0, 5.4853499999999996E-08, -5.45663E-08, 1.0156000000000002E-11, 5.4853499999999996E-08, 0.00023420824067483192, 7.6384565343603166E-08, 1.0156000000000002E-11
DataValue, 1.5, 0.1, 0, 6.1524799999999993E-08, -6.1370299999999989E-08, 8.0900000000000013E-12, 6.1524799999999993E-08, 0.00024804193193893645, 7.5702742202075224E-08, 8.0900000000000013E-12
DataValue, 1.55, 0.1, 0, 6.8498599999999988E-08, -6.83828E-08, -1.2440000000000002E-12, 6.8498599999999988E-08, 0.00026172237198986256, 7.5515688503921E-08, 1.2440000000000002E-12
DataValue, 1.6, 0.1, 0, 7.59124E-08, -7.5675699999999993E-08, 1.7200000000000002E-13, 7.59124E-08, 0.00027552204993430197, 7.70920301900178E-08, 1.7200000000000002E-13
DataValue, 1.6500000000000001, 0.1, 0, 8.38032E-08, -8.37209E-08, 6E-12, 8.38032E-08, 0.00028948782357812562, 7.85057992261844E-08, 6E-12
DataValue, 1.7000000000000002, 0.1, 0, 9.2137099999999992E-08, -9.1963799999999991E-08, 4.3400000000000005E-12, 9.2137099999999992E-08, 0.00030354093628372431, 7.7001555270996813E-08, 4.3400000000000005E-12
DataValue, 1.75, 0.1, 0, 1.006393E-07, -1.0042629999999999E-07, 3.1280000000000004E-12, 1.006393E-07, 0.00031723697766811485, 7.62925642664258E-08, 3.1280000000000004E-12
DataValue, 1.8, 0.1, 0, 1.0966829999999999E-07, -1.0940279999999999E-07, 1.209E-12, 1.0966829999999999E-07, 0.00033116204492664912, 7.0826669569935588E-08, 1.209E-12
DataValue, 1.85, 0.1, 0, 1.18233E-07, -1.17893E-07, 5.4780000000000007E-12, 1.18233E-07, 0.00034385025810663571, 7.1526118878191642E-08, 5.4780000000000007E-12
DataValue, 1.9000000000000001, 0.1, 0, 1.2809699999999999E-07, -1.27845E-07, 1.621E-12, 1.2809699999999999E-07, 0.00035790641234825619, 7.8772276540143508E-08, 1.621E-12
DataValue, 1.9500000000000002, 0.1, 0, 1.3832199999999999E-07, -1.38072E-07, 2.8770000000000004E-12, 1.3832199999999999E-07, 0.00037191665733064442, 7.7880143397079486E-08, 2.8770000000000004E-12
DataValue, 2, 0.1, 0, 1.48852E-07, -1.48719E-07, 5.227E-12, 1.48852E-07, 0.00038581342641230096, 7.53521265306888E-08, 5.227E-12
DataValue, 2.05, 0.1, 0, 1.5949399999999999E-07, -1.5925E-07, 6.9410000000000004E-12, 1.5949399999999999E-07, 0.00039936699913738487, 7.3654461109915333E-08, 6.9410000000000004E-12
DataValue, 2.1, 0.1, 0, 1.7053E-07, -1.7042E-07, 6.7290000000000009E-12, 1.7053E-07, 0.0004129527818044092, 7.2572204971624249E-08, 6.7290000000000009E-12
DataValue, 2.15, 0.1, 0, 1.81737E-07, -1.81486E-07, 8.4160000000000013E-12, 1.81737E-07, 0.00042630622796295157, 7.2609069954203153E-08, 8.4160000000000013E-12
DataValue, 2.2, 0.1, 0, 1.93511E-07, -1.9324E-07, 9.217E-12, 1.93511E-07, 0.00043989885201032295, 7.1905326567586692E-08, 9.217E-12
DataValue, 2.25, 0.1, 0, 2.05319E-07, -2.0531699999999999E-07, 1.1892000000000001E-11, 2.05319E-07, 0.00045312139653739592, 7.1006077970366869E-08, 1.1892000000000001E-11
