
SetupTitle, Transfer lin
PrimitiveTest, I/V Sweep
TestParameter, Context.MainFrame, 4155C
TestParameter, Channel.UnitType, SMU, SMU, SMU
TestParameter, Channel.Unit, SMU3:MP, SMU1:MP, SMU4:MP
TestParameter, Channel.IName, ID, IS, IG
TestParameter, Channel.VName, VD, VS, VG
TestParameter, Channel.Mode, V, COMMON, V
TestParameter, Channel.Func, CONST, CONST, VAR1
TestParameter, Channel.Index, 
TestParameter, Channel.Time, 
TestParameter, Measurement.Port.Unit, SMU3:MP, SMU1:MP, SMU4:MP
TestParameter, Measurement.Port.SeriesResistor, NONE, NONE, NONE
TestParameter, Measurement.Port.Filter, ON, ON, ON
TestParameter, Measurement.Primary.Locus, Double
TestParameter, Measurement.Primary.Scale, LINEAR
TestParameter, Measurement.Primary.Start, -2
TestParameter, Measurement.Primary.Stop, 3
TestParameter, Measurement.Primary.Step, 0.05
TestParameter, Measurement.Primary.Compliance, 0.001
TestParameter, Measurement.Primary.PowerCompliance, 0
TestParameter, Measurement.Aborting.Condition, CONTINUE AT ANY
TestParameter, Measurement.PostOutput.Value, START
TestParameter, Measurement.PostOutput.Retention, OFF
TestParameter, Measurement.Bias.Source, 0.1, 0, -2
TestParameter, Measurement.Bias.Compliance, 0.001, 0.1, 0.001
TestParameter, Measurement.Monitor.Unit, SMU3:MP, SMU1:MP, SMU4:MP
TestParameter, Measurement.Monitor.Adc, HR ADC, HR ADC, HR ADC
TestParameter, Measurement.Monitor.RangingMode, AUTO, AUTO, AUTO
TestParameter, Measurement.Monitor.RangeBoundary, , , 
TestParameter, Measurement.Monitor.RangeRating, BY FULL RANGE, BY FULL RANGE, BY FULL RANGE
TestParameter, Measurement.Monitor.RangeRatingCoeff, 50, 50, 50
TestParameter, Measurement.Timing.Hold, 0.5
TestParameter, Measurement.Timing.Delay, 0.05
TestParameter, Measurement.Adc.HighResolution.AutoZero, OFF
TestParameter, Measurement.Adc.HighResolution.Mode, AUTO
TestParameter, Measurement.Adc.HighResolution.Coeff, 1
TestParameter, Measurement.Ag16440ASelector.SemiconductorRelay.Channel1, DEFAULT
TestParameter, Measurement.Ag16440ASelector.SemiconductorRelay.Channel3, DEFAULT
TestParameter, Function.User.Name, absID, sqrtID, gm2, absIG
TestParameter, Function.User.Unit, A, A, A/V, A
TestParameter, Function.User.Definition, abs(ID), sqrt(abs(ID)), (delta(sqrtID)/delta(VG))^2, abs(IG)
TestParameter, Output.Graph.Enabled, true
TestParameter, Output.Graph.XAxis.Data, VG
TestParameter, Output.Graph.XAxis.Scale, Linear
TestParameter, Output.Graph.XAxis.Left, -5
TestParameter, Output.Graph.XAxis.Right, 7
TestParameter, Output.Graph.YAxis.Data, ID, absIG, gm2
TestParameter, Output.Graph.YAxis.Scale, Log, Log, Linear
TestParameter, Output.Graph.YAxis.Bottom, 1E-14, 1E-14, 0
TestParameter, Output.Graph.YAxis.Top, 0.01, 0.01, 1E-05
TestParameter, Output.Graph.YAxis.Group, , , 
TestParameter, Output.List.Data, VG, IG, VD, ID, VS, IS, sqrtID, gm2, absIG
TestParameter, AutoAnalysis.Interpolation, false
TestParameter, AutoAnalysis.Line1.Enabled, false
TestParameter, AutoAnalysis.Line1.Type, 1
TestParameter, AutoAnalysis.Line1.Fix, True
TestParameter, AutoAnalysis.Line1.YAxis, 0
TestParameter, AutoAnalysis.Line1.Point1.Type, 0
TestParameter, AutoAnalysis.Line1.Point1.XY.X, 
TestParameter, AutoAnalysis.Line1.Point1.XY.Y, 
TestParameter, AutoAnalysis.Line1.Point1.Data.Var, 
TestParameter, AutoAnalysis.Line1.Point1.Data.Condition, 
TestParameter, AutoAnalysis.Line1.Point1.Data.Start, false
TestParameter, AutoAnalysis.Line1.Point1.Data.StartVar, 
TestParameter, AutoAnalysis.Line1.Point1.Data.StartCondition, 
TestParameter, AutoAnalysis.Line1.Point2.Type, 0
TestParameter, AutoAnalysis.Line1.Point2.XY.X, 
TestParameter, AutoAnalysis.Line1.Point2.XY.Y, 
TestParameter, AutoAnalysis.Line1.Point2.Data.Var, 
TestParameter, AutoAnalysis.Line1.Point2.Data.Condition, 
TestParameter, AutoAnalysis.Line1.Point2.Data.Start, false
TestParameter, AutoAnalysis.Line1.Point2.Data.StartVar, 
TestParameter, AutoAnalysis.Line1.Point2.Data.StartCondition, 
TestParameter, AutoAnalysis.Line1.GradientExpr, 0
TestParameter, AutoAnalysis.Line2.Enabled, false
TestParameter, AutoAnalysis.Line2.Type, 1
TestParameter, AutoAnalysis.Line2.Fix, True
TestParameter, AutoAnalysis.Line2.YAxis, 0
TestParameter, AutoAnalysis.Line2.Point1.Type, 0
TestParameter, AutoAnalysis.Line2.Point1.XY.X, 
TestParameter, AutoAnalysis.Line2.Point1.XY.Y, 
TestParameter, AutoAnalysis.Line2.Point1.Data.Var, 
TestParameter, AutoAnalysis.Line2.Point1.Data.Condition, 
TestParameter, AutoAnalysis.Line2.Point1.Data.Start, false
TestParameter, AutoAnalysis.Line2.Point1.Data.StartVar, 
TestParameter, AutoAnalysis.Line2.Point1.Data.StartCondition, 
TestParameter, AutoAnalysis.Line2.Point2.Type, 0
TestParameter, AutoAnalysis.Line2.Point2.XY.X, 
TestParameter, AutoAnalysis.Line2.Point2.XY.Y, 
TestParameter, AutoAnalysis.Line2.Point2.Data.Var, 
TestParameter, AutoAnalysis.Line2.Point2.Data.Condition, 
TestParameter, AutoAnalysis.Line2.Point2.Data.Start, false
TestParameter, AutoAnalysis.Line2.Point2.Data.StartVar, 
TestParameter, AutoAnalysis.Line2.Point2.Data.StartCondition, 
TestParameter, AutoAnalysis.Line2.GradientExpr, 0
TestParameter, AutoAnalysis.Marker.Enabled, false
TestParameter, AutoAnalysis.Marker.Data.Var, 
TestParameter, AutoAnalysis.Marker.Data.Condition, 
TestParameter, AutoAnalysis.Marker.Data.Start, false
TestParameter, AutoAnalysis.Marker.Data.StartVar, 
TestParameter, AutoAnalysis.Marker.Data.StartCondition, 
MetaData, TestRecord.EntryPoint, true
MetaData, TestRecord.RecordTime, 05/02/2019 15:55:22
MetaData, TestRecord.TestTarget, br-br-20-20
MetaData, TestRecord.IterationIndex, 1
MetaData, TestRecord.Preservation, true
MetaData, TestRecord.Flag, 
MetaData, TestRecord.Remarks, good
MetaData, TestRecord.LinkKey, f4529b20-6a77-4c13-ad8a-04c402cedbe6
Dimension1, 202, 202, 202, 202, 202, 202, 202, 202, 202, 202
Dimension2, 1, 1, 1, 1, 1, 1, 1, 1, 1, 1
DataName, VG, VD, VS, ID, IS, IG, absID, sqrtID, gm2, absIG
DataValue, -2, 0.1, 0, 8.43E-13, 3.18E-13, -1.4510000000000002E-12, 8.43E-13, 9.1815031449104239E-07, 6.4458381728696791E-11, 1.4510000000000002E-12
DataValue, -1.9500000000000002, 0.1, 0, -2.67E-13, -6.0000000000000005E-15, 4.2500000000000006E-13, 2.67E-13, 5.167204273105525E-07, 3.4905705511614919E-13, 4.2500000000000006E-13
DataValue, -1.9000000000000001, 0.1, 0, 7.3800000000000009E-13, 1.803E-12, -1.8780000000000003E-12, 7.3800000000000009E-13, 8.5906926379658128E-07, 6.5244944129362426E-13, 1.8780000000000003E-12
DataValue, -1.85, 0.1, 0, 3.5700000000000004E-13, -2.1000000000000001E-13, 8.8400000000000007E-13, 3.5700000000000004E-13, 5.9749476985158625E-07, 4.4511490381296843E-12, 8.8400000000000007E-13
DataValue, -1.8, 0.1, 0, -1.145E-12, -4.0000000000000006E-14, 2.581E-12, 1.145E-12, 1.0700467279516349E-06, 7.2529563724058158E-11, 2.581E-12
DataValue, -1.75, 0.1, 0, -2.1000000000000003E-12, 4.6000000000000006E-14, 8.22E-13, 2.1000000000000003E-12, 1.449137674618944E-06, 1.741893471196611E-11, 8.22E-13
DataValue, -1.7000000000000002, 0.1, 0, -4.2600000000000005E-13, -9.48E-13, -2.2130000000000004E-12, 4.2600000000000005E-13, 6.5268675488322882E-07, 6.27954739238684E-14, 2.2130000000000004E-12
DataValue, -1.6500000000000001, 0.1, 0, -2.0280000000000002E-12, -2.6640000000000004E-12, -1.75E-13, 2.0280000000000002E-12, 1.424078649513432E-06, 1.1442820067844681E-11, 1.75E-13
DataValue, -1.6, 0.1, 0, -9.82E-13, 2.3790000000000003E-12, 1.9870000000000003E-12, 9.82E-13, 9.9095913134699954E-07, 5.35795292213413E-11, 1.9870000000000003E-12
DataValue, -1.55, 0.1, 0, -4.7900000000000008E-13, 1.6550000000000001E-12, -2.2710000000000003E-12, 4.7900000000000008E-13, 6.9209825891993119E-07, 1.6208472251591302E-11, 2.2710000000000003E-12
DataValue, -1.5, 0.1, 0, 1.942E-12, -7.360000000000001E-13, -4.1400000000000005E-13, 1.942E-12, 1.3935566009315876E-06, 6.2750541494994584E-11, 4.1400000000000005E-13
DataValue, -1.4500000000000002, 0.1, 0, 2.2030000000000002E-12, 8.89E-13, 6.7E-14, 2.2030000000000002E-12, 1.4842506526863985E-06, 3.1040230123557778E-12, 6.7E-14
DataValue, -1.4000000000000001, 0.1, 0, -1.4820000000000002E-12, -3.16E-13, 1.3200000000000002E-13, 1.4820000000000002E-12, 1.2173742234826563E-06, 7.5733052914139E-11, 1.3200000000000002E-13
DataValue, -1.35, 0.1, 0, 3.77E-13, -8.5700000000000008E-13, 8.3200000000000009E-13, 3.77E-13, 6.1400325732035011E-07, 1.5094747342889984E-11, 8.3200000000000009E-13
DataValue, -1.3, 0.1, 0, -6.870000000000001E-13, 1.3100000000000002E-13, -7.6E-14, 6.870000000000001E-13, 8.2885463140408414E-07, 1.2348070450118753E-11, 7.6E-14
DataValue, -1.25, 0.1, 0, 9.32E-13, 1.3800000000000002E-13, 6.6600000000000009E-13, 9.32E-13, 9.6540147089177359E-07, 2.2191990422877924E-11, 6.6600000000000009E-13
DataValue, -1.2, 0.1, 0, 1.28E-13, 7.6400000000000008E-13, 9.69E-13, 1.28E-13, 3.5777087639996637E-07, 6.0358319565795574E-12, 9.69E-13
DataValue, -1.1500000000000001, 0.1, 0, -5.18E-13, -6.0400000000000005E-13, -1.1580000000000001E-12, 5.18E-13, 7.1972216861786323E-07, 1.2628867984974466E-10, 1.1580000000000001E-12
DataValue, -1.1, 0.1, 0, -2.1950000000000002E-12, -2.3000000000000003E-13, 1.09E-12, 2.1950000000000002E-12, 1.4815532390029054E-06, 7.8555662764273338E-12, 1.09E-12
DataValue, -1.05, 0.1, 0, -1E-12, 2.06E-13, 2.3200000000000002E-12, 1E-12, 1E-06, 5.317669480289854E-11, 2.3200000000000002E-12
DataValue, -1, 0.1, 0, 5.66E-13, 3.5700000000000004E-13, -9.65E-13, 5.66E-13, 7.5232971495216115E-07, 5.1684498233451324E-12, 9.65E-13
DataValue, -0.95000000000000007, 0.1, 0, 5.9700000000000008E-13, -4.48E-13, -1.036E-12, 5.9700000000000008E-13, 7.7265775088327439E-07, 4.376074494674453E-12, 1.036E-12
DataValue, -0.9, 0.1, 0, -2.95E-13, -9.2000000000000012E-14, 1.138E-12, 2.95E-13, 5.4313902456001079E-07, 8.3476087339007016E-12, 1.138E-12
DataValue, -0.85000000000000009, 0.1, 0, -2.34E-13, 5.7100000000000009E-13, 7.6400000000000008E-13, 2.34E-13, 4.83735464897913E-07, 4.1027028014207516E-12, 7.6400000000000008E-13
DataValue, -0.8, 0.1, 0, 1.16E-13, 5.81E-13, 3.26E-13, 1.16E-13, 3.4058772731852803E-07, 6.0160105055856086E-11, 3.26E-13
DataValue, -0.75, 0.1, 0, -1.5860000000000001E-12, 1.4650000000000001E-12, 1.2170000000000002E-12, 1.5860000000000001E-12, 1.2593649193144933E-06, 7.2097601838697534E-12, 1.2170000000000002E-12
DataValue, -0.70000000000000007, 0.1, 0, 3.7100000000000003E-13, -1.661E-12, -9.17E-13, 3.7100000000000003E-13, 6.0909769331364245E-07, 1.6070307311877266E-11, 9.17E-13
DataValue, -0.65, 0.1, 0, -7.3700000000000009E-13, 1.418E-12, 3.7320000000000007E-12, 7.3700000000000009E-13, 8.5848704125339024E-07, 4.9770268911035276E-12, 3.7320000000000007E-12
DataValue, -0.6, 0.1, 0, -1.4900000000000002E-13, -5.3E-14, 6.7400000000000006E-13, 1.4900000000000002E-13, 3.8600518131237568E-07, 4.0796380417451E-12, 6.7400000000000006E-13
DataValue, -0.55, 0.1, 0, 4.3100000000000003E-13, 1.4E-13, 1.4800000000000002E-12, 4.3100000000000003E-13, 6.5650590248679407E-07, 8.5087525522834615E-11, 1.4800000000000002E-12
DataValue, -0.5, 0.1, 0, -1.7120000000000002E-12, -3.3000000000000005E-14, 8.2E-14, 1.7120000000000002E-12, 1.3084341787036901E-06, 1.720002899391187E-12, 8.2E-14
DataValue, -0.45, 0.1, 0, 2.7600000000000004E-13, 7.8000000000000011E-13, 1.837E-12, 2.7600000000000004E-13, 5.2535702146254789E-07, 3.8076148614949072E-11, 1.837E-12
DataValue, -0.4, 0.1, 0, 4.7800000000000008E-13, 7.4600000000000005E-13, 3.9400000000000004E-13, 4.7800000000000008E-13, 6.9137544069774425E-07, 1.6604917096434282E-12, 3.9400000000000004E-13
DataValue, -0.35000000000000003, 0.1, 0, -4.2800000000000004E-13, -9.44E-13, 3.2E-14, 4.2800000000000004E-13, 6.5421708935184506E-07, 1.7916304559564724E-12, 3.2E-14
DataValue, -0.3, 0.1, 0, -6.81E-13, 4.6100000000000006E-13, 5.9700000000000008E-13, 6.81E-13, 8.2522724143111032E-07, 1.2546974638889287E-11, 5.9700000000000008E-13
DataValue, -0.25, 0.1, 0, -9.0000000000000008E-14, 1.6700000000000002E-13, -1.377E-12, 9.0000000000000008E-14, 3.0000000000000004E-07, 6.8628800944464584E-12, 1.377E-12
DataValue, -0.2, 0.1, 0, -1.182E-12, 8.0800000000000009E-13, 1.3760000000000002E-12, 1.182E-12, 1.0871982339941507E-06, 2.6334038989723836E-14, 1.3760000000000002E-12
DataValue, -0.15, 0.1, 0, 1E-13, -8.94E-13, -1.145E-12, 1E-13, 3.1622776601683792E-07, 4.4898732092654833E-11, 1.145E-12
DataValue, -0.1, 0.1, 0, -1.7400000000000002E-13, 7.29E-13, 1.7020000000000002E-12, 1.7400000000000002E-13, 4.1713307229228423E-07, 3.7085044646688846E-11, 1.7020000000000002E-12
DataValue, -0.05, 0.1, 0, -8.5600000000000009E-13, 3.9000000000000004E-14, 1.4E-14, 8.5600000000000009E-13, 9.252026804976303E-07, 8.3874462808463826E-14, 1.4E-14
DataValue, 0, 0.1, 0, 1.99E-13, 1.9370000000000003E-12, 4.796E-12, 1.99E-13, 4.4609416046390925E-07, 1.4093061004985309E-10, 4.796E-12
DataValue, 0.05, 0.1, 0, -4.462E-12, -3.2870000000000004E-12, 3.555E-12, 4.462E-12, 2.1123446688454989E-06, 1.0891050784044466E-12, 3.555E-12
DataValue, 0.1, 0.1, 0, 3.03E-13, 2.703E-12, 3.5660000000000004E-12, 3.03E-13, 5.5045435778091545E-07, 1.1361901194464382E-10, 3.5660000000000004E-12
DataValue, 0.15, 0.1, 0, 1.095E-12, 2.7460000000000002E-12, -4.2840000000000007E-12, 1.095E-12, 1.0464224768228176E-06, 2.9254588102582947E-11, 4.2840000000000007E-12
DataValue, 0.2, 0.1, 0, 1.191E-12, -2.47E-13, -2.0200000000000002E-13, 1.191E-12, 1.0913294644606641E-06, 1.991177999162644E-11, 2.0200000000000002E-13
DataValue, 0.25, 0.1, 0, 2.228E-12, -1.7250000000000002E-12, 4.5000000000000005E-13, 2.228E-12, 1.4926486525636233E-06, 1.4446152994999479E-10, 4.5000000000000005E-13
DataValue, 0.3, 0.1, 0, 5.259E-12, -5.932E-12, -1.5500000000000002E-13, 5.259E-12, 2.29325096751315E-06, 5.1170136051469831E-10, 1.5500000000000002E-13
DataValue, 0.35000000000000003, 0.1, 0, 1.4098E-11, -1.3017E-11, -3.7900000000000005E-13, 1.4098E-11, 3.7547303498387207E-06, 8.8283432476977286E-10, 3.7900000000000005E-13
DataValue, 0.4, 0.1, 0, 2.7715E-11, -2.8691000000000002E-11, -2.2500000000000003E-13, 2.7715E-11, 5.2645037752859481E-06, 1.5246746688551132E-09, 2.2500000000000003E-13
DataValue, 0.45, 0.1, 0, 5.8667E-11, -5.426E-11, -1.569E-12, 5.8667E-11, 7.6594386217267917E-06, 2.512525058019719E-09, 1.569E-12
DataValue, 0.5, 0.1, 0, 1.05617E-10, -1.0587E-10, -2.184E-12, 1.05617E-10, 1.0277013184773094E-05, 3.8284839347314007E-09, 2.184E-12
DataValue, 0.55, 0.1, 0, 1.9173700000000003E-10, -1.8506400000000001E-10, -9.3300000000000016E-13, 1.9173700000000003E-10, 1.3846913013375943E-05, 5.6216589871939813E-09, 9.3300000000000016E-13
DataValue, 0.6, 0.1, 0, 3.15943E-10, -3.0581900000000003E-10, 8.21E-13, 3.15943E-10, 1.7774785512067368E-05, 6.9643912345207229E-09, 8.21E-13
DataValue, 0.65, 0.1, 0, 4.9249400000000006E-10, -4.78145E-10, -3.66E-13, 4.9249400000000006E-10, 2.2192205838987707E-05, 8.62568678973449E-09, 3.66E-13
DataValue, 0.70000000000000007, 0.1, 0, 7.3236500000000009E-10, -7.1445300000000008E-10, -8.3300000000000009E-13, 7.3236500000000009E-10, 2.7062243070373897E-05, 9.5070279468821182E-09, 8.3300000000000009E-13
DataValue, 0.75, 0.1, 0, 1.02033E-09, -1.0074470000000002E-09, -1.4430000000000002E-12, 1.02033E-09, 3.1942604777945083E-05, 1.1206333799615313E-08, 1.4430000000000002E-12
DataValue, 0.8, 0.1, 0, 1.41739E-09, -1.37641E-09, 2.2200000000000002E-12, 1.41739E-09, 3.7648240330724623E-05, 1.3306627578014626E-08, 2.2200000000000002E-12
DataValue, 0.85000000000000009, 0.1, 0, 1.89034E-09, -1.8753E-09, 1.4590000000000001E-12, 1.89034E-09, 4.3478040434223806E-05, 1.4706545681857055E-08, 1.4590000000000001E-12
DataValue, 0.9, 0.1, 0, 2.47758E-09, -2.45603E-09, 1.938E-12, 2.47758E-09, 4.9775295076975688E-05, 1.5755820803699491E-08, 1.938E-12
DataValue, 0.95000000000000007, 0.1, 0, 3.13939E-09, -3.11825E-09, -2.105E-12, 3.13939E-09, 5.6030259681711271E-05, 1.575745126378054E-08, 2.105E-12
DataValue, 1, 0.1, 0, 3.8848E-09, -3.86136E-09, -1.1980000000000002E-12, 3.8848E-09, 6.2328163778503851E-05, 1.5573114925222324E-08, 1.1980000000000002E-12
DataValue, 1.05, 0.1, 0, 4.69355E-09, -4.67257E-09, -4.4900000000000006E-13, 4.69355E-09, 6.8509488393944377E-05, 1.5573348950707767E-08, 4.4900000000000006E-13
DataValue, 1.1, 0.1, 0, 5.59616E-09, -5.57648E-09, -8.21E-13, 5.59616E-09, 7.4807486256390138E-05, 1.5976812546726334E-08, 8.21E-13
DataValue, 1.1500000000000001, 0.1, 0, 6.58523E-09, -6.56733E-09, 1.881E-12, 6.58523E-09, 8.1149430065774339E-05, 1.6206431589695945E-08, 1.881E-12
DataValue, 1.2, 0.1, 0, 7.66289E-09, -7.64032E-09, -5.3760000000000005E-12, 7.66289E-09, 8.7537934634077352E-05, 1.6032429891269434E-08, 5.3760000000000005E-12
DataValue, 1.25, 0.1, 0, 8.80057E-09, -8.7666E-09, 8.1200000000000007E-13, 8.80057E-09, 9.3811353257481589E-05, 1.569055562426827E-08, 8.1200000000000007E-13
DataValue, 1.3, 0.1, 0, 1.001283E-08, -9.98622E-09, 2.299E-12, 1.001283E-08, 0.0001000641294370765, 1.4728917850629812E-08, 2.299E-12
DataValue, 1.35, 0.1, 0, 1.1224899999999999E-08, -1.120472E-08, 3.687E-12, 1.1224899999999999E-08, 0.00010594762857185619, 1.4613050759861358E-08, 3.687E-12
DataValue, 1.4000000000000001, 0.1, 0, 1.25782E-08, -1.2501699999999999E-08, 4.5800000000000007E-13, 1.25782E-08, 0.00011215257464721887, 1.5158120566099486E-08, 4.5800000000000007E-13
DataValue, 1.4500000000000002, 0.1, 0, 1.3985299999999999E-08, -1.3953699999999999E-08, 7.4600000000000005E-13, 1.3985299999999999E-08, 0.00011825946050950849, 1.5479257615378894E-08, 7.4600000000000005E-13
DataValue, 1.5, 0.1, 0, 1.5523699999999998E-08, -1.55064E-08, -6.58E-13, 1.5523699999999998E-08, 0.00012459414111425945, 1.5871201361770883E-08, 6.58E-13
DataValue, 1.55, 0.1, 0, 1.71237E-08, -1.7106299999999997E-08, 4.66E-13, 1.71237E-08, 0.00013085755614407598, 1.52279294545939E-08, 4.66E-13
DataValue, 1.6, 0.1, 0, 1.8750999999999997E-08, -1.8727E-08, -1.391E-12, 1.8750999999999997E-08, 0.00013693429081132306, 1.4880892788567977E-08, 1.391E-12
DataValue, 1.6500000000000001, 0.1, 0, 2.0465099999999997E-08, -2.0434199999999997E-08, -1.6600000000000003E-13, 2.0465099999999997E-08, 0.00014305628263029904, 1.4800366412155425E-08, 1.6600000000000003E-13
DataValue, 1.7000000000000002, 0.1, 0, 2.2230799999999998E-08, -2.21935E-08, -1.2340000000000002E-12, 2.2230799999999998E-08, 0.00014909996646545566, 1.470835717742745E-08, 1.2340000000000002E-12
DataValue, 1.75, 0.1, 0, 2.40821E-08, -2.40507E-08, -5.58E-13, 2.40821E-08, 0.00015518408423546533, 1.4513433558404968E-08, 5.58E-13
DataValue, 1.8, 0.1, 0, 2.5968399999999996E-08, -2.59414E-08, 3.1200000000000003E-13, 2.5968399999999996E-08, 0.000161147137734432, 1.4337487621197934E-08, 3.1200000000000003E-13
DataValue, 1.85, 0.1, 0, 2.79418E-08, -2.7915099999999998E-08, -2.38E-13, 2.79418E-08, 0.0001671580090812283, 1.429254720894713E-08, 2.38E-13
DataValue, 1.9000000000000001, 0.1, 0, 2.99644E-08, -2.9940999999999997E-08, -7.05E-13, 2.99644E-08, 0.00017310228190292582, 1.4019967255494075E-08, 7.05E-13
DataValue, 1.9500000000000002, 0.1, 0, 3.2040499999999995E-08, -3.20265E-08, -7.54E-13, 3.2040499999999995E-08, 0.00017899860334650658, 1.3872009674348098E-08, 7.54E-13
DataValue, 2, 0.1, 0, 3.41807E-08, -3.41581E-08, -9.1000000000000016E-13, 3.41807E-08, 0.00018488023150136954, 1.3637770118893466E-08, 9.1000000000000016E-13
DataValue, 2.05, 0.1, 0, 3.63576E-08, -3.63342E-08, 8.1700000000000005E-13, 3.63576E-08, 0.00019067668971324209, 1.3378873163418566E-08, 8.1700000000000005E-13
DataValue, 2.1, 0.1, 0, 3.8591399999999993E-08, -3.85658E-08, -1.1000000000000001E-13, 3.8591399999999993E-08, 0.00019644693940094865, 1.3212410164231547E-08, 1.1000000000000001E-13
DataValue, 2.15, 0.1, 0, 4.0873199999999996E-08, -4.0858999999999995E-08, -4.0800000000000003E-13, 4.0873199999999996E-08, 0.00020217121456824657, 1.2999015610689924E-08, 4.0800000000000003E-13
DataValue, 2.2, 0.1, 0, 4.32009E-08, -4.31901E-08, -2.148E-12, 4.32009E-08, 0.00020784826196049847, 1.2935409914463504E-08, 2.148E-12
DataValue, 2.25, 0.1, 0, 4.5601299999999996E-08, -4.5545099999999994E-08, -7.49E-13, 4.5601299999999996E-08, 0.00021354460892281967, 1.2593944776618149E-08, 7.49E-13
