
SetupTitle, Transfer lin
PrimitiveTest, I/V Sweep
TestParameter, Context.MainFrame, 4155C
TestParameter, Channel.UnitType, SMU, SMU, SMU
TestParameter, Channel.Unit, SMU3:MP, SMU1:MP, SMU4:MP
TestParameter, Channel.IName, ID, IS, IG
TestParameter, Channel.VName, VD, VS, VG
TestParameter, Channel.Mode, V, COMMON, V
TestParameter, Channel.Func, CONST, CONST, VAR1
TestParameter, Channel.Index, 
TestParameter, Channel.Time, 
TestParameter, Measurement.Port.Unit, SMU3:MP, SMU1:MP, SMU4:MP
TestParameter, Measurement.Port.SeriesResistor, NONE, NONE, NONE
TestParameter, Measurement.Port.Filter, ON, ON, ON
TestParameter, Measurement.Primary.Locus, Double
TestParameter, Measurement.Primary.Scale, LINEAR
TestParameter, Measurement.Primary.Start, -2
TestParameter, Measurement.Primary.Stop, 3
TestParameter, Measurement.Primary.Step, 0.05
TestParameter, Measurement.Primary.Compliance, 0.001
TestParameter, Measurement.Primary.PowerCompliance, 0
TestParameter, Measurement.Aborting.Condition, CONTINUE AT ANY
TestParameter, Measurement.PostOutput.Value, START
TestParameter, Measurement.PostOutput.Retention, OFF
TestParameter, Measurement.Bias.Source, 0.1, 0, -2
TestParameter, Measurement.Bias.Compliance, 0.001, 0.1, 0.001
TestParameter, Measurement.Monitor.Unit, SMU3:MP, SMU1:MP, SMU4:MP
TestParameter, Measurement.Monitor.Adc, HR ADC, HR ADC, HR ADC
TestParameter, Measurement.Monitor.RangingMode, AUTO, AUTO, AUTO
TestParameter, Measurement.Monitor.RangeBoundary, , , 
TestParameter, Measurement.Monitor.RangeRating, BY FULL RANGE, BY FULL RANGE, BY FULL RANGE
TestParameter, Measurement.Monitor.RangeRatingCoeff, 50, 50, 50
TestParameter, Measurement.Timing.Hold, 0.5
TestParameter, Measurement.Timing.Delay, 0.05
TestParameter, Measurement.Adc.HighResolution.AutoZero, OFF
TestParameter, Measurement.Adc.HighResolution.Mode, AUTO
TestParameter, Measurement.Adc.HighResolution.Coeff, 1
TestParameter, Measurement.Ag16440ASelector.SemiconductorRelay.Channel1, DEFAULT
TestParameter, Measurement.Ag16440ASelector.SemiconductorRelay.Channel3, DEFAULT
TestParameter, Function.User.Name, absID, sqrtID, gm2, absIG
TestParameter, Function.User.Unit, A, A, A/V, A
TestParameter, Function.User.Definition, abs(ID), sqrt(abs(ID)), (delta(sqrtID)/delta(VG))^2, abs(IG)
TestParameter, Output.Graph.Enabled, true
TestParameter, Output.Graph.XAxis.Data, VG
TestParameter, Output.Graph.XAxis.Scale, Linear
TestParameter, Output.Graph.XAxis.Left, -5
TestParameter, Output.Graph.XAxis.Right, 7
TestParameter, Output.Graph.YAxis.Data, ID, absIG, gm2
TestParameter, Output.Graph.YAxis.Scale, Log, Log, Linear
TestParameter, Output.Graph.YAxis.Bottom, 1E-14, 1E-14, 0
TestParameter, Output.Graph.YAxis.Top, 0.01, 0.01, 1E-05
TestParameter, Output.Graph.YAxis.Group, , , 
TestParameter, Output.List.Data, VG, IG, VD, ID, VS, IS, sqrtID, gm2, absIG
TestParameter, AutoAnalysis.Interpolation, false
TestParameter, AutoAnalysis.Line1.Enabled, false
TestParameter, AutoAnalysis.Line1.Type, 1
TestParameter, AutoAnalysis.Line1.Fix, True
TestParameter, AutoAnalysis.Line1.YAxis, 0
TestParameter, AutoAnalysis.Line1.Point1.Type, 0
TestParameter, AutoAnalysis.Line1.Point1.XY.X, 
TestParameter, AutoAnalysis.Line1.Point1.XY.Y, 
TestParameter, AutoAnalysis.Line1.Point1.Data.Var, 
TestParameter, AutoAnalysis.Line1.Point1.Data.Condition, 
TestParameter, AutoAnalysis.Line1.Point1.Data.Start, false
TestParameter, AutoAnalysis.Line1.Point1.Data.StartVar, 
TestParameter, AutoAnalysis.Line1.Point1.Data.StartCondition, 
TestParameter, AutoAnalysis.Line1.Point2.Type, 0
TestParameter, AutoAnalysis.Line1.Point2.XY.X, 
TestParameter, AutoAnalysis.Line1.Point2.XY.Y, 
TestParameter, AutoAnalysis.Line1.Point2.Data.Var, 
TestParameter, AutoAnalysis.Line1.Point2.Data.Condition, 
TestParameter, AutoAnalysis.Line1.Point2.Data.Start, false
TestParameter, AutoAnalysis.Line1.Point2.Data.StartVar, 
TestParameter, AutoAnalysis.Line1.Point2.Data.StartCondition, 
TestParameter, AutoAnalysis.Line1.GradientExpr, 0
TestParameter, AutoAnalysis.Line2.Enabled, false
TestParameter, AutoAnalysis.Line2.Type, 1
TestParameter, AutoAnalysis.Line2.Fix, True
TestParameter, AutoAnalysis.Line2.YAxis, 0
TestParameter, AutoAnalysis.Line2.Point1.Type, 0
TestParameter, AutoAnalysis.Line2.Point1.XY.X, 
TestParameter, AutoAnalysis.Line2.Point1.XY.Y, 
TestParameter, AutoAnalysis.Line2.Point1.Data.Var, 
TestParameter, AutoAnalysis.Line2.Point1.Data.Condition, 
TestParameter, AutoAnalysis.Line2.Point1.Data.Start, false
TestParameter, AutoAnalysis.Line2.Point1.Data.StartVar, 
TestParameter, AutoAnalysis.Line2.Point1.Data.StartCondition, 
TestParameter, AutoAnalysis.Line2.Point2.Type, 0
TestParameter, AutoAnalysis.Line2.Point2.XY.X, 
TestParameter, AutoAnalysis.Line2.Point2.XY.Y, 
TestParameter, AutoAnalysis.Line2.Point2.Data.Var, 
TestParameter, AutoAnalysis.Line2.Point2.Data.Condition, 
TestParameter, AutoAnalysis.Line2.Point2.Data.Start, false
TestParameter, AutoAnalysis.Line2.Point2.Data.StartVar, 
TestParameter, AutoAnalysis.Line2.Point2.Data.StartCondition, 
TestParameter, AutoAnalysis.Line2.GradientExpr, 0
TestParameter, AutoAnalysis.Marker.Enabled, false
TestParameter, AutoAnalysis.Marker.Data.Var, 
TestParameter, AutoAnalysis.Marker.Data.Condition, 
TestParameter, AutoAnalysis.Marker.Data.Start, false
TestParameter, AutoAnalysis.Marker.Data.StartVar, 
TestParameter, AutoAnalysis.Marker.Data.StartCondition, 
MetaData, TestRecord.EntryPoint, true
MetaData, TestRecord.RecordTime, 05/02/2019 10:48:29
MetaData, TestRecord.TestTarget, 250-300-50-20
MetaData, TestRecord.IterationIndex, 1
MetaData, TestRecord.Preservation, true
MetaData, TestRecord.Flag, 
MetaData, TestRecord.Remarks, bad
MetaData, TestRecord.LinkKey, 7dca7212-24ec-42ac-9425-2d391b47d37e
Dimension1, 202, 202, 202, 202, 202, 202, 202, 202, 202, 202
Dimension2, 1, 1, 1, 1, 1, 1, 1, 1, 1, 1
DataName, VG, VD, VS, ID, IS, IG, absID, sqrtID, gm2, absIG
DataValue, -2, 0.1, 0, 1.7360000000000002E-11, 1.3470000000000001E-11, -3.7834E-11, 1.7360000000000002E-11, 4.1665333311999317E-06, 3.3389977369905829E-12, 3.7834E-11
DataValue, -1.9500000000000002, 0.1, 0, 1.6607E-11, 1.5986000000000002E-11, -3.3889E-11, 1.6607E-11, 4.0751687081641177E-06, 2.5572426136211686E-12, 3.3889E-11
DataValue, -1.9000000000000001, 0.1, 0, 1.6053000000000002E-11, 1.9476E-11, -4.0363E-11, 1.6053000000000002E-11, 4.0066195227398377E-06, 5.2382295227114862E-12, 4.0363E-11
DataValue, -1.85, 0.1, 0, 1.4794E-11, 2.2950000000000002E-12, -2.8793E-11, 1.4794E-11, 3.8462969204157913E-06, 2.0895185111131573E-11, 2.8793E-11
DataValue, -1.8, 0.1, 0, 1.2599000000000002E-11, 7.31E-12, -2.5416000000000002E-11, 1.2599000000000002E-11, 3.5495070080223821E-06, 2.2524799103434211E-12, 2.5416000000000002E-11
DataValue, -1.75, 0.1, 0, 1.3662E-11, 8.737E-12, -2.0961E-11, 1.3662E-11, 3.6962142795027455E-06, 2.4086955137228209E-13, 2.0961E-11
DataValue, -1.7000000000000002, 0.1, 0, 1.2253000000000001E-11, 1.3538000000000002E-11, -2.4935000000000002E-11, 1.2253000000000001E-11, 3.500428545192717E-06, 1.7819740906203014E-12, 2.4935000000000002E-11
DataValue, -1.6500000000000001, 0.1, 0, 1.2693000000000002E-11, 9.763E-12, -3.3439E-11, 1.2693000000000002E-11, 3.562723677188564E-06, 4.550954345451017E-12, 3.3439E-11
DataValue, -1.6, 0.1, 0, 1.3792000000000001E-11, 4.672E-12, -1.8973E-11, 1.3792000000000001E-11, 3.7137582042992516E-06, 2.5749716402075408E-13, 1.8973E-11
DataValue, -1.55, 0.1, 0, 1.2334000000000001E-11, 1.0836000000000001E-11, -2.8175000000000002E-11, 1.2334000000000001E-11, 3.5119794988012105E-06, 4.0738473894030864E-13, 2.8175000000000002E-11
DataValue, -1.5, 0.1, 0, 1.3322000000000002E-11, 1.7853E-11, -2.4804000000000003E-11, 1.3322000000000002E-11, 3.649931506206658E-06, 2.1063346703848283E-11, 2.4804000000000003E-11
DataValue, -1.4500000000000002, 0.1, 0, 9.321E-12, 2.3461E-11, -1.8328000000000002E-11, 9.321E-12, 3.053031280547253E-06, 8.1973620113731184E-12, 1.8328000000000002E-11
DataValue, -1.4000000000000001, 0.1, 0, 1.5494000000000002E-11, 7.456E-12, -3.3577E-11, 1.5494000000000002E-11, 3.9362418624876192E-06, 3.6319905643229846E-12, 3.3577E-11
DataValue, -1.35, 0.1, 0, 1.0521E-11, -6.0200000000000006E-12, -1.3897000000000002E-11, 1.0521E-11, 3.2436091009861223E-06, 7.9431937472885357E-11, 1.3897000000000002E-11
DataValue, -1.3, 0.1, 0, 9.272E-12, 7.492E-12, -2.1004E-11, 9.272E-12, 3.0449958949069209E-06, 5.9634146667271532E-13, 2.1004E-11
DataValue, -1.25, 0.1, 0, 1.0026000000000001E-11, 2.2660000000000002E-12, -7.968E-12, 1.0026000000000001E-11, 3.166385952470103E-06, 4.8759086517800446E-12, 7.968E-12
DataValue, -1.2, 0.1, 0, 7.976E-12, 4.081E-12, -1.9023000000000002E-11, 7.976E-12, 2.8241812972966168E-06, 7.802861923878537E-12, 1.9023000000000002E-11
DataValue, -1.1500000000000001, 0.1, 0, 1.1873000000000002E-11, -4.225E-12, -1.1768E-11, 1.1873000000000002E-11, 3.4457219853029353E-06, 9.6360065132999158E-12, 1.1768E-11
DataValue, -1.1, 0.1, 0, 6.3190000000000008E-12, 1.6490000000000001E-12, 1.5850000000000002E-12, 6.3190000000000008E-12, 2.5137621208061833E-06, 6.3002571680513561E-11, 1.5850000000000002E-12
DataValue, -1.05, 0.1, 0, 7.0330000000000004E-12, 8.6830000000000009E-12, -1.6800000000000001E-12, 7.0330000000000004E-12, 2.6519803920843761E-06, 1.6650674801884098E-11, 1.6800000000000001E-12
DataValue, -1, 0.1, 0, 8.537E-12, 3.834E-12, -2.0819E-11, 8.537E-12, 2.9218145047213386E-06, 1.4971783346624759E-11, 2.0819E-11
DataValue, -0.95000000000000007, 0.1, 0, 9.2350000000000009E-12, 8.376E-12, -1.5679000000000002E-11, 9.2350000000000009E-12, 3.0389142798045492E-06, 1.8530282070483337E-12, 1.5679000000000002E-11
DataValue, -0.9, 0.1, 0, 9.3510000000000008E-12, 8.472E-12, -1.5947E-11, 9.3510000000000008E-12, 3.0579404833972817E-06, 7.3513654946246983E-11, 1.5947E-11
DataValue, -0.85000000000000009, 0.1, 0, 4.759E-12, 1.826E-12, -1.6188E-11, 4.759E-12, 2.181513236265139E-06, 5.9481083431475369E-11, 1.6188E-11
DataValue, -0.8, 0.1, 0, 5.2290000000000004E-12, 4.3100000000000003E-13, -1.0001000000000002E-11, 5.2290000000000004E-12, 2.2867006800191408E-06, 6.0378137774231715E-11, 1.0001000000000002E-11
DataValue, -0.75, 0.1, 0, 8.753E-12, -6.1800000000000009E-13, -1.2457000000000002E-11, 8.753E-12, 2.9585469406450187E-06, 6.4500010757777889E-12, 1.2457000000000002E-11
DataValue, -0.70000000000000007, 0.1, 0, 6.455E-12, -4.2800000000000004E-13, -8.598E-12, 6.455E-12, 2.5406692031825003E-06, 1.7005177229126392E-11, 8.598E-12
DataValue, -0.65, 0.1, 0, 6.4830000000000005E-12, 6.4800000000000007E-13, -9.292E-12, 6.4830000000000005E-12, 2.5461735997374573E-06, 8.4165968325703191E-12, 9.292E-12
DataValue, -0.6, 0.1, 0, 5.0650000000000007E-12, 3.576E-12, -7.3640000000000013E-12, 5.0650000000000007E-12, 2.25055548698538E-06, 8.362764894480604E-12, 7.3640000000000013E-12
DataValue, -0.55, 0.1, 0, 5.0940000000000007E-12, 4.65E-13, -5.7280000000000006E-12, 5.0940000000000007E-12, 2.2569891448564835E-06, 3.2922583184725036E-14, 5.7280000000000006E-12
DataValue, -0.5, 0.1, 0, 5.1470000000000006E-12, -2.7E-13, -4.3370000000000006E-12, 5.1470000000000006E-12, 2.2687000683210638E-06, 6.8117425848436735E-12, 4.3370000000000006E-12
DataValue, -0.45, 0.1, 0, 3.984E-12, 1.1080000000000001E-12, -5.9460000000000007E-12, 3.984E-12, 1.9959959919799438E-06, 1.5082813659327449E-11, 5.9460000000000007E-12
DataValue, -0.4, 0.1, 0, 7.06E-12, -3.5E-13, -5.054E-12, 7.06E-12, 2.6570660511172846E-06, 2.8553078276362786E-12, 5.054E-12
DataValue, -0.35000000000000003, 0.1, 0, 3.338E-12, -4.0200000000000005E-13, -4.556E-12, 3.338E-12, 1.8270194306574848E-06, 6.3557144509052433E-11, 4.556E-12
DataValue, -0.3, 0.1, 0, 3.459E-12, -1.4320000000000002E-12, -2.449E-12, 3.459E-12, 1.8598387026836494E-06, 2.5645464221918211E-11, 2.449E-12
DataValue, -0.25, 0.1, 0, 1.744E-12, -5.35E-13, -3.787E-12, 1.744E-12, 1.3206059215375342E-06, 1.893866220542127E-14, 3.787E-12
DataValue, -0.2, 0.1, 0, 3.4080000000000004E-12, 3.8100000000000004E-13, -7.721E-12, 3.4080000000000004E-12, 1.8460769214742923E-06, 3.1250526236556493E-11, 7.721E-12
DataValue, -0.15, 0.1, 0, 3.5330000000000004E-12, -4.648E-12, -5.537E-12, 3.5330000000000004E-12, 1.879627622695517E-06, 1.6254056796299961E-11, 5.537E-12
DataValue, -0.1, 0.1, 0, 2.0820000000000002E-12, -4.059E-12, -1.2940000000000001E-12, 2.0820000000000002E-12, 1.4429137188342205E-06, 2.4652733443092344E-11, 1.2940000000000001E-12
DataValue, -0.05, 0.1, 0, 1.913E-12, -4.46E-12, 5.42E-13, 1.913E-12, 1.3831124321616085E-06, 4.7428834941863233E-13, 5.42E-13
DataValue, 0, 0.1, 0, 1.888E-12, -4.7600000000000007E-12, 3.2740000000000004E-12, 1.888E-12, 1.3740451229854135E-06, 3.4476477571839104E-11, 3.2740000000000004E-12
DataValue, 0.05, 0.1, 0, 3.8820000000000006E-12, -4.77E-12, 5.3280000000000007E-12, 3.8820000000000006E-12, 1.9702791680368547E-06, 2.8823963608802391E-10, 5.3280000000000007E-12
DataValue, 0.1, 0.1, 0, 9.4360000000000014E-12, -9.0940000000000014E-12, -4.935E-12, 9.4360000000000014E-12, 3.0718072856219352E-06, 6.644472386540259E-10, 4.935E-12
DataValue, 0.15, 0.1, 0, 2.0684000000000002E-11, -2.3479E-11, 2.71E-13, 2.0684000000000002E-11, 4.5479665785931187E-06, 1.2833872618285099E-09, 2.71E-13
DataValue, 0.2, 0.1, 0, 4.4279000000000006E-11, -4.2893000000000006E-11, 3.1230000000000003E-12, 4.4279000000000006E-11, 6.6542467642851964E-06, 2.7681969162235639E-09, 3.1230000000000003E-12
DataValue, 0.25, 0.1, 0, 9.6223E-11, -9.096E-11, 8.907E-12, 9.6223E-11, 9.8093322912418455E-06, 5.3277443592040844E-09, 8.907E-12
DataValue, 0.3, 0.1, 0, 1.94697E-10, -1.8347100000000002E-10, 1.3856E-11, 1.94697E-10, 1.3953386685675991E-05, 8.8042830956402617E-09, 1.3856E-11
DataValue, 0.35000000000000003, 0.1, 0, 3.6835E-10, -3.4595100000000004E-10, 1.9110000000000002E-12, 3.6835E-10, 1.9192446430822728E-05, 1.3730143887315676E-08, 1.9110000000000002E-12
DataValue, 0.4, 0.1, 0, 6.5899800000000009E-10, -6.2092200000000008E-10, 4.657E-12, 6.5899800000000009E-10, 2.5670956351487961E-05, 1.5807890926064327E-08, 4.657E-12
DataValue, 0.45, 0.1, 0, 1.00904E-09, -9.0469800000000007E-10, 4.888E-12, 1.00904E-09, 3.1765389970847205E-05, 1.9728070119788752E-08, 4.888E-12
DataValue, 0.5, 0.1, 0, 1.57741E-09, -1.43968E-09, 8.1730000000000008E-12, 1.57741E-09, 3.9716621205737028E-05, 3.0217072737995403E-08, 8.1730000000000008E-12
DataValue, 0.55, 0.1, 0, 2.41557E-09, -2.37074E-09, 4.8290000000000005E-12, 2.41557E-09, 4.9148448602168512E-05, 4.277610661903061E-08, 4.8290000000000005E-12
DataValue, 0.6, 0.1, 0, 3.64804E-09, -3.57877E-09, 1.3464000000000002E-11, 3.64804E-09, 6.0399006614347561E-05, 5.2333958154422838E-08, 1.3464000000000002E-11
DataValue, 0.65, 0.1, 0, 5.18761E-09, -5.11417E-09, 3.418E-12, 5.18761E-09, 7.20250650815395E-05, 5.6066654122886009E-08, 3.418E-12
DataValue, 0.70000000000000007, 0.1, 0, 7.06901E-09, -6.96798E-09, 3.791E-12, 7.06901E-09, 8.4077404812470276E-05, 5.6282731771852558E-08, 3.791E-12
DataValue, 0.75, 0.1, 0, 9.16788E-09, -9.05384E-09, 1.1568E-11, 9.16788E-09, 9.5749046992646354E-05, 4.1202336420033317E-08, 1.1568E-11
DataValue, 0.8, 0.1, 0, 1.08943E-08, -1.0547099999999999E-08, 8.7870000000000012E-12, 1.08943E-08, 0.00010437576347026162, 3.7762395128851182E-08, 8.7870000000000012E-12
DataValue, 0.85000000000000009, 0.1, 0, 1.3266799999999998E-08, -1.3152999999999999E-08, 1.0440000000000002E-11, 1.3266799999999998E-08, 0.0001151815957520992, 5.0765898991548051E-08, 1.0440000000000002E-11
DataValue, 0.9, 0.1, 0, 1.61054E-08, -1.5947999999999998E-08, 1.1511000000000001E-11, 1.61054E-08, 0.00012690705260150044, 5.1826778785001026E-08, 1.1511000000000001E-11
DataValue, 0.95000000000000007, 0.1, 0, 1.90294E-08, -1.88159E-08, 7.995E-12, 1.90294E-08, 0.00013794709130677602, 4.1773063554775826E-08, 7.995E-12
DataValue, 1, 0.1, 0, 2.17107E-08, -2.15018E-08, 1.6510000000000001E-12, 2.17107E-08, 0.00014734551231713845, 3.8531949660582795E-08, 1.6510000000000001E-12
DataValue, 1.05, 0.1, 0, 2.4830399999999996E-08, -2.4613299999999996E-08, 1.9624E-11, 2.4830399999999996E-08, 0.00015757664801613214, 4.0770263845489264E-08, 1.9624E-11
DataValue, 1.1, 0.1, 0, 2.80687E-08, -2.7793999999999997E-08, 1.9371000000000002E-11, 2.80687E-08, 0.00016753716005710493, 4.3993993392340438E-08, 1.9371000000000002E-11
DataValue, 1.1500000000000001, 0.1, 0, 3.18806E-08, -3.1651599999999996E-08, 3.0516E-11, 3.18806E-08, 0.00017855139316174488, 3.8294417845227128E-08, 3.0516E-11
DataValue, 1.2, 0.1, 0, 3.5008699999999996E-08, -3.4803199999999995E-08, 1.6556E-11, 3.5008699999999996E-08, 0.00018710611962199418, 2.63022149035844E-08, 1.6556E-11
DataValue, 1.25, 0.1, 0, 3.7935099999999994E-08, -3.75694E-08, 1.4864E-11, 3.7935099999999994E-08, 0.00019476935077162422, 2.3485879011895453E-08, 1.4864E-11
DataValue, 1.3, 0.1, 0, 4.0978399999999993E-08, -4.07488E-08, 2.5865000000000003E-11, 4.0978399999999993E-08, 0.00020243122288817007, 3.41424993262295E-08, 2.5865000000000003E-11
DataValue, 1.35, 0.1, 0, 4.54743E-08, -4.54185E-08, 3.4552000000000004E-11, 4.54743E-08, 0.00021324703983877479, 3.9156645593179159E-08, 3.4552000000000004E-11
DataValue, 1.4000000000000001, 0.1, 0, 4.9381399999999992E-08, -4.9055E-08, 2.56E-11, 4.9381399999999992E-08, 0.00022221926109138244, 2.4111750434711348E-08, 2.56E-11
DataValue, 1.4500000000000002, 0.1, 0, 5.2337999999999995E-08, -5.1948899999999992E-08, 2.7462000000000002E-11, 5.2337999999999995E-08, 0.00022877499863402904, 1.9943735559640794E-08, 2.7462000000000002E-11
DataValue, 1.5, 0.1, 0, 5.5857299999999992E-08, -5.5552399999999995E-08, 3.2905E-11, 5.5857299999999992E-08, 0.00023634149022124743, 1.5884405584045458E-08, 3.2905E-11
DataValue, 1.55, 0.1, 0, 5.82635E-08, -5.7840999999999995E-08, 3.4624E-11, 5.82635E-08, 0.00024137833374186674, 7.558593872172456E-09, 3.4624E-11
DataValue, 1.6, 0.1, 0, 6.00424E-08, -5.98539E-08, 3.7614E-11, 6.00424E-08, 0.00024503550763103703, 1.2227048954487641E-08, 3.7614E-11
DataValue, 1.6500000000000001, 0.1, 0, 6.372389999999999E-08, -6.3493599999999991E-08, 4.2043000000000004E-11, 6.372389999999999E-08, 0.00025243593246604174, 1.817120849947739E-08, 4.2043000000000004E-11
DataValue, 1.7000000000000002, 0.1, 0, 6.68303E-08, -6.65735E-08, 4.2888E-11, 6.68303E-08, 0.00025851557013069831, 1.4152064312255547E-08, 4.2888E-11
DataValue, 1.75, 0.1, 0, 6.9871499999999991E-08, -6.98831E-08, 4.7936E-11, 6.9871499999999991E-08, 0.00026433217738292854, 1.7672347067344985E-08, 4.7936E-11
DataValue, 1.8, 0.1, 0, 7.3880299999999987E-08, -7.3318099999999987E-08, 5.6318E-11, 7.3880299999999987E-08, 0.00027180930815555232, 1.5535472664630303E-08, 5.6318E-11
DataValue, 1.85, 0.1, 0, 7.6616199999999987E-08, -7.61342E-08, 6.0552E-11, 7.6616199999999987E-08, 0.00027679631500437284, 3.04849629838128E-08, 6.0552E-11
DataValue, 1.9000000000000001, 0.1, 0, 8.3676699999999986E-08, -8.6903599999999987E-08, 9.4551000000000008E-11, 8.3676699999999986E-08, 0.00028926925173616358, 9.9966822479028486E-08, 9.4551000000000008E-11
DataValue, 1.9500000000000002, 0.1, 0, 9.5119099999999985E-08, -9.4386599999999988E-08, 9.9737000000000009E-11, 9.5119099999999985E-08, 0.00030841384534420626, 3.1244745089884226E-08, 9.9737000000000009E-11
DataValue, 2, 0.1, 0, 9.4215499999999988E-08, -9.3760599999999993E-08, 9.7962000000000008E-11, 9.4215499999999988E-08, 0.0003069454348903075, 1.3229427457366E-08, 9.7962000000000008E-11
DataValue, 2.05, 0.1, 0, 1.0234609999999999E-07, -1.0104379999999999E-07, 1.15871E-10, 1.0234609999999999E-07, 0.00031991577016458563, 7.8573326196458942E-09, 1.15871E-10
DataValue, 2.1, 0.1, 0, 9.9735699999999984E-08, -9.8932499999999989E-08, 1.1074300000000001E-10, 9.9735699999999984E-08, 0.00031580959453442826, 3.8219859496229056E-09, 1.1074300000000001E-10
