
SetupTitle, Transfer lin
PrimitiveTest, I/V Sweep
TestParameter, Context.MainFrame, 4155C
TestParameter, Channel.UnitType, SMU, SMU, SMU
TestParameter, Channel.Unit, SMU3:MP, SMU1:MP, SMU4:MP
TestParameter, Channel.IName, ID, IS, IG
TestParameter, Channel.VName, VD, VS, VG
TestParameter, Channel.Mode, V, COMMON, V
TestParameter, Channel.Func, CONST, CONST, VAR1
TestParameter, Channel.Index, 
TestParameter, Channel.Time, 
TestParameter, Measurement.Port.Unit, SMU3:MP, SMU1:MP, SMU4:MP
TestParameter, Measurement.Port.SeriesResistor, NONE, NONE, NONE
TestParameter, Measurement.Port.Filter, ON, ON, ON
TestParameter, Measurement.Primary.Locus, Double
TestParameter, Measurement.Primary.Scale, LINEAR
TestParameter, Measurement.Primary.Start, -2
TestParameter, Measurement.Primary.Stop, 3
TestParameter, Measurement.Primary.Step, 0.05
TestParameter, Measurement.Primary.Compliance, 0.001
TestParameter, Measurement.Primary.PowerCompliance, 0
TestParameter, Measurement.Aborting.Condition, CONTINUE AT ANY
TestParameter, Measurement.PostOutput.Value, START
TestParameter, Measurement.PostOutput.Retention, OFF
TestParameter, Measurement.Bias.Source, 0.1, 0, -2
TestParameter, Measurement.Bias.Compliance, 0.001, 0.1, 0.001
TestParameter, Measurement.Monitor.Unit, SMU3:MP, SMU1:MP, SMU4:MP
TestParameter, Measurement.Monitor.Adc, HR ADC, HR ADC, HR ADC
TestParameter, Measurement.Monitor.RangingMode, AUTO, AUTO, AUTO
TestParameter, Measurement.Monitor.RangeBoundary, , , 
TestParameter, Measurement.Monitor.RangeRating, BY FULL RANGE, BY FULL RANGE, BY FULL RANGE
TestParameter, Measurement.Monitor.RangeRatingCoeff, 50, 50, 50
TestParameter, Measurement.Timing.Hold, 0.5
TestParameter, Measurement.Timing.Delay, 0.05
TestParameter, Measurement.Adc.HighResolution.AutoZero, OFF
TestParameter, Measurement.Adc.HighResolution.Mode, AUTO
TestParameter, Measurement.Adc.HighResolution.Coeff, 1
TestParameter, Measurement.Ag16440ASelector.SemiconductorRelay.Channel1, DEFAULT
TestParameter, Measurement.Ag16440ASelector.SemiconductorRelay.Channel3, DEFAULT
TestParameter, Function.User.Name, absID, sqrtID, gm2, absIG
TestParameter, Function.User.Unit, A, A, A/V, A
TestParameter, Function.User.Definition, abs(ID), sqrt(abs(ID)), (delta(sqrtID)/delta(VG))^2, abs(IG)
TestParameter, Output.Graph.Enabled, true
TestParameter, Output.Graph.XAxis.Data, VG
TestParameter, Output.Graph.XAxis.Scale, Linear
TestParameter, Output.Graph.XAxis.Left, -5
TestParameter, Output.Graph.XAxis.Right, 7
TestParameter, Output.Graph.YAxis.Data, ID, absIG, gm2
TestParameter, Output.Graph.YAxis.Scale, Log, Log, Linear
TestParameter, Output.Graph.YAxis.Bottom, 1E-14, 1E-14, 0
TestParameter, Output.Graph.YAxis.Top, 0.01, 0.01, 1E-05
TestParameter, Output.Graph.YAxis.Group, , , 
TestParameter, Output.List.Data, VG, IG, VD, ID, VS, IS, sqrtID, gm2, absIG
TestParameter, AutoAnalysis.Interpolation, false
TestParameter, AutoAnalysis.Line1.Enabled, false
TestParameter, AutoAnalysis.Line1.Type, 1
TestParameter, AutoAnalysis.Line1.Fix, True
TestParameter, AutoAnalysis.Line1.YAxis, 0
TestParameter, AutoAnalysis.Line1.Point1.Type, 0
TestParameter, AutoAnalysis.Line1.Point1.XY.X, 
TestParameter, AutoAnalysis.Line1.Point1.XY.Y, 
TestParameter, AutoAnalysis.Line1.Point1.Data.Var, 
TestParameter, AutoAnalysis.Line1.Point1.Data.Condition, 
TestParameter, AutoAnalysis.Line1.Point1.Data.Start, false
TestParameter, AutoAnalysis.Line1.Point1.Data.StartVar, 
TestParameter, AutoAnalysis.Line1.Point1.Data.StartCondition, 
TestParameter, AutoAnalysis.Line1.Point2.Type, 0
TestParameter, AutoAnalysis.Line1.Point2.XY.X, 
TestParameter, AutoAnalysis.Line1.Point2.XY.Y, 
TestParameter, AutoAnalysis.Line1.Point2.Data.Var, 
TestParameter, AutoAnalysis.Line1.Point2.Data.Condition, 
TestParameter, AutoAnalysis.Line1.Point2.Data.Start, false
TestParameter, AutoAnalysis.Line1.Point2.Data.StartVar, 
TestParameter, AutoAnalysis.Line1.Point2.Data.StartCondition, 
TestParameter, AutoAnalysis.Line1.GradientExpr, 0
TestParameter, AutoAnalysis.Line2.Enabled, false
TestParameter, AutoAnalysis.Line2.Type, 1
TestParameter, AutoAnalysis.Line2.Fix, True
TestParameter, AutoAnalysis.Line2.YAxis, 0
TestParameter, AutoAnalysis.Line2.Point1.Type, 0
TestParameter, AutoAnalysis.Line2.Point1.XY.X, 
TestParameter, AutoAnalysis.Line2.Point1.XY.Y, 
TestParameter, AutoAnalysis.Line2.Point1.Data.Var, 
TestParameter, AutoAnalysis.Line2.Point1.Data.Condition, 
TestParameter, AutoAnalysis.Line2.Point1.Data.Start, false
TestParameter, AutoAnalysis.Line2.Point1.Data.StartVar, 
TestParameter, AutoAnalysis.Line2.Point1.Data.StartCondition, 
TestParameter, AutoAnalysis.Line2.Point2.Type, 0
TestParameter, AutoAnalysis.Line2.Point2.XY.X, 
TestParameter, AutoAnalysis.Line2.Point2.XY.Y, 
TestParameter, AutoAnalysis.Line2.Point2.Data.Var, 
TestParameter, AutoAnalysis.Line2.Point2.Data.Condition, 
TestParameter, AutoAnalysis.Line2.Point2.Data.Start, false
TestParameter, AutoAnalysis.Line2.Point2.Data.StartVar, 
TestParameter, AutoAnalysis.Line2.Point2.Data.StartCondition, 
TestParameter, AutoAnalysis.Line2.GradientExpr, 0
TestParameter, AutoAnalysis.Marker.Enabled, false
TestParameter, AutoAnalysis.Marker.Data.Var, 
TestParameter, AutoAnalysis.Marker.Data.Condition, 
TestParameter, AutoAnalysis.Marker.Data.Start, false
TestParameter, AutoAnalysis.Marker.Data.StartVar, 
TestParameter, AutoAnalysis.Marker.Data.StartCondition, 
MetaData, TestRecord.EntryPoint, true
MetaData, TestRecord.RecordTime, 05/02/2019 18:05:08
MetaData, TestRecord.TestTarget, 150-180-10-2
MetaData, TestRecord.IterationIndex, 1
MetaData, TestRecord.Preservation, true
MetaData, TestRecord.Flag, 
MetaData, TestRecord.Remarks, bad
MetaData, TestRecord.LinkKey, 53a4b99a-dac2-447f-8747-e368b5feeb9f
Dimension1, 202, 202, 202, 202, 202, 202, 202, 202, 202, 202
Dimension2, 1, 1, 1, 1, 1, 1, 1, 1, 1, 1
DataName, VG, VD, VS, ID, IS, IG, absID, sqrtID, gm2, absIG
DataValue, -2, 0.1, 0, 2.427E-12, 1.2700000000000001E-13, 2.49E-13, 2.427E-12, 1.5578831791889917E-06, 5.8987964309087511E-10, 2.49E-13
DataValue, -1.9500000000000002, 0.1, 0, 1.18E-13, 1.675E-12, 2.4460000000000003E-12, 1.18E-13, 3.4351128074635336E-07, 8.5569226848700069E-12, 2.4460000000000003E-12
DataValue, -1.9000000000000001, 0.1, 0, 3.4240000000000004E-12, 2.4550000000000003E-12, -3.9060000000000005E-12, 3.4240000000000004E-12, 1.8504053609952606E-06, 8.7671847511732487E-11, 3.9060000000000005E-12
DataValue, -1.85, 0.1, 0, 1.638E-12, 1.602E-12, -4.741E-12, 1.638E-12, 1.2798437404620925E-06, 6.2146721168745285E-11, 4.741E-12
DataValue, -1.8, 0.1, 0, 1.128E-12, 9.3700000000000015E-13, -4.309E-12, 1.128E-12, 1.0620734437881403E-06, 9.9200008097821476E-12, 4.309E-12
DataValue, -1.75, 0.1, 0, 9.3100000000000017E-13, -1.58E-13, -1.669E-12, 9.3100000000000017E-13, 9.6488341264631561E-07, 8.6795104902454528E-12, 1.669E-12
DataValue, -1.7000000000000002, 0.1, 0, 5.89E-13, 1.138E-12, -1.2190000000000002E-12, 5.89E-13, 7.6746335417399572E-07, 5.36639577160417E-13, 1.2190000000000002E-12
DataValue, -1.6500000000000001, 0.1, 0, 7.95E-13, 1.193E-12, -2.6310000000000004E-12, 7.95E-13, 8.9162772500635037E-07, 1.0844805542887751E-12, 2.6310000000000004E-12
DataValue, -1.6, 0.1, 0, 4.4000000000000004E-13, 9.42E-13, -2.03E-12, 4.4000000000000004E-13, 6.6332495807108E-07, 2.9790968679443375E-12, 2.03E-12
DataValue, -1.55, 0.1, 0, 5.17E-13, 8.1500000000000006E-13, -1.0500000000000001E-13, 5.17E-13, 7.19027120489902E-07, 3.1381793997099582E-11, 1.0500000000000001E-13
DataValue, -1.5, 0.1, 0, 1.4970000000000002E-12, -8.050000000000001E-13, -1.552E-12, 1.4970000000000002E-12, 1.2235195135346228E-06, 6.00045624320667E-11, 1.552E-12
DataValue, -1.4500000000000002, 0.1, 0, 2.231E-12, 4.48E-13, -3.6130000000000005E-12, 2.231E-12, 1.4936532395439043E-06, 1.5973132165356216E-10, 3.6130000000000005E-12
DataValue, -1.4000000000000001, 0.1, 0, 6.187E-12, -7.827E-12, -2.6300000000000003E-12, 6.187E-12, 2.4873680869545627E-06, 2.7421701046304338E-10, 2.6300000000000003E-12
DataValue, -1.35, 0.1, 0, 9.9200000000000014E-12, -1.1450000000000002E-11, 2.988E-12, 9.9200000000000014E-12, 3.1496031496047245E-06, 3.83143090144889E-10, 2.988E-12
DataValue, -1.3, 0.1, 0, 1.9756000000000003E-11, -1.8603000000000002E-11, 3.0350000000000003E-12, 1.9756000000000003E-11, 4.4447722101363079E-06, 1.0354831713142846E-09, 3.0350000000000003E-12
DataValue, -1.25, 0.1, 0, 4.0545E-11, -3.5727E-11, -5.14E-13, 4.0545E-11, 6.3674955830373374E-06, 1.6325238128441616E-09, 5.14E-13
DataValue, -1.2, 0.1, 0, 7.1999E-11, -6.4972E-11, -2.24E-12, 7.1999E-11, 8.4852224484688681E-06, 2.0221243966910002E-09, 2.24E-12
DataValue, -1.1500000000000001, 0.1, 0, 1.18033E-10, -1.08561E-10, -2.398E-12, 1.18033E-10, 1.0864299333136951E-05, 2.3649117823150353E-09, 2.398E-12
DataValue, -1.1, 0.1, 0, 1.7817600000000002E-10, -1.69497E-10, -1.3510000000000002E-12, 1.7817600000000002E-10, 1.3348258313353096E-05, 2.7954833873810469E-09, 1.3510000000000002E-12
DataValue, -1.05, 0.1, 0, 2.60872E-10, -2.39139E-10, 1.927E-12, 2.60872E-10, 1.6151532435035383E-05, 2.8749391548617368E-09, 1.927E-12
DataValue, -1, 0.1, 0, 3.5006800000000005E-10, -3.2691900000000004E-10, -2.495E-12, 3.5006800000000005E-10, 1.8710104222050717E-05, 3.1793584434129858E-09, 2.495E-12
DataValue, -0.95000000000000007, 0.1, 0, 4.74809E-10, -4.4203700000000003E-10, -2.3100000000000003E-13, 4.74809E-10, 2.1790112436607574E-05, 2.8296885648456114E-09, 2.3100000000000003E-13
DataValue, -0.9, 0.1, 0, 5.7742100000000007E-10, -5.5015800000000008E-10, -7.7190000000000013E-12, 5.7742100000000007E-10, 2.4029585930681371E-05, 2.3767961297051984E-09, 7.7190000000000013E-12
DataValue, -0.85000000000000009, 0.1, 0, 7.1104100000000007E-10, -6.88594E-10, -8.9420000000000013E-12, 7.1104100000000007E-10, 2.6665352050929312E-05, 2.0685192418938496E-09, 8.9420000000000013E-12
DataValue, -0.8, 0.1, 0, 8.16684E-10, -8.02409E-10, 6.218E-12, 8.16684E-10, 2.8577683601019871E-05, 2.5997543852403971E-09, 6.218E-12
DataValue, -0.75, 0.1, 0, 1.00896E-09, -9.615E-10, -7.734E-12, 1.00896E-09, 3.1764130713746911E-05, 5.4895052294079079E-09, 7.734E-12
DataValue, -0.70000000000000007, 0.1, 0, 1.29505E-09, -1.25624E-09, -2.2900000000000003E-13, 1.29505E-09, 3.5986803136705541E-05, 7.6857572917729746E-09, 2.2900000000000003E-13
DataValue, -0.65, 0.1, 0, 1.64276E-09, -1.57255E-09, -1.9600000000000002E-13, 1.64276E-09, 4.0530975808633082E-05, 7.9373626821332578E-09, 1.9600000000000002E-13
DataValue, -0.6, 0.1, 0, 2.01565E-09, -1.94376E-09, 2.397E-12, 2.01565E-09, 4.48959909123298E-05, 6.0073315351408396E-09, 2.397E-12
DataValue, -0.55, 0.1, 0, 2.33112E-09, -2.33683E-09, -5.3290000000000004E-12, 2.33112E-09, 4.8281673541831582E-05, 9.440073580878821E-09, 5.3290000000000004E-12
DataValue, -0.5, 0.1, 0, 2.98247E-09, -2.92045E-09, 1.437E-12, 2.98247E-09, 5.4611995019409426E-05, 1.0677089703595249E-08, 1.437E-12
DataValue, -0.45, 0.1, 0, 3.43568E-09, -3.34551E-09, -6.52E-13, 3.43568E-09, 5.8614673930680533E-05, 1.056117124805066E-08, 6.52E-13
DataValue, -0.4, 0.1, 0, 4.21055E-09, -4.1273E-09, 6.4E-14, 4.21055E-09, 6.4888750951147152E-05, 1.5602914507981557E-08, 6.4E-14
DataValue, -0.35000000000000003, 0.1, 0, 5.05604E-09, -4.99024E-09, -3.674E-12, 5.05604E-09, 7.1105836609943639E-05, 1.591819446746761E-08, 3.674E-12
DataValue, -0.3, 0.1, 0, 6.0071E-09, -6.03109E-09, 3.66E-12, 6.0071E-09, 7.7505483676963143E-05, 1.743740344960911E-08, 3.66E-12
DataValue, -0.25, 0.1, 0, 7.10833E-09, -6.99769E-09, 6.187E-12, 7.10833E-09, 8.4310912698179225E-05, 2.028546262342305E-08, 6.187E-12
DataValue, -0.2, 0.1, 0, 8.41773E-09, -8.12879E-09, 6.4300000000000009E-13, 8.41773E-09, 9.1748187993006161E-05, 2.2664020638679889E-08, 6.4300000000000009E-13
DataValue, -0.15, 0.1, 0, 9.8735E-09, -9.63699E-09, -6.6280000000000004E-12, 9.8735E-09, 9.9365486966048738E-05, 1.4830924411594082E-08, 6.6280000000000004E-12
DataValue, -0.1, 0.1, 0, 1.0800699999999999E-08, -1.07315E-08, -1.013E-12, 1.0800699999999999E-08, 0.0001039264162761326, 2.574586385353562E-08, 1.013E-12
DataValue, -0.05, 0.1, 0, 1.3319699999999998E-08, -1.3318899999999998E-08, 1.5830000000000002E-12, 1.3319699999999998E-08, 0.00011541100467459763, 5.3317173193234883E-08, 1.5830000000000002E-12
DataValue, 0, 0.1, 0, 1.61333E-08, -1.5939599999999997E-08, 1.7290000000000002E-12, 1.61333E-08, 0.00012701692800567963, 4.6106922066843604E-08, 1.7290000000000002E-12
DataValue, 0.05, 0.1, 0, 1.87371E-08, -1.8436499999999998E-08, 8.976E-12, 1.87371E-08, 0.00013688352713164576, 5.0061843572996204E-08, 8.976E-12
DataValue, 0.1, 0.1, 0, 2.2317799999999998E-08, -2.1895399999999997E-08, -1.7000000000000002E-12, 2.2317799999999998E-08, 0.00014939143215057549, 5.8197879424992661E-08, 1.7000000000000002E-12
DataValue, 0.15, 0.1, 0, 2.5923499999999997E-08, -2.55381E-08, 2.239E-12, 2.5923499999999997E-08, 0.00016100776378796147, 5.5467890170037624E-08, 2.239E-12
DataValue, 0.2, 0.1, 0, 2.9909299999999996E-08, -2.9667999999999998E-08, -1.024E-12, 2.9909299999999996E-08, 0.0001729430542114947, 5.4675787028707357E-08, 1.024E-12
DataValue, 0.25, 0.1, 0, 3.3999899999999995E-08, -3.37301E-08, 6.897E-12, 3.3999899999999995E-08, 0.00018439061798258607, 7.1916769813894627E-08, 6.897E-12
DataValue, 0.3, 0.1, 0, 3.9904199999999995E-08, -3.96897E-08, -4.397E-12, 3.9904199999999995E-08, 0.00019976035642739527, 9.1861769912205186E-08, 4.397E-12
DataValue, 0.35000000000000003, 0.1, 0, 4.6095799999999994E-08, -4.5322099999999993E-08, -5.6630000000000004E-12, 4.6095799999999994E-08, 0.00021469932463796899, 1.015432464466814E-07, 5.6630000000000004E-12
DataValue, 0.4, 0.1, 0, 5.3650699999999992E-08, -5.2824699999999995E-08, -2.59E-12, 5.3650699999999992E-08, 0.00023162620749820169, 1.0592222978132381E-07, 2.59E-12
DataValue, 0.45, 0.1, 0, 6.11301E-08, -6.11891E-08, 1.412E-12, 6.11301E-08, 0.00024724502017229791, 1.2500600953167647E-07, 1.412E-12
DataValue, 0.5, 0.1, 0, 7.1279599999999992E-08, -7.0730299999999988E-08, 1.4420000000000001E-12, 7.1279599999999992E-08, 0.00026698239642343463, 1.5936274175310489E-07, 1.4420000000000001E-12
DataValue, 0.55, 0.1, 0, 8.24639E-08, -8.1534199999999992E-08, -3.3070000000000003E-12, 8.24639E-08, 0.00028716528341705933, 1.5158128807283745E-07, 3.3070000000000003E-12
DataValue, 0.6, 0.1, 0, 9.3584499999999987E-08, -9.324459999999999E-08, -2.2920000000000003E-12, 9.3584499999999987E-08, 0.00030591583809930467, 1.2536690371346237E-07, 2.2920000000000003E-12
DataValue, 0.65, 0.1, 0, 1.04053E-07, -1.0486049999999999E-07, -8.8200000000000008E-13, 1.04053E-07, 0.00032257247247711638, 1.5135527226427658E-07, 8.8200000000000008E-13
DataValue, 0.70000000000000007, 0.1, 0, 1.18901E-07, -1.15913E-07, -2.4100000000000003E-13, 1.18901E-07, 0.00034482024302526091, 1.8673619660805132E-07, 2.4100000000000003E-13
DataValue, 0.75, 0.1, 0, 1.33799E-07, -1.33952E-07, 2.3460000000000003E-12, 1.33799E-07, 0.00036578545624450407, 1.9860543912230751E-07, 2.3460000000000003E-12
DataValue, 0.8, 0.1, 0, 1.51621E-07, -1.51353E-07, 2.5420000000000003E-12, 1.51621E-07, 0.00038938541318339084, 2.4233759537523856E-07, 2.5420000000000003E-12
DataValue, 0.85000000000000009, 0.1, 0, 1.72236E-07, -1.7202799999999998E-07, 5.22E-13, 1.72236E-07, 0.00041501325280043769, 2.5126977277182788E-07, 5.22E-13
DataValue, 0.9, 0.1, 0, 1.93171E-07, -1.91999E-07, -3.52E-13, 1.93171E-07, 0.00043951222963644596, 2.59538281838585E-07, 3.52E-13
DataValue, 0.95000000000000007, 0.1, 0, 2.17117E-07, -2.16814E-07, 6.2300000000000007E-13, 2.17117E-07, 0.000465958152627465, 2.9146519994572436E-07, 6.2300000000000007E-13
DataValue, 1, 0.1, 0, 2.4354199999999997E-07, -2.42179E-07, 1.466E-12, 2.4354199999999997E-07, 0.00049349974670712853, 2.979189429020699E-07, 1.466E-12
DataValue, 1.05, 0.1, 0, 2.70962E-07, -2.71565E-07, 1.7660000000000002E-12, 2.70962E-07, 0.00052054010412263142, 3.0327282902879222E-07, 1.7660000000000002E-12
DataValue, 1.1, 0.1, 0, 3.00929E-07, -2.99289E-07, -3.9000000000000004E-14, 3.00929E-07, 0.00054856995907541278, 3.3056171758338171E-07, 3.9000000000000004E-14
DataValue, 1.1500000000000001, 0.1, 0, 3.34124E-07, -3.33176E-07, 6.84E-13, 3.34124E-07, 0.00057803460104045672, 3.3014324604578566E-07, 6.84E-13
DataValue, 1.2, 0.1, 0, 3.6727E-07, -3.66637E-07, 1.4570000000000002E-12, 3.6727E-07, 0.00060602805215600368, 3.6805100437307408E-07, 1.4570000000000002E-12
DataValue, 1.25, 0.1, 0, 4.0794E-07, -4.07536E-07, 1.6700000000000002E-12, 4.0794E-07, 0.0006387018083581727, 4.1014853060684348E-07, 1.6700000000000002E-12
DataValue, 1.3, 0.1, 0, 4.48995E-07, -4.47354E-07, 1.675E-12, 4.48995E-07, 0.000670070891771908, 3.6448483762726666E-07, 1.675E-12
DataValue, 1.35, 0.1, 0, 4.88705E-07, -4.89432E-07, 6.2200000000000008E-13, 4.88705E-07, 0.000699074388030344, 3.8286180412442062E-07, 6.2200000000000008E-13
DataValue, 1.4000000000000001, 0.1, 0, 5.35746E-07, -5.34288E-07, 1.512E-12, 5.35746E-07, 0.0007319467193723871, 4.0335243584383446E-07, 1.512E-12
DataValue, 1.4500000000000002, 0.1, 0, 5.81535E-07, -5.80818E-07, 2.4500000000000003E-12, 5.81535E-07, 0.00076258442155606617, 3.7524864318554646E-07, 2.4500000000000003E-12
DataValue, 1.5, 0.1, 0, 6.2917299999999994E-07, -6.28464E-07, 2.649E-12, 6.2917299999999994E-07, 0.00079320426120892715, 3.9245024392874688E-07, 2.649E-12
DataValue, 1.55, 0.1, 0, 6.81005E-07, -6.79283E-07, 3.501E-12, 6.81005E-07, 0.00082523027089413052, 4.3077333898990069E-07, 3.501E-12
DataValue, 1.6, 0.1, 0, 7.37602E-07, -7.36795E-07, 4.059E-12, 7.37602E-07, 0.00085883758650864828, 4.1379529352354729E-07, 4.059E-12
DataValue, 1.6500000000000001, 0.1, 0, 7.91312E-07, -7.90616E-07, 6.0010000000000008E-12, 7.91312E-07, 0.00088955719321469145, 3.5564700844999386E-07, 6.0010000000000008E-12
DataValue, 1.7000000000000002, 0.1, 0, 8.43594E-07, -8.44142E-07, 9.3620000000000015E-12, 8.43594E-07, 0.0009184737339739226, 3.8112208114023625E-07, 9.3620000000000015E-12
DataValue, 1.75, 0.1, 0, 9.04957E-07, -9.0436799999999994E-07, 1.2242E-11, 9.04957E-07, 0.0009512922789553167, 4.0431586060318532E-07, 1.2242E-11
DataValue, 1.8, 0.1, 0, 9.64441E-07, -9.6354E-07, 1.7086E-11, 9.64441E-07, 0.00098205957049458058, 3.8057110632530773E-07, 1.7086E-11
DataValue, 1.85, 0.1, 0, 1.0261339999999999E-06, -1.024553E-06, 2.3929000000000003E-11, 1.0261339999999999E-06, 0.0010129827244331465, 3.7014756066202036E-07, 2.3929000000000003E-11
DataValue, 1.9000000000000001, 0.1, 0, 1.087639E-06, -1.089205E-06, 3.1726E-11, 1.087639E-06, 0.0010428993240001645, 3.4323450277156063E-07, 3.1726E-11
DataValue, 1.9500000000000002, 0.1, 0, 1.14826E-06, -1.1470900000000001E-06, 4.206E-11, 1.14826E-06, 0.001071568943185645, 3.32463234338684E-07, 4.206E-11
DataValue, 2, 0.1, 0, 1.2112300000000001E-06, -1.2109400000000002E-06, 5.6791000000000007E-11, 1.2112300000000001E-06, 0.0011005589488982405, 3.5042000911204659E-07, 5.6791000000000007E-11
DataValue, 2.05, 0.1, 0, 1.2786300000000001E-06, -1.2767300000000002E-06, 7.4613E-11, 1.2786300000000001E-06, 0.0011307652276224274, 3.3911435563834345E-07, 7.4613E-11
DataValue, 2.1, 0.1, 0, 1.3428E-06, -1.3421900000000002E-06, 9.5509E-11, 1.3428E-06, 0.001158792474949678, 3.1104881325931528E-07, 9.5509E-11
DataValue, 2.15, 0.1, 0, 1.4078700000000001E-06, -1.4078E-06, 1.2316000000000002E-10, 1.4078700000000001E-06, 0.0011865369779319986, 3.069462686618466E-07, 1.2316000000000002E-10
DataValue, 2.2, 0.1, 0, 1.4742700000000002E-06, -1.4738700000000002E-06, 1.5471200000000002E-10, 1.4742700000000002E-06, 0.0012141952067110133, 3.0195062013760045E-07, 1.5471200000000002E-10
DataValue, 2.25, 0.1, 0, 1.5412900000000001E-06, -1.5425E-06, 1.9084800000000003E-10, 1.5412900000000001E-06, 0.0012414870116114788, 3.0538190075362804E-07, 1.9084800000000003E-10
DataValue, 2.3000000000000003, 0.1, 0, 1.61152E-06, -1.6113300000000001E-06, 2.37688E-10, 1.61152E-06, 0.0012694565766500248, 2.9190604279629976E-07, 2.37688E-10
DataValue, 2.35, 0.1, 0, 1.6783600000000003E-06, -1.6785200000000002E-06, 2.90641E-10, 1.6783600000000003E-06, 0.0012955153414761248, 2.8237911134100119E-07, 2.90641E-10
