
SetupTitle, Transfer lin
PrimitiveTest, I/V Sweep
TestParameter, Context.MainFrame, 4155C
TestParameter, Channel.UnitType, SMU, SMU, SMU
TestParameter, Channel.Unit, SMU3:MP, SMU1:MP, SMU4:MP
TestParameter, Channel.IName, ID, IS, IG
TestParameter, Channel.VName, VD, VS, VG
TestParameter, Channel.Mode, V, COMMON, V
TestParameter, Channel.Func, CONST, CONST, VAR1
TestParameter, Channel.Index, 
TestParameter, Channel.Time, 
TestParameter, Measurement.Port.Unit, SMU3:MP, SMU1:MP, SMU4:MP
TestParameter, Measurement.Port.SeriesResistor, NONE, NONE, NONE
TestParameter, Measurement.Port.Filter, ON, ON, ON
TestParameter, Measurement.Primary.Locus, Double
TestParameter, Measurement.Primary.Scale, LINEAR
TestParameter, Measurement.Primary.Start, -2
TestParameter, Measurement.Primary.Stop, 3
TestParameter, Measurement.Primary.Step, 0.05
TestParameter, Measurement.Primary.Compliance, 0.001
TestParameter, Measurement.Primary.PowerCompliance, 0
TestParameter, Measurement.Aborting.Condition, CONTINUE AT ANY
TestParameter, Measurement.PostOutput.Value, START
TestParameter, Measurement.PostOutput.Retention, OFF
TestParameter, Measurement.Bias.Source, 0.1, 0, -2
TestParameter, Measurement.Bias.Compliance, 0.001, 0.1, 0.001
TestParameter, Measurement.Monitor.Unit, SMU3:MP, SMU1:MP, SMU4:MP
TestParameter, Measurement.Monitor.Adc, HR ADC, HR ADC, HR ADC
TestParameter, Measurement.Monitor.RangingMode, AUTO, AUTO, AUTO
TestParameter, Measurement.Monitor.RangeBoundary, , , 
TestParameter, Measurement.Monitor.RangeRating, BY FULL RANGE, BY FULL RANGE, BY FULL RANGE
TestParameter, Measurement.Monitor.RangeRatingCoeff, 50, 50, 50
TestParameter, Measurement.Timing.Hold, 0.5
TestParameter, Measurement.Timing.Delay, 0.05
TestParameter, Measurement.Adc.HighResolution.AutoZero, OFF
TestParameter, Measurement.Adc.HighResolution.Mode, AUTO
TestParameter, Measurement.Adc.HighResolution.Coeff, 1
TestParameter, Measurement.Ag16440ASelector.SemiconductorRelay.Channel1, DEFAULT
TestParameter, Measurement.Ag16440ASelector.SemiconductorRelay.Channel3, DEFAULT
TestParameter, Function.User.Name, absID, sqrtID, gm2, absIG
TestParameter, Function.User.Unit, A, A, A/V, A
TestParameter, Function.User.Definition, abs(ID), sqrt(abs(ID)), (delta(sqrtID)/delta(VG))^2, abs(IG)
TestParameter, Output.Graph.Enabled, true
TestParameter, Output.Graph.XAxis.Data, VG
TestParameter, Output.Graph.XAxis.Scale, Linear
TestParameter, Output.Graph.XAxis.Left, -5
TestParameter, Output.Graph.XAxis.Right, 7
TestParameter, Output.Graph.YAxis.Data, ID, absIG, gm2
TestParameter, Output.Graph.YAxis.Scale, Log, Log, Linear
TestParameter, Output.Graph.YAxis.Bottom, 1E-14, 1E-14, 0
TestParameter, Output.Graph.YAxis.Top, 0.01, 0.01, 1E-05
TestParameter, Output.Graph.YAxis.Group, , , 
TestParameter, Output.List.Data, VG, IG, VD, ID, VS, IS, sqrtID, gm2, absIG
TestParameter, AutoAnalysis.Interpolation, false
TestParameter, AutoAnalysis.Line1.Enabled, false
TestParameter, AutoAnalysis.Line1.Type, 1
TestParameter, AutoAnalysis.Line1.Fix, True
TestParameter, AutoAnalysis.Line1.YAxis, 0
TestParameter, AutoAnalysis.Line1.Point1.Type, 0
TestParameter, AutoAnalysis.Line1.Point1.XY.X, 
TestParameter, AutoAnalysis.Line1.Point1.XY.Y, 
TestParameter, AutoAnalysis.Line1.Point1.Data.Var, 
TestParameter, AutoAnalysis.Line1.Point1.Data.Condition, 
TestParameter, AutoAnalysis.Line1.Point1.Data.Start, false
TestParameter, AutoAnalysis.Line1.Point1.Data.StartVar, 
TestParameter, AutoAnalysis.Line1.Point1.Data.StartCondition, 
TestParameter, AutoAnalysis.Line1.Point2.Type, 0
TestParameter, AutoAnalysis.Line1.Point2.XY.X, 
TestParameter, AutoAnalysis.Line1.Point2.XY.Y, 
TestParameter, AutoAnalysis.Line1.Point2.Data.Var, 
TestParameter, AutoAnalysis.Line1.Point2.Data.Condition, 
TestParameter, AutoAnalysis.Line1.Point2.Data.Start, false
TestParameter, AutoAnalysis.Line1.Point2.Data.StartVar, 
TestParameter, AutoAnalysis.Line1.Point2.Data.StartCondition, 
TestParameter, AutoAnalysis.Line1.GradientExpr, 0
TestParameter, AutoAnalysis.Line2.Enabled, false
TestParameter, AutoAnalysis.Line2.Type, 1
TestParameter, AutoAnalysis.Line2.Fix, True
TestParameter, AutoAnalysis.Line2.YAxis, 0
TestParameter, AutoAnalysis.Line2.Point1.Type, 0
TestParameter, AutoAnalysis.Line2.Point1.XY.X, 
TestParameter, AutoAnalysis.Line2.Point1.XY.Y, 
TestParameter, AutoAnalysis.Line2.Point1.Data.Var, 
TestParameter, AutoAnalysis.Line2.Point1.Data.Condition, 
TestParameter, AutoAnalysis.Line2.Point1.Data.Start, false
TestParameter, AutoAnalysis.Line2.Point1.Data.StartVar, 
TestParameter, AutoAnalysis.Line2.Point1.Data.StartCondition, 
TestParameter, AutoAnalysis.Line2.Point2.Type, 0
TestParameter, AutoAnalysis.Line2.Point2.XY.X, 
TestParameter, AutoAnalysis.Line2.Point2.XY.Y, 
TestParameter, AutoAnalysis.Line2.Point2.Data.Var, 
TestParameter, AutoAnalysis.Line2.Point2.Data.Condition, 
TestParameter, AutoAnalysis.Line2.Point2.Data.Start, false
TestParameter, AutoAnalysis.Line2.Point2.Data.StartVar, 
TestParameter, AutoAnalysis.Line2.Point2.Data.StartCondition, 
TestParameter, AutoAnalysis.Line2.GradientExpr, 0
TestParameter, AutoAnalysis.Marker.Enabled, false
TestParameter, AutoAnalysis.Marker.Data.Var, 
TestParameter, AutoAnalysis.Marker.Data.Condition, 
TestParameter, AutoAnalysis.Marker.Data.Start, false
TestParameter, AutoAnalysis.Marker.Data.StartVar, 
TestParameter, AutoAnalysis.Marker.Data.StartCondition, 
MetaData, TestRecord.EntryPoint, true
MetaData, TestRecord.RecordTime, 05/02/2019 13:37:53
MetaData, TestRecord.TestTarget, 150-300-20-5
MetaData, TestRecord.IterationIndex, 1
MetaData, TestRecord.Preservation, true
MetaData, TestRecord.Flag, 
MetaData, TestRecord.Remarks, good
MetaData, TestRecord.LinkKey, c465c78d-4b04-457f-97a5-f6f23631cb8e
Dimension1, 202, 202, 202, 202, 202, 202, 202, 202, 202, 202
Dimension2, 1, 1, 1, 1, 1, 1, 1, 1, 1, 1
DataName, VG, VD, VS, ID, IS, IG, absID, sqrtID, gm2, absIG
DataValue, -2, 0.1, 0, -1.721E-12, 1.6600000000000002E-12, -2.6100000000000004E-12, 1.721E-12, 1.3118688958886098E-06, 3.4481749541015323E-10, 2.6100000000000004E-12
DataValue, -1.9500000000000002, 0.1, 0, 1.47E-13, 2.73E-13, -6.62E-13, 1.47E-13, 3.8340579025361627E-07, 1.389204558293987E-11, 6.62E-13
DataValue, -1.9000000000000001, 0.1, 0, 8.8200000000000008E-13, -7.9300000000000005E-13, -1.2210000000000002E-12, 8.8200000000000008E-13, 9.3914855054991176E-07, 3.6458430104225576E-10, 1.2210000000000002E-12
DataValue, -1.85, 0.1, 0, -5.2570000000000007E-12, 4.8200000000000007E-13, -2.55E-13, 5.2570000000000007E-12, 2.2928148638736625E-06, 2.7001015234966341E-11, 2.55E-13
DataValue, -1.8, 0.1, 0, 1.76E-13, 4.7800000000000008E-13, -7.78E-13, 1.76E-13, 4.1952353926806064E-07, 3.6408730204432518E-10, 7.78E-13
DataValue, -1.75, 0.1, 0, 1.48E-13, -7.8500000000000009E-13, -1.3420000000000001E-12, 1.48E-13, 3.8470768123342689E-07, 1.7142879236446169E-12, 1.3420000000000001E-12
DataValue, -1.7000000000000002, 0.1, 0, 3.03E-13, 3.2E-14, 5.19E-13, 3.03E-13, 5.5045435778091545E-07, 1.9352383811525327E-11, 5.19E-13
DataValue, -1.6500000000000001, 0.1, 0, 6.8E-13, -5.62E-13, -2.3460000000000003E-12, 6.8E-13, 8.2462112512353212E-07, 1.4368773094426324E-11, 2.3460000000000003E-12
DataValue, -1.6, 0.1, 0, 8.6400000000000005E-13, -2.9700000000000005E-13, -1.1E-14, 8.6400000000000005E-13, 9.2951600308978007E-07, 4.4359886237958568E-12, 1.1E-14
DataValue, -1.55, 0.1, 0, 3.77E-13, -1.53E-13, -9.11E-13, 3.77E-13, 6.1400325732035011E-07, 4.6585296472698354E-11, 9.11E-13
DataValue, -1.5, 0.1, 0, 6.1E-14, 6.7500000000000005E-13, -7.49E-13, 6.1E-14, 2.4698178070456937E-07, 8.0279509171225093E-13, 7.49E-13
DataValue, -1.4500000000000002, 0.1, 0, 2.7500000000000004E-13, 3.1100000000000004E-13, 4.33E-13, 2.7500000000000004E-13, 5.2440442408507585E-07, 2.6138661452966759E-12, 4.33E-13
DataValue, -1.4000000000000001, 0.1, 0, -1.6700000000000002E-13, -1.89E-13, -9.4E-14, 1.6700000000000002E-13, 4.08656334834051E-07, 1.7083543558748425E-12, 9.4E-14
DataValue, -1.35, 0.1, 0, 1.5500000000000002E-13, 1.65E-13, -6.15E-13, 1.5500000000000002E-13, 3.9370039370059057E-07, 4.3145605003974309E-13, 6.15E-13
DataValue, -1.3, 0.1, 0, 2.2500000000000003E-13, 6.76E-13, 1.162E-12, 2.2500000000000003E-13, 4.7434164902525693E-07, 3.485294527990333E-13, 1.162E-12
DataValue, -1.25, 0.1, 0, 1.12E-13, 1.1400000000000002E-13, 5.8E-14, 1.12E-13, 3.3466401061363021E-07, 1.2266803165058632E-13, 5.8E-14
DataValue, -1.2, 0.1, 0, -1.93E-13, 1.8000000000000002E-13, -1.4760000000000002E-12, 1.93E-13, 4.3931765272977595E-07, 7.39655187056156E-12, 1.4760000000000002E-12
DataValue, -1.1500000000000001, 0.1, 0, 3.6800000000000005E-13, -3.16E-13, -1E-13, 3.6800000000000005E-13, 6.0663003552412413E-07, 6.2939543960383354E-13, 1E-13
DataValue, -1.1, 0.1, 0, 2.69E-13, -1E-13, 3.53E-13, 2.69E-13, 5.1865209919559758E-07, 1.0257518799026445E-11, 3.53E-13
DataValue, -1.05, 0.1, 0, -8.2E-14, 4.7900000000000008E-13, -1.542E-12, 8.2E-14, 2.8635642126552706E-07, 2.3284316889596949E-12, 1.542E-12
DataValue, -1, 0.1, 0, 1.34E-13, 5.8000000000000005E-13, 1.567E-12, 1.34E-13, 3.6606010435446253E-07, 1.2736568628044054E-10, 1.567E-12
DataValue, -0.95000000000000007, 0.1, 0, -2.002E-12, -5E-13, -5.6E-13, 2.002E-12, 1.4149204924659196E-06, 7.1810383571540942E-12, 5.6E-13
DataValue, -0.9, 0.1, 0, -4.0200000000000005E-13, 8.45E-13, -1.1500000000000002E-12, 4.0200000000000005E-13, 6.3403469936589438E-07, 5.4597726098198233E-11, 1.1500000000000002E-12
DataValue, -0.85000000000000009, 0.1, 0, 4.5700000000000007E-13, -1.209E-12, 1.3550000000000002E-12, 4.5700000000000007E-13, 6.7601775124622283E-07, 3.0515665446700651E-12, 1.3550000000000002E-12
DataValue, -0.8, 0.1, 0, -2.11E-13, 4.76E-13, 4.5900000000000006E-13, 2.11E-13, 4.5934736311423405E-07, 2.557566504760665E-11, 4.5900000000000006E-13
DataValue, -0.75, 0.1, 0, 2.9E-14, 1.2980000000000001E-12, -1.6430000000000002E-12, 2.9E-14, 1.7029386365926402E-07, 6.0715291009731935E-11, 1.6430000000000002E-12
DataValue, -0.70000000000000007, 0.1, 0, -1.5340000000000001E-12, -8.050000000000001E-13, -8.72E-13, 1.5340000000000001E-12, 1.2385475364312829E-06, 2.5052680682408288E-11, 8.72E-13
DataValue, -0.65, 0.1, 0, -4.5000000000000005E-13, -2.4200000000000003E-13, 4.5500000000000008E-13, 4.5000000000000005E-13, 6.7082039324993694E-07, 2.9026455158706578E-12, 4.5500000000000008E-13
DataValue, -0.6, 0.1, 0, -1.141E-12, -8.4000000000000008E-14, -3.43E-13, 1.141E-12, 1.0681760154581266E-06, 2.264660633875597E-11, 3.43E-13
DataValue, -0.55, 0.1, 0, -3.8E-14, -9.0000000000000011E-15, 1.1440000000000002E-12, 3.8E-14, 1.9493588689617928E-07, 4.9105414199449416E-11, 1.1440000000000002E-12
DataValue, -0.5, 0.1, 0, -1.35E-13, 3.26E-13, -1.99E-13, 1.35E-13, 3.674234614174767E-07, 3.0476813361172145E-11, 1.99E-13
DataValue, -0.45, 0.1, 0, 5.58E-13, -5.6E-14, -7.8900000000000007E-13, 5.58E-13, 7.4699397587932392E-07, 2.9910589413416883E-12, 7.8900000000000007E-13
DataValue, -0.4, 0.1, 0, 2.92E-13, -2E-15, 1.143E-12, 2.92E-13, 5.4037024344425184E-07, 3.620538468733218E-11, 1.143E-12
DataValue, -0.35000000000000003, 0.1, 0, 1.8190000000000002E-12, 5.58E-13, 2.2700000000000002E-13, 1.8190000000000002E-12, 1.3487030807409021E-06, 9.5877224478454252E-11, 2.2700000000000002E-13
DataValue, -0.3, 0.1, 0, 2.3090000000000004E-12, -1.29E-13, -1.0330000000000001E-12, 2.3090000000000004E-12, 1.5195394038984315E-06, 2.0333610920094847E-11, 1.0330000000000001E-12
DataValue, -0.25, 0.1, 0, -8.060000000000001E-13, 1.23E-13, 1.41E-12, 8.060000000000001E-13, 8.977750274985377E-07, 2.5874042387701276E-13, 1.41E-12
DataValue, -0.2, 0.1, 0, 2.157E-12, -1.201E-12, 3.2E-14, 2.157E-12, 1.4686728703152382E-06, 1.3600538047735115E-12, 3.2E-14
DataValue, -0.15, 0.1, 0, 1.0290000000000002E-12, 2.72E-13, 9.4E-14, 1.0290000000000002E-12, 1.0143963722332608E-06, 6.3106889491821339E-12, 9.4E-14
DataValue, -0.1, 0.1, 0, 2.958E-12, -2.7090000000000003E-12, -1.178E-12, 2.958E-12, 1.7198837169994953E-06, 4.3255336321092116E-10, 1.178E-12
DataValue, -0.05, 0.1, 0, 9.574000000000001E-12, -9.6810000000000013E-12, 5.4E-13, 9.574000000000001E-12, 3.09418810029384E-06, 1.3110936666594386E-09, 5.4E-13
DataValue, 0, 0.1, 0, 2.8524E-11, -2.6608E-11, 1E-13, 2.8524E-11, 5.3407864589402934E-06, 3.7825817368491771E-09, 1E-13
DataValue, 0.05, 0.1, 0, 8.5460000000000008E-11, -8.0465E-11, -1.8400000000000002E-13, 8.5460000000000008E-11, 9.2444577991356533E-06, 1.0395465342749577E-08, 1.8400000000000002E-13
DataValue, 0.1, 0.1, 0, 2.41386E-10, -2.2535500000000002E-10, -4.13E-13, 2.41386E-10, 1.5536601945084389E-05, 2.5878156415162964E-08, 4.13E-13
DataValue, 0.15, 0.1, 0, 6.416670000000001E-10, -6.0067300000000008E-10, -4.77E-13, 6.416670000000001E-10, 2.53311468354672E-05, 5.1684724662022946E-08, 4.77E-13
DataValue, 0.2, 0.1, 0, 1.46466E-09, -1.37125E-09, 3.0000000000000003E-13, 1.46466E-09, 3.827087665575483E-05, 1.1994799748397517E-07, 3.0000000000000003E-13
DataValue, 0.25, 0.1, 0, 3.59576E-09, -3.50901E-09, 3.04E-13, 3.59576E-09, 5.9964656256831826E-05, 2.4956065991621238E-07, 3.04E-13
DataValue, 0.3, 0.1, 0, 7.78399E-09, -7.62373E-09, 2.33E-13, 7.78399E-09, 8.8226923328426227E-05, 3.2960010662112958E-07, 2.33E-13
DataValue, 0.35000000000000003, 0.1, 0, 1.3776999999999998E-08, -1.3275499999999999E-08, 1.42E-13, 1.3776999999999998E-08, 0.00011737546592026802, 4.4406039054433096E-07, 1.42E-13
DataValue, 0.4, 0.1, 0, 2.39831E-08, -2.3720799999999997E-08, 8.2E-14, 2.39831E-08, 0.00015486477972734796, 5.78843488869384E-07, 8.2E-14
DataValue, 0.45, 0.1, 0, 3.74257E-08, -3.7014699999999995E-08, 3.64E-13, 3.74257E-08, 0.00019345723041540731, 5.922300988622872E-07, 3.64E-13
DataValue, 0.5, 0.1, 0, 5.37411E-08, -5.3288999999999995E-08, 5.35E-13, 5.37411E-08, 0.00023182126735914459, 5.8076206902537622E-07, 5.35E-13
DataValue, 0.55, 0.1, 0, 7.2719199999999989E-08, -7.22964E-08, -1.3460000000000001E-12, 7.2719199999999989E-08, 0.00026966497733298627, 5.5335465056467737E-07, 1.3460000000000001E-12
DataValue, 0.6, 0.1, 0, 9.3763999999999992E-08, -9.3167399999999985E-08, 2.5E-13, 9.3763999999999992E-08, 0.00030620907889871584, 4.7063260812327946E-07, 2.5E-13
DataValue, 0.65, 0.1, 0, 1.14425E-07, -1.13172E-07, 2.2900000000000003E-13, 1.14425E-07, 0.00033826764551165694, 4.3525253853693808E-07, 2.2900000000000003E-13
DataValue, 0.70000000000000007, 0.1, 0, 1.3852E-07, -1.38094E-07, 9.9100000000000012E-13, 1.3852E-07, 0.00037218275080933022, 4.5417235292509445E-07, 9.9100000000000012E-13
DataValue, 0.75, 0.1, 0, 1.6455999999999999E-07, -1.63851E-07, -2.9900000000000004E-13, 1.6455999999999999E-07, 0.000405659956120887, 4.235597915967715E-07, 2.9900000000000004E-13
DataValue, 0.8, 0.1, 0, 1.912E-07, -1.90702E-07, 1.717E-12, 1.912E-07, 0.0004372642221815089, 4.0083154335501142E-07, 1.717E-12
DataValue, 0.85000000000000009, 0.1, 0, 2.19934E-07, -2.19453E-07, 2.67E-13, 2.19934E-07, 0.00046897121446843622, 3.8319918632141078E-07, 2.67E-13
DataValue, 0.9, 0.1, 0, 2.49168E-07, -2.48768E-07, -2.6600000000000003E-13, 2.49168E-07, 0.00049916730662173778, 3.6695373015231925E-07, 2.6600000000000003E-13
DataValue, 0.95000000000000007, 0.1, 0, 2.80421E-07, -2.79855E-07, 3.6900000000000004E-13, 2.80421E-07, 0.00052954792040003332, 3.5993479716471191E-07, 3.6900000000000004E-13
DataValue, 1, 0.1, 0, 3.12662E-07, -3.12071E-07, 5.5000000000000005E-14, 3.12662E-07, 0.00055916187280607749, 3.3336026832846914E-07, 5.5000000000000005E-14
DataValue, 1.05, 0.1, 0, 3.44904E-07, -3.44115E-07, 1.573E-12, 3.44904E-07, 0.00058728527991087941, 3.1108181963834704E-07, 1.573E-12
DataValue, 1.1, 0.1, 0, 3.78147E-07, -3.77267E-07, 2.741E-12, 3.78147E-07, 0.00061493658209607269, 3.0620634760838731E-07, 2.741E-12
DataValue, 1.1500000000000001, 0.1, 0, 4.12962E-07, -4.122E-07, -2.44E-13, 4.12962E-07, 0.00064262119479519193, 3.0275435347426015E-07, 2.44E-13
DataValue, 1.2, 0.1, 0, 4.48846E-07, -4.4810099999999997E-07, -1.83E-13, 4.48846E-07, 0.00066995970028054669, 2.8782010111123828E-07, 1.83E-13
DataValue, 1.25, 0.1, 0, 4.84792E-07, -4.83826E-07, 9.69E-13, 4.84792E-07, 0.00069627006254757207, 2.7330402633564203E-07, 9.69E-13
DataValue, 1.3, 0.1, 0, 5.2162799999999994E-07, -5.20983E-07, 8.7000000000000008E-14, 5.2162799999999994E-07, 0.00072223818785771771, 2.6413741396029128E-07, 8.7000000000000008E-14
DataValue, 1.35, 0.1, 0, 5.59002E-07, -5.58494E-07, -5.7600000000000007E-13, 5.59002E-07, 0.00074766436320049387, 2.6067876985643148E-07, 5.7600000000000007E-13
DataValue, 1.4000000000000001, 0.1, 0, 5.9798499999999994E-07, -5.9731399999999994E-07, -3.2200000000000004E-13, 5.9798499999999994E-07, 0.00077329489847017608, 2.5438413006223149E-07, 3.2200000000000004E-13
DataValue, 1.4500000000000002, 0.1, 0, 6.36965E-07, -6.3661E-07, -1.47E-13, 6.36965E-07, 0.00079810087081771811, 2.4360446890059359E-07, 1.47E-13
DataValue, 1.5, 0.1, 0, 6.76755E-07, -6.75928E-07, 7.360000000000001E-13, 6.76755E-07, 0.0008226512019075885, 2.3842017058003712E-07, 7.360000000000001E-13
DataValue, 1.55, 0.1, 0, 7.17289E-07, -7.167E-07, 1.193E-12, 7.17289E-07, 0.00084692915878484189, 2.3424935254997611E-07, 1.193E-12
DataValue, 1.6, 0.1, 0, 7.58729E-07, -7.5805999999999995E-07, -5.2900000000000007E-13, 7.58729E-07, 0.000871050515182673, 2.2611106540565417E-07, 5.2900000000000007E-13
DataValue, 1.6500000000000001, 0.1, 0, 8.0009499999999994E-07, -7.99413E-07, 4.87E-13, 8.0009499999999994E-07, 0.0008944802960378724, 2.1652436488391669E-07, 4.87E-13
DataValue, 1.7000000000000002, 0.1, 0, 8.41958E-07, -8.4138E-07, 1.191E-12, 8.41958E-07, 0.00091758269382110735, 2.0836810065522477E-07, 1.191E-12
DataValue, 1.75, 0.1, 0, 8.8384E-07, -8.83419E-07, -1.1100000000000001E-13, 8.8384E-07, 0.00094012765090704573, 2.0383705656073546E-07, 1.1100000000000001E-13
DataValue, 1.8, 0.1, 0, 9.26851E-07, -9.26145E-07, 1.2150000000000002E-12, 9.26851E-07, 0.00096273101123834173, 2.0122978889304802E-07, 1.2150000000000002E-12
DataValue, 1.85, 0.1, 0, 9.70198E-07, -9.69635E-07, 2.9430000000000003E-12, 9.70198E-07, 0.00098498629432089055, 1.9188892568168547E-07, 2.9430000000000003E-12
DataValue, 1.9000000000000001, 0.1, 0, 1.013115E-06, -1.012817E-06, 1.6100000000000002E-13, 1.013115E-06, 0.0010065361394406066, 1.8985545643831471E-07, 1.6100000000000002E-13
DataValue, 1.9500000000000002, 0.1, 0, 1.057933E-06, -1.057794E-06, -2.37E-13, 1.057933E-06, 0.0010285587003180713, 1.9039125865411123E-07, 2.37E-13
DataValue, 2, 0.1, 0, 1.102857E-06, -1.102799E-06, -1.1880000000000002E-12, 1.102857E-06, 0.0010501699862403228, 1.8091581254901746E-07, 1.1880000000000002E-12
DataValue, 2.05, 0.1, 0, 1.14724E-06, -1.14714E-06, 2.95E-13, 1.14724E-06, 0.0010710928997990791, 1.7343073913190812E-07, 2.95E-13
DataValue, 2.1, 0.1, 0, 1.1920600000000002E-06, -1.1924000000000002E-06, 2.2130000000000004E-12, 1.1920600000000002E-06, 0.0010918150026446789, 1.7221395674583465E-07, 2.2130000000000004E-12
DataValue, 2.15, 0.1, 0, 1.2378600000000002E-06, -1.2380900000000002E-06, 4.0000000000000006E-14, 1.2378600000000002E-06, 0.0011125915692651999, 1.7188499588472254E-07, 4.0000000000000006E-14
DataValue, 2.2, 0.1, 0, 1.2843100000000002E-06, -1.28472E-06, 5.45E-13, 1.2843100000000002E-06, 0.001133274018055651, 1.67838839419788E-07, 5.45E-13
DataValue, 2.25, 0.1, 0, 1.3307000000000002E-06, -1.3312900000000002E-06, 9.27E-13, 1.3307000000000002E-06, 0.0011535597080342224, 1.6424781254023995E-07, 9.27E-13
DataValue, 2.3000000000000003, 0.1, 0, 1.3778100000000002E-06, -1.37844E-06, 1.3820000000000002E-12, 1.3778100000000002E-06, 0.0011738015164413447, 1.6159645508733693E-07, 1.3820000000000002E-12
DataValue, 2.35, 0.1, 0, 1.42506E-06, -1.4256100000000002E-06, 3.7200000000000003E-13, 1.42506E-06, 0.0011937587696012959, 1.6074520493960928E-07, 3.7200000000000003E-13
DataValue, 2.4, 0.1, 0, 1.4735400000000002E-06, -1.47382E-06, 4.0720000000000004E-12, 1.4735400000000002E-06, 0.0012138945588476785, 1.5641857868809912E-07, 4.0720000000000004E-12
