
SetupTitle, Transfer sat
PrimitiveTest, I/V Sweep
TestParameter, Context.MainFrame, 4155C
TestParameter, Channel.UnitType, SMU, SMU, SMU
TestParameter, Channel.Unit, SMU3:MP, SMU1:MP, SMU4:MP
TestParameter, Channel.IName, ID, IS, IG
TestParameter, Channel.VName, VD, VS, VG
TestParameter, Channel.Mode, V, COMMON, V
TestParameter, Channel.Func, CONST, CONST, VAR1
TestParameter, Channel.Index, 
TestParameter, Channel.Time, 
TestParameter, Measurement.Port.Unit, SMU3:MP, SMU1:MP, SMU4:MP
TestParameter, Measurement.Port.SeriesResistor, NONE, NONE, NONE
TestParameter, Measurement.Port.Filter, ON, ON, ON
TestParameter, Measurement.Primary.Locus, Double
TestParameter, Measurement.Primary.Scale, LINEAR
TestParameter, Measurement.Primary.Start, -2
TestParameter, Measurement.Primary.Stop, 3
TestParameter, Measurement.Primary.Step, 0.05
TestParameter, Measurement.Primary.Compliance, 0.001
TestParameter, Measurement.Primary.PowerCompliance, 0
TestParameter, Measurement.Aborting.Condition, CONTINUE AT ANY
TestParameter, Measurement.PostOutput.Value, START
TestParameter, Measurement.PostOutput.Retention, OFF
TestParameter, Measurement.Bias.Source, 5, 0, -2
TestParameter, Measurement.Bias.Compliance, 0.001, 0.1, 0.001
TestParameter, Measurement.Monitor.Unit, SMU3:MP, SMU1:MP, SMU4:MP
TestParameter, Measurement.Monitor.Adc, HR ADC, HR ADC, HR ADC
TestParameter, Measurement.Monitor.RangingMode, AUTO, AUTO, AUTO
TestParameter, Measurement.Monitor.RangeBoundary, , , 
TestParameter, Measurement.Monitor.RangeRating, BY FULL RANGE, BY FULL RANGE, BY FULL RANGE
TestParameter, Measurement.Monitor.RangeRatingCoeff, 50, 50, 50
TestParameter, Measurement.Timing.Hold, 0.5
TestParameter, Measurement.Timing.Delay, 0.05
TestParameter, Measurement.Adc.HighResolution.AutoZero, OFF
TestParameter, Measurement.Adc.HighResolution.Mode, AUTO
TestParameter, Measurement.Adc.HighResolution.Coeff, 1
TestParameter, Measurement.Ag16440ASelector.SemiconductorRelay.Channel1, DEFAULT
TestParameter, Measurement.Ag16440ASelector.SemiconductorRelay.Channel3, DEFAULT
TestParameter, Function.User.Name, absID, sqrtID, gm2, absIG
TestParameter, Function.User.Unit, A, A, A/V, A
TestParameter, Function.User.Definition, abs(ID), sqrt(abs(ID)), (delta(sqrtID)/delta(VG))^2, abs(IG)
TestParameter, Output.Graph.Enabled, true
TestParameter, Output.Graph.XAxis.Data, VG
TestParameter, Output.Graph.XAxis.Scale, Linear
TestParameter, Output.Graph.XAxis.Left, -5
TestParameter, Output.Graph.XAxis.Right, 7
TestParameter, Output.Graph.YAxis.Data, ID, absIG, gm2
TestParameter, Output.Graph.YAxis.Scale, Log, Log, Linear
TestParameter, Output.Graph.YAxis.Bottom, 1E-14, 1E-14, 0
TestParameter, Output.Graph.YAxis.Top, 0.01, 0.01, 1E-05
TestParameter, Output.Graph.YAxis.Group, , , 
TestParameter, Output.List.Data, VG, IG, VD, ID, VS, IS, sqrtID, gm2, absIG
TestParameter, AutoAnalysis.Interpolation, false
TestParameter, AutoAnalysis.Line1.Enabled, false
TestParameter, AutoAnalysis.Line1.Type, 1
TestParameter, AutoAnalysis.Line1.Fix, True
TestParameter, AutoAnalysis.Line1.YAxis, 0
TestParameter, AutoAnalysis.Line1.Point1.Type, 0
TestParameter, AutoAnalysis.Line1.Point1.XY.X, 
TestParameter, AutoAnalysis.Line1.Point1.XY.Y, 
TestParameter, AutoAnalysis.Line1.Point1.Data.Var, 
TestParameter, AutoAnalysis.Line1.Point1.Data.Condition, 
TestParameter, AutoAnalysis.Line1.Point1.Data.Start, false
TestParameter, AutoAnalysis.Line1.Point1.Data.StartVar, 
TestParameter, AutoAnalysis.Line1.Point1.Data.StartCondition, 
TestParameter, AutoAnalysis.Line1.Point2.Type, 0
TestParameter, AutoAnalysis.Line1.Point2.XY.X, 
TestParameter, AutoAnalysis.Line1.Point2.XY.Y, 
TestParameter, AutoAnalysis.Line1.Point2.Data.Var, 
TestParameter, AutoAnalysis.Line1.Point2.Data.Condition, 
TestParameter, AutoAnalysis.Line1.Point2.Data.Start, false
TestParameter, AutoAnalysis.Line1.Point2.Data.StartVar, 
TestParameter, AutoAnalysis.Line1.Point2.Data.StartCondition, 
TestParameter, AutoAnalysis.Line1.GradientExpr, 0
TestParameter, AutoAnalysis.Line2.Enabled, false
TestParameter, AutoAnalysis.Line2.Type, 1
TestParameter, AutoAnalysis.Line2.Fix, True
TestParameter, AutoAnalysis.Line2.YAxis, 0
TestParameter, AutoAnalysis.Line2.Point1.Type, 0
TestParameter, AutoAnalysis.Line2.Point1.XY.X, 
TestParameter, AutoAnalysis.Line2.Point1.XY.Y, 
TestParameter, AutoAnalysis.Line2.Point1.Data.Var, 
TestParameter, AutoAnalysis.Line2.Point1.Data.Condition, 
TestParameter, AutoAnalysis.Line2.Point1.Data.Start, false
TestParameter, AutoAnalysis.Line2.Point1.Data.StartVar, 
TestParameter, AutoAnalysis.Line2.Point1.Data.StartCondition, 
TestParameter, AutoAnalysis.Line2.Point2.Type, 0
TestParameter, AutoAnalysis.Line2.Point2.XY.X, 
TestParameter, AutoAnalysis.Line2.Point2.XY.Y, 
TestParameter, AutoAnalysis.Line2.Point2.Data.Var, 
TestParameter, AutoAnalysis.Line2.Point2.Data.Condition, 
TestParameter, AutoAnalysis.Line2.Point2.Data.Start, false
TestParameter, AutoAnalysis.Line2.Point2.Data.StartVar, 
TestParameter, AutoAnalysis.Line2.Point2.Data.StartCondition, 
TestParameter, AutoAnalysis.Line2.GradientExpr, 0
TestParameter, AutoAnalysis.Marker.Enabled, false
TestParameter, AutoAnalysis.Marker.Data.Var, 
TestParameter, AutoAnalysis.Marker.Data.Condition, 
TestParameter, AutoAnalysis.Marker.Data.Start, false
TestParameter, AutoAnalysis.Marker.Data.StartVar, 
TestParameter, AutoAnalysis.Marker.Data.StartCondition, 
MetaData, TestRecord.EntryPoint, true
MetaData, TestRecord.RecordTime, 05/02/2019 15:06:33
MetaData, TestRecord.TestTarget, 350-300-100-10
MetaData, TestRecord.IterationIndex, 1
MetaData, TestRecord.Preservation, true
MetaData, TestRecord.Flag, 
MetaData, TestRecord.Remarks, bad
MetaData, TestRecord.LinkKey, e70f668b-4b98-48ba-8991-52f1ce54581f
Dimension1, 202, 202, 202, 202, 202, 202, 202, 202, 202, 202
Dimension2, 1, 1, 1, 1, 1, 1, 1, 1, 1, 1
DataName, VG, VD, VS, ID, IS, IG, absID, sqrtID, gm2, absIG
DataValue, -2, 5, 0, 1.2801000000000001E-11, -3.4960000000000005E-12, -2.319E-12, 1.2801000000000001E-11, 3.5778485155187888E-06, 2.1549083298134624E-11, 2.319E-12
DataValue, -1.9500000000000002, 5, 0, 1.1194000000000001E-11, -2.5210000000000003E-12, -8.26E-12, 1.1194000000000001E-11, 3.3457435645906878E-06, 2.5585418732420736E-12, 8.26E-12
DataValue, -1.9000000000000001, 5, 0, 1.1682000000000001E-11, -3.455E-12, -5.9390000000000004E-12, 1.1682000000000001E-11, 3.4178940884702677E-06, 2.4549927516752841E-12, 5.9390000000000004E-12
DataValue, -1.85, 5, 0, 1.2267000000000002E-11, -5.8520000000000005E-12, -9.0030000000000011E-12, 1.2267000000000002E-11, 3.5024277294471049E-06, 1.116067542214889E-12, 9.0030000000000011E-12
DataValue, -1.8, 5, 0, 1.0971000000000001E-11, -5.6860000000000006E-12, -6.247E-12, 1.0971000000000001E-11, 3.312249990565326E-06, 1.7888651362430014E-12, 6.247E-12
DataValue, -1.75, 5, 0, 1.1348E-11, -4.693E-12, -5.9880000000000007E-12, 1.1348E-11, 3.3686792664188142E-06, 9.48794423869109E-14, 5.9880000000000007E-12
DataValue, -1.7000000000000002, 5, 0, 1.1176000000000002E-11, -4.717E-12, -4.725E-12, 1.1176000000000002E-11, 3.3430524973443059E-06, 4.9535472796816231E-16, 4.725E-12
DataValue, -1.6500000000000001, 5, 0, 1.1363000000000002E-11, -4.6420000000000006E-12, -7.2760000000000009E-12, 1.1363000000000002E-11, 3.3709049230139972E-06, 9.4786399794984988E-15, 7.2760000000000009E-12
DataValue, -1.6, 5, 0, 1.1111000000000001E-11, -4.609E-12, -5.0780000000000008E-12, 1.1111000000000001E-11, 3.333316666625E-06, 5.2628243500705851E-12, 5.0780000000000008E-12
DataValue, -1.55, 5, 0, 9.869E-12, 1.29E-13, 1.6540000000000002E-12, 9.869E-12, 3.1414964586960781E-06, 2.1600396239277949E-13, 1.6540000000000002E-12
DataValue, -1.5, 5, 0, 1.1423000000000001E-11, -2.1070000000000002E-12, -7.446E-12, 1.1423000000000001E-11, 3.379792893063124E-06, 2.9635458498233532E-13, 7.446E-12
DataValue, -1.4500000000000002, 5, 0, 1.0214000000000002E-11, -4.454E-12, -4.6050000000000007E-12, 1.0214000000000002E-11, 3.1959349179856589E-06, 1.8756570694749841E-12, 4.6050000000000007E-12
DataValue, -1.4000000000000001, 5, 0, 1.0516000000000001E-11, -6.681E-12, -9.543E-12, 1.0516000000000001E-11, 3.2428382630035682E-06, 9.9337527744764788E-13, 9.543E-12
DataValue, -1.35, 5, 0, 1.0861E-11, -6.3590000000000007E-12, -5.3020000000000006E-12, 1.0861E-11, 3.2956031314465035E-06, 7.210290315175022E-15, 5.3020000000000006E-12
DataValue, -1.3, 5, 0, 1.0461E-11, -6.1410000000000006E-12, -9.0700000000000007E-13, 1.0461E-11, 3.234346920167965E-06, 2.3755959787006383E-11, 9.0700000000000007E-13
DataValue, -1.25, 5, 0, 7.8860000000000009E-12, -2.921E-12, -3.6510000000000005E-12, 7.8860000000000009E-12, 2.8082022719170355E-06, 4.2224392649212941E-12, 3.6510000000000005E-12
DataValue, -1.2, 5, 0, 9.1740000000000011E-12, -2.932E-12, -8.522000000000001E-12, 9.1740000000000011E-12, 3.0288611721239388E-06, 2.6676976696005046E-14, 8.522000000000001E-12
DataValue, -1.1500000000000001, 5, 0, 7.978E-12, -5.6860000000000006E-12, -5.3050000000000005E-12, 7.978E-12, 2.8245353600194137E-06, 3.83716697757467E-12, 5.3050000000000005E-12
DataValue, -1.1, 5, 0, 1.0399E-11, -4.946E-12, -2.432E-12, 1.0399E-11, 3.2247480521739988E-06, 1.3700933673428192E-11, 2.432E-12
DataValue, -1.05, 5, 0, 1.0206E-11, -3.9660000000000007E-12, -3.904E-12, 1.0206E-11, 3.1946830828737928E-06, 3.2339015995738103E-13, 3.904E-12
DataValue, -1, 5, 0, 1.0769000000000002E-11, -6.9130000000000009E-12, -3.873E-12, 1.0769000000000002E-11, 3.2816154558387857E-06, 6.639865509447782E-13, 3.873E-12
DataValue, -0.95000000000000007, 5, 0, 9.692E-12, -5.569E-12, -1.6200000000000002E-12, 9.692E-12, 3.1131977129633126E-06, 2.1156596469128613E-13, 1.6200000000000002E-12
DataValue, -0.9, 5, 0, 1.1073E-11, -4.606E-12, -3.5200000000000003E-12, 1.1073E-11, 3.3276117561999328E-06, 7.8582402725814988E-12, 3.5200000000000003E-12
DataValue, -0.85000000000000009, 5, 0, 1.1516E-11, -6.1880000000000007E-12, -3.902E-12, 1.1516E-11, 3.3935232428848932E-06, 1.5561796346437217E-11, 3.902E-12
DataValue, -0.8, 5, 0, 1.3854000000000001E-11, -6.713E-12, -4.021E-12, 1.3854000000000001E-11, 3.7220961836040727E-06, 6.3445966350456327E-12, 4.021E-12
DataValue, -0.75, 5, 0, 1.3289000000000001E-11, -7.687E-12, -2.8260000000000003E-12, 1.3289000000000001E-11, 3.6454080704360112E-06, 1.9935342052586209E-12, 2.8260000000000003E-12
DataValue, -0.70000000000000007, 5, 0, 1.4925000000000003E-11, -1.1183E-11, -1.4340000000000002E-12, 1.4925000000000003E-11, 3.8632887544163722E-06, 4.0651021968687509E-11, 1.4340000000000002E-12
DataValue, -0.65, 5, 0, 1.8344E-11, -1.3344000000000001E-11, 2.8600000000000004E-13, 1.8344E-11, 4.2829896100737856E-06, 1.3610063812273625E-10, 2.8600000000000004E-13
DataValue, -0.6, 5, 0, 2.5300000000000002E-11, -1.6406000000000003E-11, -4.843E-12, 2.5300000000000002E-11, 5.0299105359837166E-06, 2.4155955397250915E-10, 4.843E-12
DataValue, -0.55, 5, 0, 3.4073000000000005E-11, -2.8523000000000002E-11, -3.9500000000000003E-13, 3.4073000000000005E-11, 5.8372082368200647E-06, 4.9847919521166471E-10, 3.9500000000000003E-13
DataValue, -0.5, 5, 0, 5.2745E-11, -4.2336000000000004E-11, -3.2820000000000004E-12, 5.2745E-11, 7.2625753008144437E-06, 9.1091034861856063E-10, 3.2820000000000004E-12
DataValue, -0.45, 5, 0, 7.8417000000000012E-11, -6.7731E-11, -7.599000000000001E-12, 7.8417000000000012E-11, 8.8553373735843635E-06, 1.4370814357360076E-09, 7.599000000000001E-12
DataValue, -0.4, 5, 0, 1.22179E-10, -1.10257E-10, -5.288E-12, 1.22179E-10, 1.1053460996448127E-05, 2.2249622671633323E-09, 5.288E-12
DataValue, -0.35000000000000003, 5, 0, 1.84207E-10, -1.7169800000000002E-10, -3.7170000000000004E-12, 1.84207E-10, 1.3572287942716217E-05, 2.9056554929396577E-09, 3.7170000000000004E-12
DataValue, -0.3, 5, 0, 2.7040100000000003E-10, -2.56073E-10, -2.126E-12, 2.7040100000000003E-10, 1.6443874239363423E-05, 3.4723079078563039E-09, 2.126E-12
DataValue, -0.25, 5, 0, 3.78883E-10, -3.5077E-10, -4.935E-12, 3.78883E-10, 1.9464917158827057E-05, 3.611301573862686E-09, 4.935E-12
DataValue, -0.2, 5, 0, 5.0415000000000006E-10, -4.7776800000000008E-10, -6.4800000000000007E-12, 5.0415000000000006E-10, 2.2453284837635673E-05, 3.9331427587688593E-09, 6.4800000000000007E-12
DataValue, -0.15, 5, 0, 6.623620000000001E-10, -6.22254E-10, -1.1810000000000001E-12, 6.623620000000001E-10, 2.5736394463871586E-05, 5.1390263145576176E-09, 1.1810000000000001E-12
DataValue, -0.1, 5, 0, 8.7746200000000011E-10, -7.97624E-10, -4.422E-12, 8.7746200000000011E-10, 2.9621985078653996E-05, 6.4412092834169189E-09, 4.422E-12
DataValue, -0.05, 5, 0, 1.13988E-09, -1.07365E-09, -9.98E-13, 1.13988E-09, 3.3762108938868139E-05, 1.4543553342981168E-08, 9.98E-13
DataValue, 0, 5, 0, 1.73736E-09, -1.70291E-09, -2.8180000000000003E-12, 1.73736E-09, 4.1681650639100176E-05, 3.3006005579621955E-08, 2.8180000000000003E-12
DataValue, 0.05, 5, 0, 2.69669E-09, -2.64957E-09, -2.983E-12, 2.69669E-09, 5.1929663969642631E-05, 5.4655670531644462E-08, 2.983E-12
DataValue, 0.1, 5, 0, 4.23283E-09, -4.117E-09, -2.307E-12, 4.23283E-09, 6.5060202889323984E-05, 8.5485355698941325E-08, 2.307E-12
DataValue, 0.15, 5, 0, 6.58817E-09, -6.45448E-09, -2.3330000000000003E-12, 6.58817E-09, 8.1167542774190221E-05, 1.0233429989123128E-07, 2.3330000000000003E-12
DataValue, 0.2, 5, 0, 9.41869E-09, -8.96291E-09, -4.139E-12, 9.41869E-09, 9.7049935600184713E-05, 1.4135608043715554E-07, 4.139E-12
DataValue, 0.25, 5, 0, 1.4105099999999998E-08, -1.3710899999999999E-08, -2.7550000000000003E-12, 1.4105099999999998E-08, 0.00011876489380284057, 2.6627323997220039E-07, 2.7550000000000003E-12
DataValue, 0.3, 5, 0, 2.20973E-08, -2.1778599999999998E-08, -2.077E-12, 2.20973E-08, 0.00014865160611308577, 4.0219447895161983E-07, 2.077E-12
DataValue, 0.35000000000000003, 5, 0, 3.31909E-08, -3.2660099999999995E-08, -2.09E-12, 3.31909E-08, 0.00018218369850236325, 4.9501172306202863E-07, 2.09E-12
DataValue, 0.4, 5, 0, 4.7964799999999996E-08, -4.7343299999999992E-08, -3.739E-12, 4.7964799999999996E-08, 0.0002190086756272454, 5.9293001880583042E-07, 3.739E-12
DataValue, 0.45, 5, 0, 6.7177199999999991E-08, -6.63145E-08, -3.645E-12, 6.7177199999999991E-08, 0.00025918564775079657, 6.9548134364180346E-07, 3.645E-12
DataValue, 0.5, 5, 0, 9.1448299999999989E-08, -9.02753E-08, -2.2330000000000003E-12, 9.1448299999999989E-08, 0.00030240419970628714, 6.9079251346260362E-07, 2.2330000000000003E-12
DataValue, 0.55, 5, 0, 1.17169E-07, -1.14553E-07, -4.025E-12, 1.17169E-07, 0.00034229957639471306, 8.0376952036019463E-07, 4.025E-12
DataValue, 0.6, 5, 0, 1.53709E-07, -1.52277E-07, -2.795E-12, 1.53709E-07, 0.00039205739375759767, 1.0358785610982956E-06, 2.795E-12
DataValue, 0.65, 5, 0, 1.97205E-07, -1.95124E-07, -2.131E-12, 1.97205E-07, 0.00044407769590466936, 1.1177284677686381E-06, 2.131E-12
DataValue, 0.70000000000000007, 5, 0, 2.47785E-07, -2.4547699999999997E-07, -2.3040000000000003E-12, 2.47785E-07, 0.00049778007191931661, 1.1856781479116867E-06, 2.3040000000000003E-12
DataValue, 0.75, 5, 0, 3.05772E-07, -3.02655E-07, -2.8720000000000003E-12, 3.05772E-07, 0.00055296654510015339, 1.2200687893120655E-06, 2.8720000000000003E-12
DataValue, 0.8, 5, 0, 3.69952E-07, -3.663E-07, -4.6840000000000006E-12, 3.69952E-07, 0.00060823679599313952, 1.2922696293384877E-06, 4.6840000000000006E-12
DataValue, 0.85000000000000009, 5, 0, 4.4441499999999997E-07, -4.40882E-07, -1.7100000000000002E-12, 4.4441499999999997E-07, 0.000666644582967566, 1.3839473805692615E-06, 1.7100000000000002E-12
DataValue, 0.9, 5, 0, 5.26899E-07, -5.21546E-07, -2.8720000000000003E-12, 5.26899E-07, 0.000725878088937805, 1.4906394962484325E-06, 2.8720000000000003E-12
DataValue, 0.95000000000000007, 5, 0, 6.22105E-07, -6.14733E-07, -2.5880000000000003E-12, 6.22105E-07, 0.00078873633110184544, 1.5466754109488132E-06, 2.5880000000000003E-12
DataValue, 1, 5, 0, 7.22914E-07, -7.16415E-07, -1.487E-12, 7.22914E-07, 0.000850243494535536, 1.6223560437327055E-06, 1.487E-12
DataValue, 1.05, 5, 0, 8.39254E-07, -8.31987E-07, -1.529E-12, 8.39254E-07, 0.00091610807222728915, 1.728859492354938E-06, 1.529E-12
DataValue, 1.1, 5, 0, 9.63793E-07, -9.56249E-07, -1.6530000000000001E-12, 9.63793E-07, 0.00098172959617198047, 1.5438669395123012E-06, 1.6530000000000001E-12
DataValue, 1.1500000000000001, 5, 0, 1.0823500000000001E-06, -1.06646E-06, -3.3600000000000003E-13, 1.0823500000000001E-06, 0.0010403605144371831, 1.63275505813017E-06, 3.3600000000000003E-13
DataValue, 1.2, 5, 0, 1.2310100000000002E-06, -1.2250000000000001E-06, -1.049E-12, 1.2310100000000002E-06, 0.001109508900369889, 2.1136500894180411E-06, 1.049E-12
DataValue, 1.25, 5, 0, 1.4059900000000001E-06, -1.3959900000000002E-06, -1.389E-12, 1.4059900000000001E-06, 0.0011857444918699812, 2.3298988138989368E-06, 1.389E-12
DataValue, 1.3, 5, 0, 1.5930200000000002E-06, -1.5817600000000002E-06, -5.9500000000000009E-13, 1.5930200000000002E-06, 0.0012621489610976987, 2.4155122120984378E-06, 5.9500000000000009E-13
DataValue, 1.35, 5, 0, 1.7987200000000002E-06, -1.7836700000000002E-06, -6.11E-13, 1.7987200000000002E-06, 0.0013411636738295592, 2.6094007684888907E-06, 6.11E-13
DataValue, 1.4000000000000001, 5, 0, 2.0268800000000003E-06, -2.0153400000000003E-06, 1.2690000000000002E-12, 2.0268800000000003E-06, 0.0014236853584974455, 2.7267847635814532E-06, 1.2690000000000002E-12
DataValue, 1.4500000000000002, 5, 0, 2.26892E-06, -2.25675E-06, 1.015E-12, 2.26892E-06, 0.0015062934641031939, 2.87185920765629E-06, 1.015E-12
DataValue, 1.5, 5, 0, 2.5381300000000003E-06, -2.5161300000000003E-06, 1.3210000000000001E-12, 2.5381300000000003E-06, 0.0015931509658535189, 3.0347891233291657E-06, 1.3210000000000001E-12
DataValue, 1.55, 5, 0, 2.8240800000000005E-06, -2.8094800000000002E-06, 3.834E-12, 2.8240800000000005E-06, 0.0016804999256173742, 3.1279577581805157E-06, 3.834E-12
DataValue, 1.6, 5, 0, 3.1329400000000004E-06, -3.1157700000000003E-06, 3.836E-12, 3.1329400000000004E-06, 0.0017700112993989615, 3.32760136151422E-06, 3.836E-12
DataValue, 1.6500000000000001, 5, 0, 3.4704600000000002E-06, -3.45174E-06, 5.4490000000000007E-12, 3.4704600000000002E-06, 0.0018629170673972581, 3.5358571890376471E-06, 5.4490000000000007E-12
DataValue, 1.7000000000000002, 5, 0, 3.8339600000000006E-06, -3.8179E-06, 7.4890000000000009E-12, 3.8339600000000006E-06, 0.0019580500504328283, 3.7606029721363052E-06, 7.4890000000000009E-12
DataValue, 1.75, 5, 0, 4.2305900000000008E-06, -4.2124000000000005E-06, 9.4450000000000011E-12, 4.2305900000000008E-06, 0.0020568398090274314, 3.925803217516385E-06, 9.4450000000000011E-12
DataValue, 1.8, 5, 0, 4.64914E-06, -4.6295400000000006E-06, 1.2263000000000001E-11, 4.64914E-06, 0.0021561864483388257, 4.0103220470607911E-06, 1.2263000000000001E-11
DataValue, 1.85, 5, 0, 5.09449E-06, -5.0742400000000007E-06, 1.5526E-11, 5.09449E-06, 0.002257097693942378, 4.1153886958614958E-06, 1.5526E-11
DataValue, 1.9000000000000001, 5, 0, 5.5651200000000009E-06, -5.5438800000000007E-06, 1.9090000000000002E-11, 5.5651200000000009E-06, 0.0023590506565141839, 4.3057782901775815E-06, 1.9090000000000002E-11
DataValue, 1.9500000000000002, 5, 0, 6.074260000000001E-06, -6.0584300000000007E-06, 2.4671000000000003E-11, 6.074260000000001E-06, 0.0024646013876487211, 4.551282025593069E-06, 2.4671000000000003E-11
DataValue, 2, 5, 0, 6.6171800000000011E-06, -6.5939500000000006E-06, 2.8821000000000003E-11, 6.6171800000000011E-06, 0.0025723879956180795, 4.731128976730668E-06, 2.8821000000000003E-11
DataValue, 2.05, 5, 0, 7.1937300000000007E-06, -7.174240000000001E-06, 3.3486000000000003E-11, 7.1937300000000007E-06, 0.0026821129730121365, 4.8253504459336507E-06, 3.3486000000000003E-11
DataValue, 2.1, 5, 0, 7.79557E-06, -7.7788100000000015E-06, 3.9743E-11, 7.79557E-06, 0.0027920547988891623, 5.0042534195985145E-06, 3.9743E-11
DataValue, 2.15, 5, 0, 8.443760000000001E-06, -8.4247600000000016E-06, 4.8422000000000004E-11, 8.443760000000001E-06, 0.0029058148598973062, 5.2085890181437467E-06, 4.8422000000000004E-11
