
SetupTitle, Transfer sat
PrimitiveTest, I/V Sweep
TestParameter, Context.MainFrame, 4155C
TestParameter, Channel.UnitType, SMU, SMU, SMU
TestParameter, Channel.Unit, SMU3:MP, SMU1:MP, SMU4:MP
TestParameter, Channel.IName, ID, IS, IG
TestParameter, Channel.VName, VD, VS, VG
TestParameter, Channel.Mode, V, COMMON, V
TestParameter, Channel.Func, CONST, CONST, VAR1
TestParameter, Channel.Index, 
TestParameter, Channel.Time, 
TestParameter, Measurement.Port.Unit, SMU3:MP, SMU1:MP, SMU4:MP
TestParameter, Measurement.Port.SeriesResistor, NONE, NONE, NONE
TestParameter, Measurement.Port.Filter, ON, ON, ON
TestParameter, Measurement.Primary.Locus, Double
TestParameter, Measurement.Primary.Scale, LINEAR
TestParameter, Measurement.Primary.Start, -2
TestParameter, Measurement.Primary.Stop, 3
TestParameter, Measurement.Primary.Step, 0.05
TestParameter, Measurement.Primary.Compliance, 0.001
TestParameter, Measurement.Primary.PowerCompliance, 0
TestParameter, Measurement.Aborting.Condition, CONTINUE AT ANY
TestParameter, Measurement.PostOutput.Value, START
TestParameter, Measurement.PostOutput.Retention, OFF
TestParameter, Measurement.Bias.Source, 5, 0, -2
TestParameter, Measurement.Bias.Compliance, 0.001, 0.1, 0.001
TestParameter, Measurement.Monitor.Unit, SMU3:MP, SMU1:MP, SMU4:MP
TestParameter, Measurement.Monitor.Adc, HR ADC, HR ADC, HR ADC
TestParameter, Measurement.Monitor.RangingMode, AUTO, AUTO, AUTO
TestParameter, Measurement.Monitor.RangeBoundary, , , 
TestParameter, Measurement.Monitor.RangeRating, BY FULL RANGE, BY FULL RANGE, BY FULL RANGE
TestParameter, Measurement.Monitor.RangeRatingCoeff, 50, 50, 50
TestParameter, Measurement.Timing.Hold, 0.5
TestParameter, Measurement.Timing.Delay, 0.05
TestParameter, Measurement.Adc.HighResolution.AutoZero, OFF
TestParameter, Measurement.Adc.HighResolution.Mode, AUTO
TestParameter, Measurement.Adc.HighResolution.Coeff, 1
TestParameter, Measurement.Ag16440ASelector.SemiconductorRelay.Channel1, DEFAULT
TestParameter, Measurement.Ag16440ASelector.SemiconductorRelay.Channel3, DEFAULT
TestParameter, Function.User.Name, absID, sqrtID, gm2, absIG
TestParameter, Function.User.Unit, A, A, A/V, A
TestParameter, Function.User.Definition, abs(ID), sqrt(abs(ID)), (delta(sqrtID)/delta(VG))^2, abs(IG)
TestParameter, Output.Graph.Enabled, true
TestParameter, Output.Graph.XAxis.Data, VG
TestParameter, Output.Graph.XAxis.Scale, Linear
TestParameter, Output.Graph.XAxis.Left, -5
TestParameter, Output.Graph.XAxis.Right, 7
TestParameter, Output.Graph.YAxis.Data, ID, absIG, gm2
TestParameter, Output.Graph.YAxis.Scale, Log, Log, Linear
TestParameter, Output.Graph.YAxis.Bottom, 1E-14, 1E-14, 0
TestParameter, Output.Graph.YAxis.Top, 0.01, 0.01, 1E-05
TestParameter, Output.Graph.YAxis.Group, , , 
TestParameter, Output.List.Data, VG, IG, VD, ID, VS, IS, sqrtID, gm2, absIG
TestParameter, AutoAnalysis.Interpolation, false
TestParameter, AutoAnalysis.Line1.Enabled, false
TestParameter, AutoAnalysis.Line1.Type, 1
TestParameter, AutoAnalysis.Line1.Fix, True
TestParameter, AutoAnalysis.Line1.YAxis, 0
TestParameter, AutoAnalysis.Line1.Point1.Type, 0
TestParameter, AutoAnalysis.Line1.Point1.XY.X, 
TestParameter, AutoAnalysis.Line1.Point1.XY.Y, 
TestParameter, AutoAnalysis.Line1.Point1.Data.Var, 
TestParameter, AutoAnalysis.Line1.Point1.Data.Condition, 
TestParameter, AutoAnalysis.Line1.Point1.Data.Start, false
TestParameter, AutoAnalysis.Line1.Point1.Data.StartVar, 
TestParameter, AutoAnalysis.Line1.Point1.Data.StartCondition, 
TestParameter, AutoAnalysis.Line1.Point2.Type, 0
TestParameter, AutoAnalysis.Line1.Point2.XY.X, 
TestParameter, AutoAnalysis.Line1.Point2.XY.Y, 
TestParameter, AutoAnalysis.Line1.Point2.Data.Var, 
TestParameter, AutoAnalysis.Line1.Point2.Data.Condition, 
TestParameter, AutoAnalysis.Line1.Point2.Data.Start, false
TestParameter, AutoAnalysis.Line1.Point2.Data.StartVar, 
TestParameter, AutoAnalysis.Line1.Point2.Data.StartCondition, 
TestParameter, AutoAnalysis.Line1.GradientExpr, 0
TestParameter, AutoAnalysis.Line2.Enabled, false
TestParameter, AutoAnalysis.Line2.Type, 1
TestParameter, AutoAnalysis.Line2.Fix, True
TestParameter, AutoAnalysis.Line2.YAxis, 0
TestParameter, AutoAnalysis.Line2.Point1.Type, 0
TestParameter, AutoAnalysis.Line2.Point1.XY.X, 
TestParameter, AutoAnalysis.Line2.Point1.XY.Y, 
TestParameter, AutoAnalysis.Line2.Point1.Data.Var, 
TestParameter, AutoAnalysis.Line2.Point1.Data.Condition, 
TestParameter, AutoAnalysis.Line2.Point1.Data.Start, false
TestParameter, AutoAnalysis.Line2.Point1.Data.StartVar, 
TestParameter, AutoAnalysis.Line2.Point1.Data.StartCondition, 
TestParameter, AutoAnalysis.Line2.Point2.Type, 0
TestParameter, AutoAnalysis.Line2.Point2.XY.X, 
TestParameter, AutoAnalysis.Line2.Point2.XY.Y, 
TestParameter, AutoAnalysis.Line2.Point2.Data.Var, 
TestParameter, AutoAnalysis.Line2.Point2.Data.Condition, 
TestParameter, AutoAnalysis.Line2.Point2.Data.Start, false
TestParameter, AutoAnalysis.Line2.Point2.Data.StartVar, 
TestParameter, AutoAnalysis.Line2.Point2.Data.StartCondition, 
TestParameter, AutoAnalysis.Line2.GradientExpr, 0
TestParameter, AutoAnalysis.Marker.Enabled, false
TestParameter, AutoAnalysis.Marker.Data.Var, 
TestParameter, AutoAnalysis.Marker.Data.Condition, 
TestParameter, AutoAnalysis.Marker.Data.Start, false
TestParameter, AutoAnalysis.Marker.Data.StartVar, 
TestParameter, AutoAnalysis.Marker.Data.StartCondition, 
MetaData, TestRecord.EntryPoint, true
MetaData, TestRecord.RecordTime, 05/02/2019 13:50:08
MetaData, TestRecord.TestTarget, 150-300-5-5
MetaData, TestRecord.IterationIndex, 1
MetaData, TestRecord.Preservation, true
MetaData, TestRecord.Flag, 
MetaData, TestRecord.Remarks, good
MetaData, TestRecord.LinkKey, b78d2891-1393-41b0-b0f0-8aa89034f99c
Dimension1, 202, 202, 202, 202, 202, 202, 202, 202, 202, 202
Dimension2, 1, 1, 1, 1, 1, 1, 1, 1, 1, 1
DataName, VG, VD, VS, ID, IS, IG, absID, sqrtID, gm2, absIG
DataValue, -2, 5, 0, 9.676E-12, -1.77E-13, -1.0293E-11, 9.676E-12, 3.110626946453078E-06, 1.2958763815100871E-10, 1.0293E-11
DataValue, -1.9500000000000002, 5, 0, 1.3541000000000001E-11, -6.2000000000000008E-13, -1.2901000000000001E-11, 1.3541000000000001E-11, 3.67980977769232E-06, 9.5460212658874217E-11, 1.2901000000000001E-11
DataValue, -1.9000000000000001, 5, 0, 1.6709E-11, 1.1540000000000001E-12, -1.7931000000000002E-11, 1.6709E-11, 4.0876643697838016E-06, 2.17061720928574E-12, 1.7931000000000002E-11
DataValue, -1.85, 5, 0, 1.4647000000000003E-11, 1.906E-12, -1.3711000000000001E-11, 1.4647000000000003E-11, 3.8271399242776588E-06, 4.02469754545716E-11, 1.3711000000000001E-11
DataValue, -1.8, 5, 0, 1.1925E-11, -1.0580000000000001E-12, -1.3790000000000002E-11, 1.1925E-11, 3.4532593299664017E-06, 9.30382568129373E-13, 1.3790000000000002E-11
DataValue, -1.75, 5, 0, 1.3918000000000001E-11, -3.1100000000000004E-13, -1.5559E-11, 1.3918000000000001E-11, 3.7306835834736777E-06, 9.0083497414879128E-12, 1.5559E-11
DataValue, -1.7000000000000002, 5, 0, 1.4088E-11, 8.21E-13, -1.4586000000000003E-11, 1.4088E-11, 3.7533984600625604E-06, 3.2215440359560564E-12, 1.4586000000000003E-11
DataValue, -1.6500000000000001, 5, 0, 1.2611000000000001E-11, 1.379E-12, -1.2574E-11, 1.2611000000000001E-11, 3.5511969813008123E-06, 2.4628045498625331E-13, 1.2574E-11
DataValue, -1.6, 5, 0, 1.4463000000000001E-11, -5.82E-13, -1.3423E-11, 1.4463000000000001E-11, 3.8030251116709708E-06, 3.6974838691358012E-11, 1.3423E-11
DataValue, -1.55, 5, 0, 8.662E-12, -5.57E-13, -1.0556000000000002E-11, 8.662E-12, 2.9431275881279765E-06, 3.4253150730337028E-11, 1.0556000000000002E-11
DataValue, -1.5, 5, 0, 1.0354E-11, -9.82E-13, -8.6290000000000013E-12, 1.0354E-11, 3.2177631982481248E-06, 1.7036460617491623E-14, 8.6290000000000013E-12
DataValue, -1.4500000000000002, 5, 0, 8.7390000000000014E-12, -6.85E-13, -9.3200000000000015E-12, 8.7390000000000014E-12, 2.9561799674580035E-06, 1.8112589776143008E-12, 9.3200000000000015E-12
DataValue, -1.4000000000000001, 5, 0, 9.5060000000000009E-12, 1.707E-12, -4.385E-12, 9.5060000000000009E-12, 3.0831801763763338E-06, 2.5323295367397793E-11, 4.385E-12
DataValue, -1.35, 5, 0, 6.0170000000000007E-12, 6.9400000000000007E-13, -7.3760000000000009E-12, 6.0170000000000007E-12, 2.4529573987332111E-06, 1.1847519910639975E-11, 7.3760000000000009E-12
DataValue, -1.3, 5, 0, 7.502000000000001E-12, 3.99E-13, -8.756E-12, 7.502000000000001E-12, 2.7389779115575213E-06, 2.5040820072748118E-13, 8.756E-12
DataValue, -1.25, 5, 0, 6.2650000000000005E-12, -1.1210000000000002E-12, -6.0040000000000007E-12, 6.2650000000000005E-12, 2.5029982021567655E-06, 2.7507950730860622E-11, 6.0040000000000007E-12
DataValue, -1.2, 5, 0, 4.904E-12, -1.116E-12, -4.3350000000000004E-12, 4.904E-12, 2.2144976857066255E-06, 1.4657925077875783E-11, 4.3350000000000004E-12
DataValue, -1.1500000000000001, 5, 0, 4.4950000000000005E-12, -4.7800000000000008E-13, -5.064E-12, 4.4950000000000005E-12, 2.1201415047114192E-06, 6.6225796994167295E-12, 5.064E-12
DataValue, -1.1, 5, 0, 6.1100000000000004E-12, 1.8200000000000003E-12, -3.305E-12, 6.1100000000000004E-12, 2.4718414188616552E-06, 3.8652778357213656E-12, 3.305E-12
DataValue, -1.05, 5, 0, 3.7E-12, -4.3800000000000005E-13, -5.382E-12, 3.7E-12, 1.9235384061671345E-06, 1.8807022140327616E-10, 5.382E-12
DataValue, -1, 5, 0, 1.2110000000000002E-12, 3.1100000000000004E-13, -1.946E-12, 1.2110000000000002E-12, 1.100454451578983E-06, 4.230875286187995E-12, 1.946E-12
DataValue, -0.95000000000000007, 5, 0, 2.9510000000000002E-12, -6.6000000000000009E-14, -3.1400000000000004E-12, 2.9510000000000002E-12, 1.717847490320372E-06, 3.5382645806979395E-11, 3.1400000000000004E-12
DataValue, -0.9, 5, 0, 2.874E-12, 4.4100000000000004E-13, -2.586E-12, 2.874E-12, 1.6952875862224675E-06, 1.3213096190400089E-11, 2.586E-12
DataValue, -0.85000000000000009, 5, 0, 4.3320000000000005E-12, 1.8600000000000002E-13, -5.5050000000000005E-12, 4.3320000000000005E-12, 2.0813457185196313E-06, 1.3026161424973133E-12, 5.5050000000000005E-12
DataValue, -0.8, 5, 0, 3.2740000000000004E-12, -5.15E-13, -3.034E-12, 3.2740000000000004E-12, 1.8094197965093673E-06, 7.91554133293274E-12, 3.034E-12
DataValue, -0.75, 5, 0, 3.2400000000000003E-12, -9.23E-13, -3.1360000000000004E-12, 3.2400000000000003E-12, 1.8000000000000001E-06, 1.0919060151917227E-11, 3.1360000000000004E-12
DataValue, -0.70000000000000007, 5, 0, 4.5790000000000006E-12, -3.42E-13, -1.1900000000000002E-12, 4.5790000000000006E-12, 2.1398598084921358E-06, 2.401027984092964E-13, 1.1900000000000002E-12
DataValue, -0.65, 5, 0, 3.066E-12, 2.57E-13, -1.9070000000000003E-12, 3.066E-12, 1.7509997144488632E-06, 1.9922185770011261E-11, 1.9070000000000003E-12
DataValue, -0.6, 5, 0, 2.8680000000000003E-12, -1.189E-12, -3.681E-12, 2.8680000000000003E-12, 1.693517050401324E-06, 5.2742219323160119E-12, 3.681E-12
DataValue, -0.55, 5, 0, 3.923E-12, 1.0100000000000001E-13, -1.209E-12, 3.923E-12, 1.9806564568344507E-06, 4.5838494511996835E-12, 1.209E-12
DataValue, -0.5, 5, 0, 3.639E-12, -7.06E-13, -3.697E-12, 3.639E-12, 1.9076163136228419E-06, 3.0373123198778717E-12, 3.697E-12
DataValue, -0.45, 5, 0, 3.263E-12, 6.5E-14, -1.3230000000000001E-12, 3.263E-12, 1.8063775906493084E-06, 4.2254393649224677E-12, 1.3230000000000001E-12
DataValue, -0.4, 5, 0, 2.8970000000000003E-12, -3.3E-13, -3.3450000000000004E-12, 2.8970000000000003E-12, 1.7020575783445165E-06, 2.6571459713011452E-11, 3.3450000000000004E-12
DataValue, -0.35000000000000003, 5, 0, 5.3910000000000008E-12, 2.4010000000000004E-12, -2.0120000000000003E-12, 5.3910000000000008E-12, 2.3218527085067219E-06, 4.1582296146159266E-14, 2.0120000000000003E-12
DataValue, -0.3, 5, 0, 2.828E-12, -4.4980000000000004E-12, -2.6210000000000002E-12, 2.828E-12, 1.6816658407662327E-06, 7.7497340907581941E-11, 2.6210000000000002E-12
DataValue, -0.25, 5, 0, 2.0780000000000002E-12, -5.42E-13, -7.023E-12, 2.0780000000000002E-12, 1.4415269681833914E-06, 4.99104879725573E-11, 7.023E-12
DataValue, -0.2, 5, 0, 9.51E-13, -2.949E-12, 3.8500000000000003E-13, 9.51E-13, 9.7519228873079184E-07, 1.1851331597555164E-11, 3.8500000000000003E-13
DataValue, -0.15, 5, 0, 1.2040000000000001E-12, 2.7500000000000004E-13, -1.4320000000000002E-12, 1.2040000000000001E-12, 1.0972693379476163E-06, 1.8350479452474666E-11, 1.4320000000000002E-12
DataValue, -0.1, 5, 0, -1.9700000000000003E-12, -1.5870000000000002E-12, -4.84E-12, 1.9700000000000003E-12, 1.40356688476182E-06, 9.6678409323146561E-11, 4.84E-12
DataValue, -0.05, 5, 0, -1.3000000000000001E-14, -1.909E-12, -2.177E-12, 1.3000000000000001E-14, 1.1401754250991381E-07, 5.1415530187457357E-11, 2.177E-12
DataValue, 0, 5, 0, 4.4970000000000007E-12, 5.11E-13, -3.117E-12, 4.4970000000000007E-12, 2.120613118888026E-06, 1.2107531879814716E-09, 3.117E-12
DataValue, 0.05, 5, 0, 1.2914000000000001E-11, -6.965E-12, -1.3168E-11, 1.2914000000000001E-11, 3.5936054318747907E-06, 1.3025846940937144E-09, 1.3168E-11
DataValue, 0.1, 5, 0, 3.2830000000000005E-11, -2.8017E-11, -6.7980000000000007E-12, 3.2830000000000005E-11, 5.7297469403107154E-06, 3.7954556415975588E-09, 6.7980000000000007E-12
DataValue, 0.15, 5, 0, 9.5147E-11, -9.1023000000000012E-11, -6.4830000000000005E-12, 9.5147E-11, 9.754332370798117E-06, 1.2053960776960276E-08, 6.4830000000000005E-12
DataValue, 0.2, 5, 0, 2.7918400000000005E-10, -2.70798E-10, -9.114E-12, 2.7918400000000005E-10, 1.6708800076606339E-05, 3.0614621865258682E-08, 9.114E-12
DataValue, 0.25, 5, 0, 7.42637E-10, -7.2196400000000009E-10, 3.5540000000000004E-12, 7.42637E-10, 2.7251366938192295E-05, 6.241765392268667E-08, 3.5540000000000004E-12
DataValue, 0.3, 5, 0, 1.73825E-09, -1.63758E-09, 4.862E-12, 1.73825E-09, 4.1692325432865938E-05, 1.2816656228887456E-07, 4.862E-12
DataValue, 0.35000000000000003, 5, 0, 3.97552E-09, -3.88688E-09, 1.4094E-11, 3.97552E-09, 6.3051724797978366E-05, 2.2741919891415357E-07, 1.4094E-11
DataValue, 0.4, 5, 0, 7.98893E-09, -7.86506E-09, -7.2100000000000006E-13, 7.98893E-09, 8.9380814496176981E-05, 2.9049768310944616E-07, 7.2100000000000006E-13
DataValue, 0.45, 5, 0, 1.3677199999999998E-08, -1.3383099999999999E-08, 1.6340000000000001E-12, 1.3677199999999998E-08, 0.0001169495617777168, 3.8765799699442425E-07, 1.6340000000000001E-12
DataValue, 0.5, 5, 0, 2.2995599999999998E-08, -2.2780699999999998E-08, 4.9000000000000006E-14, 2.2995599999999998E-08, 0.000151643001816767, 5.1498403356807349E-07, 4.9000000000000006E-14
DataValue, 0.55, 5, 0, 3.56122E-08, -3.53203E-08, 7.1E-14, 3.56122E-08, 0.00018871194980710682, 5.8403404958987406E-07, 7.1E-14
DataValue, 0.6, 5, 0, 5.2013699999999995E-08, -5.1672499999999995E-08, -5.251E-12, 5.2013699999999995E-08, 0.00022806512227870353, 6.562550958073409E-07, 5.251E-12
DataValue, 0.65, 5, 0, 7.27497E-08, -7.240299999999999E-08, -2.228E-12, 7.27497E-08, 0.00026972152305665187, 7.2358169371104437E-07, 2.228E-12
DataValue, 0.70000000000000007, 5, 0, 9.8049599999999986E-08, -9.7576699999999985E-08, -2.553E-12, 9.8049599999999986E-08, 0.00031312872752272346, 7.4122527039420116E-07, 2.553E-12
DataValue, 0.75, 5, 0, 1.26605E-07, -1.25708E-07, 3.2110000000000004E-12, 1.26605E-07, 0.00035581596366661232, 7.7336356332115153E-07, 3.2110000000000004E-12
DataValue, 0.8, 5, 0, 1.60857E-07, -1.6065999999999998E-07, -4.222E-12, 1.60857E-07, 0.00040106981935817608, 8.6913600582837919E-07, 4.222E-12
DataValue, 0.85000000000000009, 5, 0, 2.0164E-07, -2.00796E-07, -7.1900000000000007E-12, 2.0164E-07, 0.00044904342774390989, 9.3637553527371237E-07, 7.1900000000000007E-12
DataValue, 0.9, 5, 0, 2.47841E-07, -2.4734E-07, -3.5E-13, 2.47841E-07, 0.00049783631848228989, 9.9218645616407325E-07, 3.5E-13
DataValue, 0.95000000000000007, 5, 0, 3.01019E-07, -3.0003199999999997E-07, 3.829E-12, 3.01019E-07, 0.0005486519844127058, 1.0240677955958454E-06, 3.829E-12
DataValue, 1, 5, 0, 3.5884E-07, -3.58088E-07, -1.5130000000000001E-12, 3.5884E-07, 0.00059903255337251913, 1.0473858593564956E-06, 1.5130000000000001E-12
DataValue, 1.05, 5, 0, 4.23793E-07, -4.23176E-07, -9.2200000000000015E-12, 4.23793E-07, 0.000650993855577762, 1.0975110380561105E-06, 9.2200000000000015E-12
DataValue, 1.1, 5, 0, 4.9532699999999995E-07, -4.94435E-07, -3.807E-12, 4.9532699999999995E-07, 0.00070379471438765438, 1.1193089215020677E-06, 3.807E-12
DataValue, 1.1500000000000001, 5, 0, 5.72733E-07, -5.7187E-07, 2.678E-12, 5.72733E-07, 0.00075679125259215307, 1.1368086302845415E-06, 2.678E-12
DataValue, 1.2, 5, 0, 6.56774E-07, -6.55302E-07, -2.6590000000000003E-12, 6.56774E-07, 0.00081041594258750857, 1.1762602641127728E-06, 2.6590000000000003E-12
DataValue, 1.25, 5, 0, 7.48652E-07, -7.46799E-07, -1.981E-12, 7.48652E-07, 0.00086524678560512432, 1.2124569638538728E-06, 1.981E-12
DataValue, 1.3, 5, 0, 8.47371E-07, -8.47365E-07, -3.2200000000000004E-13, 8.47371E-07, 0.00092052756612716379, 1.245928528501089E-06, 3.2200000000000004E-13
DataValue, 1.35, 5, 0, 9.54271E-07, -9.52976E-07, 2.3590000000000003E-12, 9.54271E-07, 0.00097686795422922946, 1.2543981037802419E-06, 2.3590000000000003E-12
DataValue, 1.4000000000000001, 5, 0, 1.066113E-06, -1.064962E-06, -3.3600000000000003E-13, 1.066113E-06, 0.0010325274814744641, 1.2153496048888194E-06, 3.3600000000000003E-13
DataValue, 1.4500000000000002, 5, 0, 1.1818100000000001E-06, -1.1792100000000001E-06, 1.161E-12, 1.1818100000000001E-06, 0.00108711084991366, 1.254075565797836E-06, 1.161E-12
DataValue, 1.5, 5, 0, 1.3099100000000002E-06, -1.31025E-06, 1.602E-12, 1.3099100000000002E-06, 0.0011445129968681003, 1.3228779446202516E-06, 1.602E-12
DataValue, 1.55, 5, 0, 1.4451100000000002E-06, -1.4450300000000001E-06, -2.3790000000000003E-12, 1.4451100000000002E-06, 0.0012021272811146083, 1.3666282016378547E-06, 2.3790000000000003E-12
DataValue, 1.6, 5, 0, 1.5911700000000001E-06, -1.5908400000000001E-06, -2.96E-13, 1.5911700000000001E-06, 0.0012614158711543152, 1.3803920700881219E-06, 2.96E-13
DataValue, 1.6500000000000001, 5, 0, 1.7413900000000001E-06, -1.7391300000000002E-06, 1.5970000000000002E-12, 1.7413900000000001E-06, 0.0013196173687853613, 1.3771420193482182E-06, 1.5970000000000002E-12
DataValue, 1.7000000000000002, 5, 0, 1.901E-06, -1.9013200000000003E-06, -1.989E-12, 1.901E-06, 0.0013787675656179326, 1.3987785882825241E-06, 1.989E-12
DataValue, 1.75, 5, 0, 2.0675200000000002E-06, -2.0673200000000002E-06, -1.0890000000000001E-12, 2.0675200000000002E-06, 0.0014378873391194457, 1.4245518699539381E-06, 1.0890000000000001E-12
DataValue, 1.8, 5, 0, 2.24437E-06, -2.24374E-06, -8.44E-13, 2.24437E-06, 0.0014981221579030196, 1.4640244300698163E-06, 8.44E-13
DataValue, 1.85, 5, 0, 2.4301200000000004E-06, -2.43071E-06, -3.8200000000000004E-13, 2.4301200000000004E-06, 0.001558884216354762, 1.4867000590122989E-06, 3.8200000000000004E-13
DataValue, 1.9000000000000001, 5, 0, 2.6245700000000003E-06, -2.62349E-06, 2.0700000000000003E-13, 2.6245700000000003E-06, 0.0016200524682861356, 1.4718816157079708E-06, 2.0700000000000003E-13
DataValue, 1.9500000000000002, 5, 0, 2.8230900000000003E-06, -2.8218300000000002E-06, 8.46E-13, 2.8230900000000003E-06, 0.0016802053445933328, 1.4770274042523668E-06, 8.46E-13
DataValue, 2, 5, 0, 3.0331200000000004E-06, -3.0325E-06, 1.638E-12, 3.0331200000000004E-06, 0.0017415854845513614, 1.4994254417796081E-06, 1.638E-12
DataValue, 2.05, 5, 0, 3.2495700000000002E-06, -3.2485500000000004E-06, -3.52E-13, 3.2495700000000002E-06, 0.0018026563732447736, 1.5011199199248245E-06, 3.52E-13
DataValue, 2.1, 5, 0, 3.4748900000000005E-06, -3.4746100000000004E-06, -4.8000000000000008E-13, 3.4748900000000005E-06, 0.0018641056836992908, 1.5239533258658493E-06, 4.8000000000000008E-13
DataValue, 2.15, 5, 0, 3.7098800000000006E-06, -3.7091100000000005E-06, 1.5850000000000002E-12, 3.7098800000000006E-06, 0.0019261048777260289, 1.5408810432914328E-06, 1.5850000000000002E-12
DataValue, 2.2, 5, 0, 3.9530900000000005E-06, -3.95294E-06, 8.3200000000000009E-13, 3.9530900000000005E-06, 0.001988237913329288, 1.5664561967426263E-06, 8.3200000000000009E-13
