
SetupTitle, Transfer sat
PrimitiveTest, I/V Sweep
TestParameter, Context.MainFrame, 4155C
TestParameter, Channel.UnitType, SMU, SMU, SMU
TestParameter, Channel.Unit, SMU3:MP, SMU1:MP, SMU4:MP
TestParameter, Channel.IName, ID, IS, IG
TestParameter, Channel.VName, VD, VS, VG
TestParameter, Channel.Mode, V, COMMON, V
TestParameter, Channel.Func, CONST, CONST, VAR1
TestParameter, Channel.Index, 
TestParameter, Channel.Time, 
TestParameter, Measurement.Port.Unit, SMU3:MP, SMU1:MP, SMU4:MP
TestParameter, Measurement.Port.SeriesResistor, NONE, NONE, NONE
TestParameter, Measurement.Port.Filter, ON, ON, ON
TestParameter, Measurement.Primary.Locus, Double
TestParameter, Measurement.Primary.Scale, LINEAR
TestParameter, Measurement.Primary.Start, -2
TestParameter, Measurement.Primary.Stop, 3
TestParameter, Measurement.Primary.Step, 0.05
TestParameter, Measurement.Primary.Compliance, 0.001
TestParameter, Measurement.Primary.PowerCompliance, 0
TestParameter, Measurement.Aborting.Condition, CONTINUE AT ANY
TestParameter, Measurement.PostOutput.Value, START
TestParameter, Measurement.PostOutput.Retention, OFF
TestParameter, Measurement.Bias.Source, 5, 0, -2
TestParameter, Measurement.Bias.Compliance, 0.001, 0.1, 0.001
TestParameter, Measurement.Monitor.Unit, SMU3:MP, SMU1:MP, SMU4:MP
TestParameter, Measurement.Monitor.Adc, HR ADC, HR ADC, HR ADC
TestParameter, Measurement.Monitor.RangingMode, AUTO, AUTO, AUTO
TestParameter, Measurement.Monitor.RangeBoundary, , , 
TestParameter, Measurement.Monitor.RangeRating, BY FULL RANGE, BY FULL RANGE, BY FULL RANGE
TestParameter, Measurement.Monitor.RangeRatingCoeff, 50, 50, 50
TestParameter, Measurement.Timing.Hold, 0.5
TestParameter, Measurement.Timing.Delay, 0.05
TestParameter, Measurement.Adc.HighResolution.AutoZero, OFF
TestParameter, Measurement.Adc.HighResolution.Mode, AUTO
TestParameter, Measurement.Adc.HighResolution.Coeff, 1
TestParameter, Measurement.Ag16440ASelector.SemiconductorRelay.Channel1, DEFAULT
TestParameter, Measurement.Ag16440ASelector.SemiconductorRelay.Channel3, DEFAULT
TestParameter, Function.User.Name, absID, sqrtID, gm2, absIG
TestParameter, Function.User.Unit, A, A, A/V, A
TestParameter, Function.User.Definition, abs(ID), sqrt(abs(ID)), (delta(sqrtID)/delta(VG))^2, abs(IG)
TestParameter, Output.Graph.Enabled, true
TestParameter, Output.Graph.XAxis.Data, VG
TestParameter, Output.Graph.XAxis.Scale, Linear
TestParameter, Output.Graph.XAxis.Left, -5
TestParameter, Output.Graph.XAxis.Right, 7
TestParameter, Output.Graph.YAxis.Data, ID, absIG, gm2
TestParameter, Output.Graph.YAxis.Scale, Log, Log, Linear
TestParameter, Output.Graph.YAxis.Bottom, 1E-14, 1E-14, 0
TestParameter, Output.Graph.YAxis.Top, 0.01, 0.01, 1E-05
TestParameter, Output.Graph.YAxis.Group, , , 
TestParameter, Output.List.Data, VG, IG, VD, ID, VS, IS, sqrtID, gm2, absIG
TestParameter, AutoAnalysis.Interpolation, false
TestParameter, AutoAnalysis.Line1.Enabled, false
TestParameter, AutoAnalysis.Line1.Type, 1
TestParameter, AutoAnalysis.Line1.Fix, True
TestParameter, AutoAnalysis.Line1.YAxis, 0
TestParameter, AutoAnalysis.Line1.Point1.Type, 0
TestParameter, AutoAnalysis.Line1.Point1.XY.X, 
TestParameter, AutoAnalysis.Line1.Point1.XY.Y, 
TestParameter, AutoAnalysis.Line1.Point1.Data.Var, 
TestParameter, AutoAnalysis.Line1.Point1.Data.Condition, 
TestParameter, AutoAnalysis.Line1.Point1.Data.Start, false
TestParameter, AutoAnalysis.Line1.Point1.Data.StartVar, 
TestParameter, AutoAnalysis.Line1.Point1.Data.StartCondition, 
TestParameter, AutoAnalysis.Line1.Point2.Type, 0
TestParameter, AutoAnalysis.Line1.Point2.XY.X, 
TestParameter, AutoAnalysis.Line1.Point2.XY.Y, 
TestParameter, AutoAnalysis.Line1.Point2.Data.Var, 
TestParameter, AutoAnalysis.Line1.Point2.Data.Condition, 
TestParameter, AutoAnalysis.Line1.Point2.Data.Start, false
TestParameter, AutoAnalysis.Line1.Point2.Data.StartVar, 
TestParameter, AutoAnalysis.Line1.Point2.Data.StartCondition, 
TestParameter, AutoAnalysis.Line1.GradientExpr, 0
TestParameter, AutoAnalysis.Line2.Enabled, false
TestParameter, AutoAnalysis.Line2.Type, 1
TestParameter, AutoAnalysis.Line2.Fix, True
TestParameter, AutoAnalysis.Line2.YAxis, 0
TestParameter, AutoAnalysis.Line2.Point1.Type, 0
TestParameter, AutoAnalysis.Line2.Point1.XY.X, 
TestParameter, AutoAnalysis.Line2.Point1.XY.Y, 
TestParameter, AutoAnalysis.Line2.Point1.Data.Var, 
TestParameter, AutoAnalysis.Line2.Point1.Data.Condition, 
TestParameter, AutoAnalysis.Line2.Point1.Data.Start, false
TestParameter, AutoAnalysis.Line2.Point1.Data.StartVar, 
TestParameter, AutoAnalysis.Line2.Point1.Data.StartCondition, 
TestParameter, AutoAnalysis.Line2.Point2.Type, 0
TestParameter, AutoAnalysis.Line2.Point2.XY.X, 
TestParameter, AutoAnalysis.Line2.Point2.XY.Y, 
TestParameter, AutoAnalysis.Line2.Point2.Data.Var, 
TestParameter, AutoAnalysis.Line2.Point2.Data.Condition, 
TestParameter, AutoAnalysis.Line2.Point2.Data.Start, false
TestParameter, AutoAnalysis.Line2.Point2.Data.StartVar, 
TestParameter, AutoAnalysis.Line2.Point2.Data.StartCondition, 
TestParameter, AutoAnalysis.Line2.GradientExpr, 0
TestParameter, AutoAnalysis.Marker.Enabled, false
TestParameter, AutoAnalysis.Marker.Data.Var, 
TestParameter, AutoAnalysis.Marker.Data.Condition, 
TestParameter, AutoAnalysis.Marker.Data.Start, false
TestParameter, AutoAnalysis.Marker.Data.StartVar, 
TestParameter, AutoAnalysis.Marker.Data.StartCondition, 
MetaData, TestRecord.EntryPoint, true
MetaData, TestRecord.RecordTime, 05/02/2019 11:12:21
MetaData, TestRecord.TestTarget, 250-300-20-5
MetaData, TestRecord.IterationIndex, 1
MetaData, TestRecord.Preservation, true
MetaData, TestRecord.Flag, 
MetaData, TestRecord.Remarks, good
MetaData, TestRecord.LinkKey, c11a7f69-fb19-4a40-8fba-d3bdb0ecc0d3
Dimension1, 202, 202, 202, 202, 202, 202, 202, 202, 202, 202
Dimension2, 1, 1, 1, 1, 1, 1, 1, 1, 1, 1
DataName, VG, VD, VS, ID, IS, IG, absID, sqrtID, gm2, absIG
DataValue, -2, 5, 0, 6.6414E-11, -1.3440000000000001E-11, -3.8035E-11, 6.6414E-11, 8.14947851092326E-06, 1.8478612856949583E-11, 3.8035E-11
DataValue, -1.9500000000000002, 5, 0, 6.2957000000000008E-11, -4.1450000000000006E-12, -3.9031E-11, 6.2957000000000008E-11, 7.9345447254395131E-06, 1.2807843224596125E-11, 3.9031E-11
DataValue, -1.9000000000000001, 5, 0, 6.0709000000000007E-11, 4.1080000000000007E-12, -4.8998E-11, 6.0709000000000007E-11, 7.7915980389134555E-06, 1.9398834149821863E-13, 4.8998E-11
DataValue, -1.85, 5, 0, 6.226E-11, -1.1820000000000001E-11, -7.012E-11, 6.226E-11, 7.8905006178315459E-06, 9.0632877648616327E-12, 7.012E-11
DataValue, -1.8, 5, 0, 6.5491000000000007E-11, -1.2491E-11, -5.6244000000000006E-11, 6.5491000000000007E-11, 8.09265098716113E-06, 1.6465329375956364E-13, 5.6244000000000006E-11
DataValue, -1.75, 5, 0, 6.2902E-11, -8.8120000000000008E-12, -5.1941000000000006E-11, 6.2902E-11, 7.93107811082453E-06, 4.3256645192870449E-12, 5.1941000000000006E-11
DataValue, -1.7000000000000002, 5, 0, 6.2168E-11, -1.2147000000000002E-11, -6.3959000000000009E-11, 6.2168E-11, 7.8846686677374091E-06, 6.709468243899573E-13, 6.3959000000000009E-11
DataValue, -1.6500000000000001, 5, 0, 6.4208E-11, -1.048E-11, -5.1864000000000004E-11, 6.4208E-11, 8.0129894546292771E-06, 3.1148372947380511E-14, 5.1864000000000004E-11
DataValue, -1.6, 5, 0, 6.189E-11, -3.071E-12, -5.8306000000000008E-11, 6.189E-11, 7.8670197660867736E-06, 2.0244815357766685E-12, 5.8306000000000008E-11
DataValue, -1.55, 5, 0, 6.1948E-11, -8.562E-12, -4.4328000000000006E-11, 6.1948E-11, 7.87070517806378E-06, 7.007534592516373E-12, 4.4328000000000006E-11
DataValue, -1.5, 5, 0, 5.7795000000000006E-11, -9.67E-12, -3.6048E-11, 5.7795000000000006E-11, 7.6023022828614228E-06, 1.1680060093050774E-11, 3.6048E-11
DataValue, -1.4500000000000002, 5, 0, 5.6685E-11, -1.0900000000000001E-11, -3.8505E-11, 5.6685E-11, 7.5289441490822604E-06, 1.5508734205553724E-12, 3.8505E-11
DataValue, -1.4000000000000001, 5, 0, 5.9704000000000007E-11, -7.2670000000000004E-12, -4.2934E-11, 5.9704000000000007E-11, 7.726836351314813E-06, 5.5761183104602539E-13, 4.2934E-11
DataValue, -1.35, 5, 0, 5.7815E-11, -1.2489000000000001E-11, -4.1399000000000005E-11, 5.7815E-11, 7.6036175600828319E-06, 1.740630782619096E-13, 4.1399000000000005E-11
DataValue, -1.3, 5, 0, 5.9061000000000009E-11, -1.2596000000000002E-11, -5.3409000000000004E-11, 5.9061000000000009E-11, 7.6851154838427782E-06, 3.8666835740171813E-12, 5.3409000000000004E-11
DataValue, -1.25, 5, 0, 6.0844E-11, -1.0175000000000001E-11, -4.9769000000000004E-11, 6.0844E-11, 7.8002564060420469E-06, 3.0901403611684854E-12, 4.9769000000000004E-11
DataValue, -1.2, 5, 0, 5.6390000000000005E-11, -1.6177000000000003E-11, -3.7855E-11, 5.6390000000000005E-11, 7.5093275331416994E-06, 5.2257378245557364E-12, 3.7855E-11
DataValue, -1.1500000000000001, 5, 0, 5.7330000000000004E-11, -1.6135E-11, -3.7166000000000004E-11, 5.7330000000000004E-11, 7.5716576784743781E-06, 2.6924994696879782E-13, 3.7166000000000004E-11
DataValue, -1.1, 5, 0, 5.7172000000000006E-11, -1.0041E-11, -3.2585E-11, 5.7172000000000006E-11, 7.5612168332881455E-06, 8.6901178644796542E-12, 3.2585E-11
DataValue, -1.05, 5, 0, 6.1881E-11, -1.5769000000000002E-11, -4.1299E-11, 6.1881E-11, 7.8664477370665849E-06, 2.3536936389588173E-11, 4.1299E-11
DataValue, -1, 5, 0, 6.4744000000000009E-11, -1.9511E-11, -4.4973E-11, 6.4744000000000009E-11, 8.04636563921874E-06, 2.4693424534246819E-11, 4.4973E-11
DataValue, -0.95000000000000007, 5, 0, 6.9946E-11, -3.0392E-11, -4.4304E-11, 6.9946E-11, 8.3633725254827677E-06, 1.1245435958605576E-10, 4.4304E-11
DataValue, -0.9, 5, 0, 8.2934E-11, -4.2894E-11, -4.4215000000000006E-11, 8.2934E-11, 9.1068106381982053E-06, 3.47337542276356E-10, 4.4215000000000006E-11
DataValue, -0.85000000000000009, 5, 0, 1.0459300000000001E-10, -5.7414000000000007E-11, -3.5381E-11, 1.0459300000000001E-10, 1.0227071917220491E-05, 6.6080021439855724E-10, 3.5381E-11
DataValue, -0.8, 5, 0, 1.36362E-10, -9.2232E-11, -2.7833000000000002E-11, 1.36362E-10, 1.1677414097307675E-05, 1.2969916437758255E-09, 2.7833000000000002E-11
DataValue, -0.75, 5, 0, 1.91226E-10, -1.5438100000000002E-10, -3.9639E-11, 1.91226E-10, 1.3828448936883703E-05, 2.9754282707244525E-09, 3.9639E-11
DataValue, -0.70000000000000007, 5, 0, 2.93511E-10, -2.34536E-10, -3.1925E-11, 2.93511E-10, 1.7132162735626815E-05, 5.5032801801191355E-09, 3.1925E-11
DataValue, -0.65, 5, 0, 4.5142900000000005E-10, -3.8964500000000005E-10, -3.2098E-11, 4.5142900000000005E-10, 2.1246858591330628E-05, 8.8491592744766886E-09, 3.2098E-11
DataValue, -0.6, 5, 0, 7.0432700000000006E-10, -6.30618E-10, -4.1352E-11, 7.0432700000000006E-10, 2.6539159745553365E-05, 1.099745976133799E-08, 4.1352E-11
DataValue, -0.55, 5, 0, 1.00703E-09, -8.8565400000000007E-10, -4.4275000000000003E-11, 1.00703E-09, 3.173373599184313E-05, 1.9001670128767889E-08, 4.4275000000000003E-11
DataValue, -0.5, 5, 0, 1.62601E-09, -1.44941E-09, -3.7417000000000005E-11, 1.62601E-09, 4.0323814303708922E-05, 3.7335551173005556E-08, 3.7417000000000005E-11
DataValue, -0.45, 5, 0, 2.60673E-09, -2.50102E-09, -3.4015000000000005E-11, 2.60673E-09, 5.1056145565445894E-05, 5.6594510761092436E-08, 3.4015000000000005E-11
DataValue, -0.4, 5, 0, 4.11053E-09, -3.92152E-09, -3.3264000000000005E-11, 4.11053E-09, 6.4113415132872157E-05, 7.6790894228110329E-08, 3.3264000000000005E-11
DataValue, -0.35000000000000003, 5, 0, 6.20429E-09, -6.0154799999999996E-09, -3.0164000000000004E-11, 6.20429E-09, 7.876731555664444E-05, 1.0260587353307299E-07, 3.0164000000000004E-11
DataValue, -0.3, 5, 0, 9.24397E-09, -9.02636E-09, -3.0104E-11, 9.24397E-09, 9.6145566720468183E-05, 1.0162973937952754E-07, 3.0104E-11
DataValue, -0.25, 5, 0, 1.22427E-08, -1.15955E-08, -4.0799E-11, 1.22427E-08, 0.00011064673515291809, 1.2710654844836038E-07, 4.0799E-11
DataValue, -0.2, 5, 0, 1.73706E-08, -1.7026499999999997E-08, -3.8151E-11, 1.73706E-08, 0.00013179757205654435, 1.9230662619317849E-07, 3.8151E-11
DataValue, -0.15, 5, 0, 2.3870099999999997E-08, -2.34926E-08, -3.0109000000000004E-11, 2.3870099999999997E-08, 0.00015449951456234418, 2.2773422980552704E-07, 3.0109000000000004E-11
DataValue, -0.1, 5, 0, 3.22271E-08, -3.18111E-08, -2.7186000000000003E-11, 3.22271E-08, 0.00017951907976591235, 2.5280171192329926E-07, 2.7186000000000003E-11
DataValue, -0.05, 5, 0, 4.19344E-08, -4.12088E-08, -2.7622000000000002E-11, 4.19344E-08, 0.00020477890516359344, 2.47553753130483E-07, 2.7622000000000002E-11
DataValue, 0, 5, 0, 5.2566499999999996E-08, -5.19293E-08, -2.3268000000000003E-11, 5.2566499999999996E-08, 0.00022927385372082878, 2.6402685214886549E-07, 2.3268000000000003E-11
DataValue, 0.05, 5, 0, 6.56192E-08, -6.4156399999999991E-08, -2.4063000000000002E-11, 6.56192E-08, 0.00025616244845800488, 2.6193442106415487E-07, 2.4063000000000002E-11
DataValue, 0.1, 5, 0, 7.865409999999999E-08, -7.76767E-08, -5.2749E-11, 7.865409999999999E-08, 0.00028045338293556022, 2.2309721459380518E-07, 5.2749E-11
DataValue, 0.15, 5, 0, 9.2048899999999987E-08, -9.0570599999999989E-08, -2.6944E-11, 9.2048899999999987E-08, 0.00030339561631638647, 1.5932195863434047E-07, 2.6944E-11
DataValue, 0.2, 5, 0, 1.02636E-07, -9.9232999999999986E-08, -2.5613000000000002E-11, 1.02636E-07, 0.00032036853778109984, 1.4161856216301437E-07, 2.5613000000000002E-11
DataValue, 0.25, 5, 0, 1.163E-07, -1.12104E-07, -3.0694E-11, 1.163E-07, 0.00034102785809959869, 1.6476531306648195E-07, 3.0694E-11
DataValue, 0.3, 5, 0, 1.3029199999999999E-07, -1.27365E-07, -3.0578E-11, 1.3029199999999999E-07, 0.00036095983156024438, 1.8210573850108331E-07, 3.0578E-11
DataValue, 0.35000000000000003, 5, 0, 1.47227E-07, -1.43741E-07, -2.4776000000000002E-11, 1.47227E-07, 0.00038370170705901216, 1.7503047060096311E-07, 2.4776000000000002E-11
DataValue, 0.4, 5, 0, 1.62245E-07, -1.5965599999999998E-07, -2.3150000000000002E-11, 1.62245E-07, 0.00040279647466183216, 1.2432750076600793E-07, 2.3150000000000002E-11
DataValue, 0.45, 5, 0, 1.75529E-07, -1.72808E-07, -1.6782E-11, 1.75529E-07, 0.00041896181210224876, 1.0195904337756521E-07, 1.6782E-11
DataValue, 0.5, 5, 0, 1.88988E-07, -1.84738E-07, -3.0377E-11, 1.88988E-07, 0.00043472750085542093, 8.9115268355968118E-08, 3.0377E-11
DataValue, 0.55, 5, 0, 2.01434E-07, -1.98108E-07, -2.1143E-11, 2.01434E-07, 0.00044881399265174433, 9.0260651174697231E-08, 2.1143E-11
DataValue, 0.6, 5, 0, 2.16012E-07, -2.11524E-07, -8.473E-12, 2.16012E-07, 0.00046477091131007757, 1.0398905501118269E-07, 8.473E-12
DataValue, 0.65, 5, 0, 2.3142E-07, -2.31028E-07, -2.3198E-11, 2.3142E-07, 0.00048106132665181055, 1.0286855785686966E-07, 2.3198E-11
DataValue, 0.70000000000000007, 5, 0, 2.46854E-07, -2.47012E-07, -1.6290000000000003E-11, 2.46854E-07, 0.00049684403991594791, 7.9086565443149462E-08, 1.6290000000000003E-11
DataValue, 0.75, 5, 0, 2.59268E-07, -2.53961E-07, -2.1789E-11, 2.59268E-07, 0.00050918366038198832, 1.0849112336190373E-07, 2.1789E-11
DataValue, 0.8, 5, 0, 2.80669E-07, -2.75082E-07, -1.5726E-11, 2.80669E-07, 0.00052978203065034209, 1.1326707299523136E-07, 1.5726E-11
DataValue, 0.85000000000000009, 5, 0, 2.94674E-07, -2.87347E-07, -1.8246000000000003E-11, 2.94674E-07, 0.00054283883427772559, 7.1720237271028993E-08, 1.8246000000000003E-11
DataValue, 0.9, 5, 0, 3.09762E-07, -3.0231799999999997E-07, -1.8317E-11, 3.09762E-07, 0.000556562664935405, 8.2144988291232421E-08, 1.8317E-11
DataValue, 0.95000000000000007, 5, 0, 3.26612E-07, -3.1949E-07, -1.8753000000000003E-11, 3.26612E-07, 0.00057149978127729844, 1.0568667347488165E-07, 1.8753000000000003E-11
DataValue, 1, 5, 0, 3.47006E-07, -3.4523E-07, -1.5123000000000002E-11, 3.47006E-07, 0.00058907215177769182, 1.0992866770668152E-07, 1.5123000000000002E-11
DataValue, 1.05, 5, 0, 3.65608E-07, -3.57801E-07, -1.9528E-11, 3.65608E-07, 0.00060465527368906659, 1.1394725955551804E-07, 1.9528E-11
DataValue, 1.1, 5, 0, 3.87915E-07, -3.78714E-07, -1.6780000000000002E-11, 3.87915E-07, 0.00062282822672065849, 1.3282629855081012E-07, 1.6780000000000002E-11
DataValue, 1.1500000000000001, 5, 0, 4.1100999999999997E-07, -4.00123E-07, -1.3902000000000001E-11, 4.1100999999999997E-07, 0.000641100616128233, 1.620382124564622E-07, 1.3902000000000001E-11
DataValue, 1.2, 5, 0, 4.39678E-07, -4.31813E-07, -2.0589E-11, 4.39678E-07, 0.00066308219701632768, 1.1093250024317733E-07, 2.0589E-11
DataValue, 1.25, 5, 0, 4.5482499999999997E-07, -4.4812199999999997E-07, -1.1215E-11, 4.5482499999999997E-07, 0.00067440714705584192, 9.5114935410489071E-08, 1.1215E-11
DataValue, 1.3, 5, 0, 4.81529E-07, -4.67288E-07, -1.8863E-11, 4.81529E-07, 0.00069392290638081689, 1.0707463771036289E-07, 1.8863E-11
DataValue, 1.35, 5, 0, 5.00032E-07, -4.9186E-07, -8.42E-12, 5.00032E-07, 0.00070712940824151842, 1.0263788274107971E-07, 8.42E-12
DataValue, 1.4000000000000001, 5, 0, 5.27018E-07, -5.24141E-07, -1.6064000000000003E-11, 5.27018E-07, 0.0007259600539974634, 1.5769850353997253E-07, 1.6064000000000003E-11
DataValue, 1.4500000000000002, 5, 0, 5.57771E-07, -5.47003E-07, -8.104E-12, 5.57771E-07, 0.00074684067912775081, 1.653537548295834E-07, 8.104E-12
DataValue, 1.5, 5, 0, 5.87712E-07, -5.76081E-07, -1.4186000000000001E-11, 5.87712E-07, 0.00076662376691568853, 1.1011991251632502E-07, 1.4186000000000001E-11
DataValue, 1.55, 5, 0, 6.08439E-07, -6.01049E-07, -8.7770000000000011E-12, 6.08439E-07, 0.00078002499959937185, 1.55420274140529E-07, 8.7770000000000011E-12
DataValue, 1.6, 5, 0, 6.49712E-07, -6.35319E-07, -9.672E-12, 6.49712E-07, 0.000806047145023168, 1.315089652381099E-07, 9.672E-12
DataValue, 1.6500000000000001, 5, 0, 6.66328E-07, -6.5826299999999994E-07, -1.1069000000000001E-11, 6.66328E-07, 0.0008162891644509316, 1.4613564161545091E-07, 1.1069000000000001E-11
DataValue, 1.7000000000000002, 5, 0, 7.128E-07, -7.0062E-07, -3.828E-12, 7.128E-07, 0.00084427483676821733, 2.0146662731363585E-07, 3.828E-12
DataValue, 1.75, 5, 0, 7.41621E-07, -7.26866E-07, -7.0770000000000006E-12, 7.41621E-07, 0.00086117419840587423, 1.3934828219020877E-07, 7.0770000000000006E-12
DataValue, 1.8, 5, 0, 7.77226E-07, -7.63446E-07, -6.3640000000000008E-12, 7.77226E-07, 0.00088160421959062793, 2.2191350377013176E-07, 6.3640000000000008E-12
DataValue, 1.85, 5, 0, 8.24976E-07, -8.1473599999999994E-07, 8.1300000000000007E-13, 8.24976E-07, 0.0009082818945679805, 2.3943061301085242E-07, 8.1300000000000007E-13
DataValue, 1.9000000000000001, 5, 0, 8.65897E-07, -8.55391E-07, -4.388E-12, 8.65897E-07, 0.00093053586712173533, 2.2314153496682641E-07, 4.388E-12
DataValue, 1.9500000000000002, 5, 0, 9.13018E-07, -8.9957699999999993E-07, 9.46E-13, 9.13018E-07, 0.00095551975385127432, 1.5947341087192555E-07, 9.46E-13
DataValue, 2, 5, 0, 9.4181199999999994E-07, -9.2399899999999993E-07, 4.593E-12, 9.4181199999999994E-07, 0.00097046998923202156, 2.3143955637427026E-07, 4.593E-12
DataValue, 2.05, 5, 0, 1.007269E-06, -9.89175E-07, -1.0556000000000002E-11, 1.007269E-06, 0.0010036279191014965, 1.057261254117348E-07, 1.0556000000000002E-11
DataValue, 2.1, 5, 0, 1.00598E-06, -9.8832E-07, 2.8090000000000002E-12, 1.00598E-06, 0.0010029855432657044, 1.0948190339701794E-07, 2.8090000000000002E-12
DataValue, 2.15, 5, 0, 1.0747800000000002E-06, -1.0719E-06, 6.41E-12, 1.0747800000000002E-06, 0.0010367159688169177, 3.9297794134959031E-07, 6.41E-12
DataValue, 2.2, 5, 0, 1.1356600000000002E-06, -1.1242600000000001E-06, 1.9354000000000002E-11, 1.1356600000000002E-06, 0.0010656734959639375, 3.4250270872186772E-07, 1.9354000000000002E-11
DataValue, 2.25, 5, 0, 1.19955E-06, -1.1877100000000001E-06, 6.7430000000000007E-12, 1.19955E-06, 0.0010952396997917853, 2.8246367570031619E-07, 6.7430000000000007E-12
DataValue, 2.3000000000000003, 5, 0, 1.2517600000000002E-06, -1.2323E-06, 1.0721E-11, 1.2517600000000002E-06, 0.0011188208078150854, 2.3862695051906445E-07, 1.0721E-11
DataValue, 2.35, 5, 0, 1.3089400000000001E-06, -1.2992600000000002E-06, 2.0889000000000003E-11, 1.3089400000000001E-06, 0.0011440891573649319, 2.3122016615182943E-07, 2.0889000000000003E-11
