
SetupTitle, Transfer lin
PrimitiveTest, I/V Sweep
TestParameter, Context.MainFrame, 4155C
TestParameter, Channel.UnitType, SMU, SMU, SMU
TestParameter, Channel.Unit, SMU3:MP, SMU1:MP, SMU4:MP
TestParameter, Channel.IName, ID, IS, IG
TestParameter, Channel.VName, VD, VS, VG
TestParameter, Channel.Mode, V, COMMON, V
TestParameter, Channel.Func, CONST, CONST, VAR1
TestParameter, Channel.Index, 
TestParameter, Channel.Time, 
TestParameter, Measurement.Port.Unit, SMU3:MP, SMU1:MP, SMU4:MP
TestParameter, Measurement.Port.SeriesResistor, NONE, NONE, NONE
TestParameter, Measurement.Port.Filter, ON, ON, ON
TestParameter, Measurement.Primary.Locus, Double
TestParameter, Measurement.Primary.Scale, LINEAR
TestParameter, Measurement.Primary.Start, -2
TestParameter, Measurement.Primary.Stop, 3
TestParameter, Measurement.Primary.Step, 0.05
TestParameter, Measurement.Primary.Compliance, 0.001
TestParameter, Measurement.Primary.PowerCompliance, 0
TestParameter, Measurement.Aborting.Condition, CONTINUE AT ANY
TestParameter, Measurement.PostOutput.Value, START
TestParameter, Measurement.PostOutput.Retention, OFF
TestParameter, Measurement.Bias.Source, 0.1, 0, -2
TestParameter, Measurement.Bias.Compliance, 0.001, 0.1, 0.001
TestParameter, Measurement.Monitor.Unit, SMU3:MP, SMU1:MP, SMU4:MP
TestParameter, Measurement.Monitor.Adc, HR ADC, HR ADC, HR ADC
TestParameter, Measurement.Monitor.RangingMode, AUTO, AUTO, AUTO
TestParameter, Measurement.Monitor.RangeBoundary, , , 
TestParameter, Measurement.Monitor.RangeRating, BY FULL RANGE, BY FULL RANGE, BY FULL RANGE
TestParameter, Measurement.Monitor.RangeRatingCoeff, 50, 50, 50
TestParameter, Measurement.Timing.Hold, 0.5
TestParameter, Measurement.Timing.Delay, 0.05
TestParameter, Measurement.Adc.HighResolution.AutoZero, OFF
TestParameter, Measurement.Adc.HighResolution.Mode, AUTO
TestParameter, Measurement.Adc.HighResolution.Coeff, 1
TestParameter, Measurement.Ag16440ASelector.SemiconductorRelay.Channel1, DEFAULT
TestParameter, Measurement.Ag16440ASelector.SemiconductorRelay.Channel3, DEFAULT
TestParameter, Function.User.Name, absID, sqrtID, gm2, absIG
TestParameter, Function.User.Unit, A, A, A/V, A
TestParameter, Function.User.Definition, abs(ID), sqrt(abs(ID)), (delta(sqrtID)/delta(VG))^2, abs(IG)
TestParameter, Output.Graph.Enabled, true
TestParameter, Output.Graph.XAxis.Data, VG
TestParameter, Output.Graph.XAxis.Scale, Linear
TestParameter, Output.Graph.XAxis.Left, -5
TestParameter, Output.Graph.XAxis.Right, 7
TestParameter, Output.Graph.YAxis.Data, ID, absIG, gm2
TestParameter, Output.Graph.YAxis.Scale, Log, Log, Linear
TestParameter, Output.Graph.YAxis.Bottom, 1E-14, 1E-14, 0
TestParameter, Output.Graph.YAxis.Top, 0.01, 0.01, 1E-05
TestParameter, Output.Graph.YAxis.Group, , , 
TestParameter, Output.List.Data, VG, IG, VD, ID, VS, IS, sqrtID, gm2, absIG
TestParameter, AutoAnalysis.Interpolation, false
TestParameter, AutoAnalysis.Line1.Enabled, false
TestParameter, AutoAnalysis.Line1.Type, 1
TestParameter, AutoAnalysis.Line1.Fix, True
TestParameter, AutoAnalysis.Line1.YAxis, 0
TestParameter, AutoAnalysis.Line1.Point1.Type, 0
TestParameter, AutoAnalysis.Line1.Point1.XY.X, 
TestParameter, AutoAnalysis.Line1.Point1.XY.Y, 
TestParameter, AutoAnalysis.Line1.Point1.Data.Var, 
TestParameter, AutoAnalysis.Line1.Point1.Data.Condition, 
TestParameter, AutoAnalysis.Line1.Point1.Data.Start, false
TestParameter, AutoAnalysis.Line1.Point1.Data.StartVar, 
TestParameter, AutoAnalysis.Line1.Point1.Data.StartCondition, 
TestParameter, AutoAnalysis.Line1.Point2.Type, 0
TestParameter, AutoAnalysis.Line1.Point2.XY.X, 
TestParameter, AutoAnalysis.Line1.Point2.XY.Y, 
TestParameter, AutoAnalysis.Line1.Point2.Data.Var, 
TestParameter, AutoAnalysis.Line1.Point2.Data.Condition, 
TestParameter, AutoAnalysis.Line1.Point2.Data.Start, false
TestParameter, AutoAnalysis.Line1.Point2.Data.StartVar, 
TestParameter, AutoAnalysis.Line1.Point2.Data.StartCondition, 
TestParameter, AutoAnalysis.Line1.GradientExpr, 0
TestParameter, AutoAnalysis.Line2.Enabled, false
TestParameter, AutoAnalysis.Line2.Type, 1
TestParameter, AutoAnalysis.Line2.Fix, True
TestParameter, AutoAnalysis.Line2.YAxis, 0
TestParameter, AutoAnalysis.Line2.Point1.Type, 0
TestParameter, AutoAnalysis.Line2.Point1.XY.X, 
TestParameter, AutoAnalysis.Line2.Point1.XY.Y, 
TestParameter, AutoAnalysis.Line2.Point1.Data.Var, 
TestParameter, AutoAnalysis.Line2.Point1.Data.Condition, 
TestParameter, AutoAnalysis.Line2.Point1.Data.Start, false
TestParameter, AutoAnalysis.Line2.Point1.Data.StartVar, 
TestParameter, AutoAnalysis.Line2.Point1.Data.StartCondition, 
TestParameter, AutoAnalysis.Line2.Point2.Type, 0
TestParameter, AutoAnalysis.Line2.Point2.XY.X, 
TestParameter, AutoAnalysis.Line2.Point2.XY.Y, 
TestParameter, AutoAnalysis.Line2.Point2.Data.Var, 
TestParameter, AutoAnalysis.Line2.Point2.Data.Condition, 
TestParameter, AutoAnalysis.Line2.Point2.Data.Start, false
TestParameter, AutoAnalysis.Line2.Point2.Data.StartVar, 
TestParameter, AutoAnalysis.Line2.Point2.Data.StartCondition, 
TestParameter, AutoAnalysis.Line2.GradientExpr, 0
TestParameter, AutoAnalysis.Marker.Enabled, false
TestParameter, AutoAnalysis.Marker.Data.Var, 
TestParameter, AutoAnalysis.Marker.Data.Condition, 
TestParameter, AutoAnalysis.Marker.Data.Start, false
TestParameter, AutoAnalysis.Marker.Data.StartVar, 
TestParameter, AutoAnalysis.Marker.Data.StartCondition, 
MetaData, TestRecord.EntryPoint, true
MetaData, TestRecord.RecordTime, 05/02/2019 10:54:40
MetaData, TestRecord.TestTarget, 250-300-100-20
MetaData, TestRecord.IterationIndex, 1
MetaData, TestRecord.Preservation, true
MetaData, TestRecord.Flag, 
MetaData, TestRecord.Remarks, bad
MetaData, TestRecord.LinkKey, a5f1fea4-e682-4200-8865-0519c374d1f3
Dimension1, 202, 202, 202, 202, 202, 202, 202, 202, 202, 202
Dimension2, 1, 1, 1, 1, 1, 1, 1, 1, 1, 1
DataName, VG, VD, VS, ID, IS, IG, absID, sqrtID, gm2, absIG
DataValue, -2, 0.1, 0, 1.4827000000000002E-11, 1.1511000000000001E-11, -2.9649E-11, 1.4827000000000002E-11, 3.8505843712350993E-06, 1.6480745012626849E-11, 2.9649E-11
DataValue, -1.9500000000000002, 0.1, 0, 1.3305000000000001E-11, 1.1486E-11, -2.7798000000000003E-11, 1.3305000000000001E-11, 3.6476019519678957E-06, 3.1774991171263121E-12, 2.7798000000000003E-11
DataValue, -1.9000000000000001, 0.1, 0, 1.3486000000000001E-11, 1.2367000000000002E-11, -2.9246E-11, 1.3486000000000001E-11, 3.6723289612996276E-06, 3.4492437900080838E-13, 2.9246E-11
DataValue, -1.85, 0.1, 0, 1.2880000000000002E-11, 1.1176000000000002E-11, -2.7358000000000002E-11, 1.2880000000000002E-11, 3.5888716889852724E-06, 5.47541008011551E-13, 2.7358000000000002E-11
DataValue, -1.8, 0.1, 0, 1.2948000000000002E-11, 1.0575000000000001E-11, -2.6809000000000003E-11, 1.2948000000000002E-11, 3.5983329473521486E-06, 1.2844471704703372E-11, 2.6809000000000003E-11
DataValue, -1.75, 0.1, 0, 1.0436000000000001E-11, 1.0242000000000001E-11, -2.5410000000000003E-11, 1.0436000000000001E-11, 3.2304798405190524E-06, 4.7062453013901117E-13, 2.5410000000000003E-11
DataValue, -1.7000000000000002, 0.1, 0, 1.2459000000000001E-11, 1.0169E-11, -2.5283000000000002E-11, 1.2459000000000001E-11, 3.5297308679274686E-06, 7.53593599121159E-12, 2.5283000000000002E-11
DataValue, -1.6500000000000001, 0.1, 0, 1.2285000000000001E-11, 1.0257E-11, -2.4261E-11, 1.2285000000000001E-11, 3.5049964336643771E-06, 5.4776239573012746E-13, 2.4261E-11
DataValue, -1.6, 0.1, 0, 1.1942E-11, 9.541E-12, -2.3768E-11, 1.1942E-11, 3.455719896056392E-06, 9.25469359822392E-12, 2.3768E-11
DataValue, -1.55, 0.1, 0, 1.0245000000000001E-11, 8.96E-12, -2.3741000000000002E-11, 1.0245000000000001E-11, 3.2007811546558444E-06, 4.0727083838780746E-13, 2.3741000000000002E-11
DataValue, -1.5, 0.1, 0, 1.1505000000000002E-11, 8.1020000000000008E-12, -2.2163E-11, 1.1505000000000002E-11, 3.3919021212293262E-06, 5.4491056073998621E-13, 2.2163E-11
DataValue, -1.4500000000000002, 0.1, 0, 1.0723000000000001E-11, 6.9160000000000008E-12, -1.5333E-11, 1.0723000000000001E-11, 3.2745992121174158E-06, 7.8664308350047379E-12, 1.5333E-11
DataValue, -1.4000000000000001, 0.1, 0, 9.6810000000000013E-12, 1.1729E-11, -2.3302E-11, 9.6810000000000013E-12, 3.1114305391571897E-06, 9.6590740368837552E-13, 2.3302E-11
DataValue, -1.35, 0.1, 0, 1.0089E-11, 7.81E-12, -2.1568000000000002E-11, 1.0089E-11, 3.1763186238159421E-06, 3.0326129960890986E-12, 2.1568000000000002E-11
DataValue, -1.3, 0.1, 0, 1.0795000000000002E-11, 6.282E-12, -2.0817000000000002E-11, 1.0795000000000002E-11, 3.2855745311893326E-06, 3.1088257104347612E-12, 2.0817000000000002E-11
DataValue, -1.25, 0.1, 0, 9.0000000000000012E-12, 6.2040000000000006E-12, -1.7309E-11, 9.0000000000000012E-12, 3E-06, 2.6320036884976353E-11, 1.7309E-11
DataValue, -1.2, 0.1, 0, 7.687E-12, 6.6820000000000008E-12, -1.5890000000000003E-11, 7.687E-12, 2.77254395817271E-06, 3.8618318230681607E-13, 1.5890000000000003E-11
DataValue, -1.1500000000000001, 0.1, 0, 8.631E-12, 7.849E-12, -1.7304E-11, 8.631E-12, 2.9378563613628222E-06, 1.2327708173628834E-12, 1.7304E-11
DataValue, -1.1, 0.1, 0, 8.3150000000000008E-12, 6.8030000000000008E-12, -1.7195000000000002E-11, 8.3150000000000008E-12, 2.883574171059243E-06, 6.3769300710551361E-12, 1.7195000000000002E-11
DataValue, -1.05, 0.1, 0, 7.2110000000000007E-12, 5.1420000000000005E-12, -1.6744E-11, 7.2110000000000007E-12, 2.6853305196939912E-06, 8.4618249924194689E-12, 1.6744E-11
DataValue, -1, 0.1, 0, 6.7220000000000006E-12, 4.8970000000000006E-12, -1.5114000000000002E-11, 6.7220000000000006E-12, 2.5926820090400596E-06, 2.1630804592361562E-15, 1.5114000000000002E-11
DataValue, -0.95000000000000007, 0.1, 0, 7.236E-12, 5.29E-12, -1.2642E-11, 7.236E-12, 2.6899814125751875E-06, 1.8473968202253465E-11, 1.2642E-11
DataValue, -0.9, 0.1, 0, 4.678E-12, 5.611E-12, -1.3809000000000001E-11, 4.678E-12, 2.1628684657186159E-06, 6.3375215001764834E-12, 1.3809000000000001E-11
DataValue, -0.85000000000000009, 0.1, 0, 5.945E-12, 5.324E-12, -1.3368E-11, 5.945E-12, 2.4382370680473216E-06, 5.4238335728629482E-13, 1.3368E-11
DataValue, -0.8, 0.1, 0, 5.0020000000000007E-12, 4.346E-12, -1.2937000000000001E-11, 5.0020000000000007E-12, 2.2365151463828722E-06, 8.17156287963785E-15, 1.2937000000000001E-11
DataValue, -0.75, 0.1, 0, 5.9010000000000008E-12, 3.641E-12, -1.1038E-11, 5.9010000000000008E-12, 2.4291973983190418E-06, 1.4419728965600088E-15, 1.1038E-11
DataValue, -0.70000000000000007, 0.1, 0, 5.019E-12, 3.5110000000000003E-12, -1.0652000000000001E-11, 5.019E-12, 2.2403124782047703E-06, 5.7554541107259606E-12, 1.0652000000000001E-11
DataValue, -0.65, 0.1, 0, 4.793E-12, 3.673E-12, -9.405E-12, 4.793E-12, 2.1892921230388605E-06, 4.748230208039226E-13, 9.405E-12
DataValue, -0.6, 0.1, 0, 4.715E-12, 3.413E-12, -1.0042000000000001E-11, 4.715E-12, 2.1714050750608466E-06, 8.53584660921314E-13, 1.0042000000000001E-11
DataValue, -0.55, 0.1, 0, 4.397E-12, 2.658E-12, -8.615E-12, 4.397E-12, 2.0969024774652728E-06, 9.825040666151312E-12, 8.615E-12
DataValue, -0.5, 0.1, 0, 3.4520000000000002E-12, 2.297E-12, -8.036E-12, 3.4520000000000002E-12, 1.8579558659989747E-06, 2.8281930985602595E-12, 8.036E-12
DataValue, -0.45, 0.1, 0, 3.72E-12, 2.044E-12, -7.047E-12, 3.72E-12, 1.9287301521985911E-06, 4.6217969506500137E-13, 7.047E-12
DataValue, -0.4, 0.1, 0, 3.204E-12, 2.043E-12, -6.4030000000000009E-12, 3.204E-12, 1.7899720668211558E-06, 1.2729816036441325E-11, 6.4030000000000009E-12
DataValue, -0.35000000000000003, 0.1, 0, 2.4710000000000003E-12, 1.6390000000000002E-12, -6.3640000000000008E-12, 2.4710000000000003E-12, 1.5719414747375298E-06, 2.4514386507650378E-12, 6.3640000000000008E-12
DataValue, -0.3, 0.1, 0, 2.6680000000000003E-12, 1.082E-12, -4.891E-12, 2.6680000000000003E-12, 1.6334013591276335E-06, 4.3937637357287E-13, 4.891E-12
DataValue, -0.25, 0.1, 0, 2.2670000000000003E-12, 5.2500000000000009E-13, -4.857E-12, 2.2670000000000003E-12, 1.5056560032092326E-06, 7.0909091834336714E-12, 4.857E-12
DataValue, -0.2, 0.1, 0, 1.8690000000000002E-12, 4.7800000000000008E-13, -3.2310000000000003E-12, 1.8690000000000002E-12, 1.3671137480107498E-06, 5.9299538242983392E-12, 3.2310000000000003E-12
DataValue, -0.15, 0.1, 0, 1.5930000000000002E-12, 1.76E-13, -3.034E-12, 1.5930000000000002E-12, 1.2621410380777578E-06, 1.3856560388601019E-12, 3.034E-12
DataValue, -0.1, 0.1, 0, 1.5610000000000001E-12, -7.3E-13, -2.7670000000000002E-12, 1.5610000000000001E-12, 1.2493998559308385E-06, 1.1204477821943558E-11, 2.7670000000000002E-12
DataValue, -0.05, 0.1, 0, 2.5500000000000002E-12, -2.1210000000000004E-12, -1.2820000000000002E-12, 2.5500000000000002E-12, 1.5968719422671313E-06, 1.257819420595391E-11, 1.2820000000000002E-12
DataValue, 0, 0.1, 0, 2.573E-12, -5.24E-12, -1.3190000000000001E-12, 2.573E-12, 1.6040573555830228E-06, 2.8481191617826282E-10, 1.3190000000000001E-12
DataValue, 0.05, 0.1, 0, 1.0788000000000001E-11, -1.1774E-11, 2.96E-13, 1.0788000000000001E-11, 3.2845090957401841E-06, 1.2284018547905547E-09, 2.96E-13
DataValue, 0.1, 0.1, 0, 2.6101E-11, -2.6137000000000003E-11, 6.81E-13, 2.6101E-11, 5.1089137788770714E-06, 1.908975854822583E-09, 6.81E-13
DataValue, 0.15, 0.1, 0, 5.857900000000001E-11, -5.7988000000000007E-11, 9.0600000000000008E-13, 5.857900000000001E-11, 7.65369191959018E-06, 4.09538295151375E-09, 9.0600000000000008E-13
DataValue, 0.2, 0.1, 0, 1.3244400000000002E-10, -1.3193E-10, 1.6580000000000002E-12, 1.3244400000000002E-10, 1.1508431691590302E-05, 9.7426599903746277E-09, 1.6580000000000002E-12
DataValue, 0.25, 0.1, 0, 3.0709700000000003E-10, -2.9756500000000005E-10, 2.6380000000000003E-12, 3.0709700000000003E-10, 1.7524183290527409E-05, 2.0919492850045776E-08, 2.6380000000000003E-12
DataValue, 0.3, 0.1, 0, 6.7454500000000007E-10, -6.51192E-10, 3.778E-12, 6.7454500000000007E-10, 2.5972004158324019E-05, 3.4762580799323939E-08, 3.778E-12
DataValue, 0.35000000000000003, 0.1, 0, 1.30819E-09, -1.25921E-09, 3.526E-12, 1.30819E-09, 3.6168909300668714E-05, 6.0362939218742407E-08, 3.526E-12
DataValue, 0.4, 0.1, 0, 2.55438E-09, -2.52439E-09, 5.2260000000000006E-12, 2.55438E-09, 5.0540874547241463E-05, 9.5155945741482234E-08, 5.2260000000000006E-12
DataValue, 0.45, 0.1, 0, 4.49118E-09, -4.43422E-09, 5.3080000000000004E-12, 4.49118E-09, 6.7016266682052645E-05, 1.1666926024252334E-07, 5.3080000000000004E-12
DataValue, 0.5, 0.1, 0, 7.17371E-09, -7.09042E-09, 6.026E-12, 7.17371E-09, 8.4697756758960271E-05, 1.2592545775426434E-07, 6.026E-12
DataValue, 0.55, 0.1, 0, 1.050671E-08, -1.0226799999999999E-08, 7.2720000000000005E-12, 1.050671E-08, 0.0001025022438778781, 1.2209517177050886E-07, 7.2720000000000005E-12
DataValue, 0.6, 0.1, 0, 1.4313699999999999E-08, -1.4229099999999998E-08, 7.189E-12, 1.4313699999999999E-08, 0.00011963987629548936, 1.3637585180284495E-07, 7.189E-12
DataValue, 0.65, 0.1, 0, 1.9441099999999997E-08, -1.93081E-08, 8.182E-12, 1.9441099999999997E-08, 0.00013943134511292644, 1.5292661204955129E-07, 8.182E-12
DataValue, 0.70000000000000007, 0.1, 0, 2.5200199999999998E-08, -2.5045899999999996E-08, 9.4060000000000009E-12, 2.5200199999999998E-08, 0.00015874570860341391, 1.4608328522573335E-07, 9.4060000000000009E-12
DataValue, 0.75, 0.1, 0, 3.1560299999999996E-08, -3.1370599999999995E-08, 9.4040000000000015E-12, 3.1560299999999996E-08, 0.00017765218827810704, 1.3862099940221336E-07, 9.4040000000000015E-12
DataValue, 0.8, 0.1, 0, 3.84072E-08, -3.8212899999999994E-08, 1.0559000000000001E-11, 3.84072E-08, 0.00019597754973465711, 1.3467426535973072E-07, 1.0559000000000001E-11
DataValue, 0.85000000000000009, 0.1, 0, 4.5945999999999993E-08, -4.57356E-08, 1.1714000000000001E-11, 4.5945999999999993E-08, 0.00021435018077902335, 1.3134327352249717E-07, 1.1714000000000001E-11
DataValue, 0.9, 0.1, 0, 5.3925599999999994E-08, -5.3707399999999994E-08, 1.1595000000000001E-11, 5.3925599999999994E-08, 0.00023221886228297649, 1.2727354430810365E-07, 1.1595000000000001E-11
DataValue, 0.95000000000000007, 0.1, 0, 6.2512799999999988E-08, -6.22966E-08, 1.302E-11, 6.2512799999999988E-08, 0.0002500255986894142, 1.2376782437308884E-07, 1.302E-11
DataValue, 1, 0.1, 0, 7.1502499999999988E-08, -7.127809999999999E-08, 1.4124E-11, 7.1502499999999988E-08, 0.00026739951383650642, 1.1880299761456494E-07, 1.4124E-11
DataValue, 1.05, 0.1, 0, 8.0936499999999992E-08, -8.0696099999999989E-08, 1.5134000000000002E-11, 8.0936499999999992E-08, 0.00028449340941399677, 1.1451181119596223E-07, 1.5134000000000002E-11
DataValue, 1.1, 0.1, 0, 9.0745E-08, -9.0536299999999987E-08, 1.7481000000000003E-11, 9.0745E-08, 0.00030123910768690043, 1.108151263736845E-07, 1.7481000000000003E-11
DataValue, 1.1500000000000001, 0.1, 0, 1.009856E-07, -1.007668E-07, 1.9707000000000002E-11, 1.009856E-07, 0.00031778231542991815, 1.0693068776369137E-07, 1.9707000000000002E-11
DataValue, 1.2, 0.1, 0, 1.1151549999999999E-07, -1.1126339999999999E-07, 2.2399000000000003E-11, 1.1151549999999999E-07, 0.00033393936575372478, 9.5672885804405212E-08, 2.2399000000000003E-11
DataValue, 1.25, 0.1, 0, 1.21601E-07, -1.21006E-07, 2.6394E-11, 1.21601E-07, 0.00034871334932864273, 9.2422896844567777E-08, 2.6394E-11
DataValue, 1.3, 0.1, 0, 1.32744E-07, -1.3250899999999999E-07, 3.2941E-11, 1.32744E-07, 0.00036434050008199746, 9.8305763971516967E-08, 3.2941E-11
DataValue, 1.35, 0.1, 0, 1.44451E-07, -1.44231E-07, 4.1318E-11, 1.44451E-07, 0.00038006709933905092, 9.7554813962361683E-08, 4.1318E-11
DataValue, 1.4000000000000001, 0.1, 0, 1.56479E-07, -1.5624799999999998E-07, 5.1136E-11, 1.56479E-07, 0.00039557426609930025, 9.4393969692117329E-08, 5.1136E-11
DataValue, 1.4500000000000002, 0.1, 0, 1.68749E-07, -1.68543E-07, 6.4081000000000009E-11, 1.68749E-07, 0.00041079070096583249, 9.1553811890514632E-08, 6.4081000000000009E-11
DataValue, 1.5, 0.1, 0, 1.81333E-07, -1.81223E-07, 8.0702000000000007E-11, 1.81333E-07, 0.00042583212654753987, 8.9487227648458688E-08, 8.0702000000000007E-11
DataValue, 1.55, 0.1, 0, 1.94221E-07, -1.94046E-07, 1.0194400000000001E-10, 1.94221E-07, 0.00044070511682983666, 8.7113485844383077E-08, 1.0194400000000001E-10
DataValue, 1.6, 0.1, 0, 2.07341E-07, -2.07178E-07, 1.26757E-10, 2.07341E-07, 0.00045534712033788027, 8.50663846964495E-08, 1.26757E-10
DataValue, 1.6500000000000001, 0.1, 0, 2.20779E-07, -2.20646E-07, 1.58971E-10, 2.20779E-07, 0.00046987125896355905, 8.3740319629527526E-08, 1.58971E-10
DataValue, 1.7000000000000002, 0.1, 0, 2.34532E-07, -2.3447E-07, 1.9563000000000003E-10, 2.34532E-07, 0.00048428504003324326, 8.1712274963662037E-08, 1.9563000000000003E-10
DataValue, 1.75, 0.1, 0, 2.48459E-07, -2.48369E-07, 2.4090900000000004E-10, 2.48459E-07, 0.00049845661797191538, 7.901898170992723E-08, 2.4090900000000004E-10
DataValue, 1.8, 0.1, 0, 2.62549E-07, -2.62527E-07, 2.9306200000000004E-10, 2.62549E-07, 0.00051239535517020446, 7.6888139131013056E-08, 2.9306200000000004E-10
DataValue, 1.85, 0.1, 0, 2.76871E-07, -2.76987E-07, 3.54934E-10, 2.76871E-07, 0.00052618532856779654, 7.5762613851291327E-08, 3.54934E-10
DataValue, 1.9000000000000001, 0.1, 0, 2.91514E-07, -2.91758E-07, 4.2692900000000004E-10, 2.91514E-07, 0.00053992036449832122, 7.3579897579926757E-08, 4.2692900000000004E-10
DataValue, 1.9500000000000002, 0.1, 0, 3.06153E-07, -3.0642799999999997E-07, 5.0914300000000009E-10, 3.06153E-07, 0.00055331094332210706, 7.1772124926890435E-08, 5.0914300000000009E-10
DataValue, 2, 0.1, 0, 3.2116099999999997E-07, -3.2155399999999997E-07, 6.04695E-10, 3.2116099999999997E-07, 0.00056671068456488449, 7.0867493794899549E-08, 6.04695E-10
DataValue, 2.05, 0.1, 0, 3.36321E-07, -3.36875E-07, 7.1236500000000005E-10, 3.36321E-07, 0.00057993189255291005, 6.8718787444928278E-08, 7.1236500000000005E-10
DataValue, 2.1, 0.1, 0, 3.5156E-07, -3.5218399999999997E-07, 8.3639400000000008E-10, 3.5156E-07, 0.0005929249530927165, 6.6257133851372008E-08, 8.3639400000000008E-10
DataValue, 2.15, 0.1, 0, 3.66839E-07, -3.67666E-07, 9.7422700000000013E-10, 3.66839E-07, 0.00060567235366986989, 6.55769081833297E-08, 9.7422700000000013E-10
