
SetupTitle, Transfer stab
PrimitiveTest, I/V Sweep
TestParameter, Context.MainFrame, 4155C
TestParameter, Channel.UnitType, SMU, SMU, SMU
TestParameter, Channel.Unit, SMU3:MP, SMU1:MP, SMU4:MP
TestParameter, Channel.IName, ID, IS, IG
TestParameter, Channel.VName, VD, VS, VG
TestParameter, Channel.Mode, V, COMMON, V
TestParameter, Channel.Func, CONST, CONST, VAR1
TestParameter, Channel.Index, 
TestParameter, Channel.Time, 
TestParameter, Measurement.Port.Unit, SMU3:MP, SMU1:MP, SMU4:MP
TestParameter, Measurement.Port.SeriesResistor, NONE, NONE, NONE
TestParameter, Measurement.Port.Filter, ON, ON, ON
TestParameter, Measurement.Primary.Locus, Single
TestParameter, Measurement.Primary.Scale, LINEAR
TestParameter, Measurement.Primary.Start, -2
TestParameter, Measurement.Primary.Stop, 3
TestParameter, Measurement.Primary.Step, 0.05
TestParameter, Measurement.Primary.Compliance, 0.1
TestParameter, Measurement.Primary.PowerCompliance, 0
TestParameter, Measurement.Aborting.Condition, CONTINUE AT ANY
TestParameter, Measurement.PostOutput.Value, START
TestParameter, Measurement.PostOutput.Retention, OFF
TestParameter, Measurement.Bias.Source, 3, 0, -2
TestParameter, Measurement.Bias.Compliance, 0.1, 0.1, 0.1
TestParameter, Measurement.Monitor.Unit, SMU3:MP, SMU1:MP, SMU4:MP
TestParameter, Measurement.Monitor.Adc, HR ADC, HR ADC, HR ADC
TestParameter, Measurement.Monitor.RangingMode, AUTO, AUTO, AUTO
TestParameter, Measurement.Monitor.RangeBoundary, , , 
TestParameter, Measurement.Monitor.RangeRating, BY FULL RANGE, BY FULL RANGE, BY FULL RANGE
TestParameter, Measurement.Monitor.RangeRatingCoeff, 50, 50, 50
TestParameter, Measurement.Timing.Hold, 0.5
TestParameter, Measurement.Timing.Delay, 0.05
TestParameter, Measurement.Adc.HighResolution.AutoZero, OFF
TestParameter, Measurement.Adc.HighResolution.Mode, AUTO
TestParameter, Measurement.Adc.HighResolution.Coeff, 1
TestParameter, Measurement.Ag16440ASelector.SemiconductorRelay.Channel1, DEFAULT
TestParameter, Measurement.Ag16440ASelector.SemiconductorRelay.Channel3, DEFAULT
TestParameter, Function.User.Name, absID, sqrtID, gm2, absIG
TestParameter, Function.User.Unit, A, A, A/V, A
TestParameter, Function.User.Definition, abs(ID), sqrt(abs(ID)), (delta(sqrtID)/delta(VG))^2, abs(IG)
TestParameter, Output.Graph.Enabled, true
TestParameter, Output.Graph.XAxis.Data, VG
TestParameter, Output.Graph.XAxis.Scale, Linear
TestParameter, Output.Graph.XAxis.Left, -5
TestParameter, Output.Graph.XAxis.Right, 7
TestParameter, Output.Graph.YAxis.Data, ID, absIG, gm2
TestParameter, Output.Graph.YAxis.Scale, Log, Log, Linear
TestParameter, Output.Graph.YAxis.Bottom, 1E-14, 1E-14, 0
TestParameter, Output.Graph.YAxis.Top, 0.01, 0.01, 1E-05
TestParameter, Output.Graph.YAxis.Group, , , 
TestParameter, Output.List.Data, VG, IG, VD, ID, VS, IS, sqrtID, gm2, absIG
TestParameter, AutoAnalysis.Interpolation, false
TestParameter, AutoAnalysis.Line1.Enabled, false
TestParameter, AutoAnalysis.Line1.Type, 1
TestParameter, AutoAnalysis.Line1.Fix, True
TestParameter, AutoAnalysis.Line1.YAxis, 0
TestParameter, AutoAnalysis.Line1.Point1.Type, 0
TestParameter, AutoAnalysis.Line1.Point1.XY.X, 
TestParameter, AutoAnalysis.Line1.Point1.XY.Y, 
TestParameter, AutoAnalysis.Line1.Point1.Data.Var, 
TestParameter, AutoAnalysis.Line1.Point1.Data.Condition, 
TestParameter, AutoAnalysis.Line1.Point1.Data.Start, false
TestParameter, AutoAnalysis.Line1.Point1.Data.StartVar, 
TestParameter, AutoAnalysis.Line1.Point1.Data.StartCondition, 
TestParameter, AutoAnalysis.Line1.Point2.Type, 0
TestParameter, AutoAnalysis.Line1.Point2.XY.X, 
TestParameter, AutoAnalysis.Line1.Point2.XY.Y, 
TestParameter, AutoAnalysis.Line1.Point2.Data.Var, 
TestParameter, AutoAnalysis.Line1.Point2.Data.Condition, 
TestParameter, AutoAnalysis.Line1.Point2.Data.Start, false
TestParameter, AutoAnalysis.Line1.Point2.Data.StartVar, 
TestParameter, AutoAnalysis.Line1.Point2.Data.StartCondition, 
TestParameter, AutoAnalysis.Line1.GradientExpr, 0
TestParameter, AutoAnalysis.Line2.Enabled, false
TestParameter, AutoAnalysis.Line2.Type, 1
TestParameter, AutoAnalysis.Line2.Fix, True
TestParameter, AutoAnalysis.Line2.YAxis, 0
TestParameter, AutoAnalysis.Line2.Point1.Type, 0
TestParameter, AutoAnalysis.Line2.Point1.XY.X, 
TestParameter, AutoAnalysis.Line2.Point1.XY.Y, 
TestParameter, AutoAnalysis.Line2.Point1.Data.Var, 
TestParameter, AutoAnalysis.Line2.Point1.Data.Condition, 
TestParameter, AutoAnalysis.Line2.Point1.Data.Start, false
TestParameter, AutoAnalysis.Line2.Point1.Data.StartVar, 
TestParameter, AutoAnalysis.Line2.Point1.Data.StartCondition, 
TestParameter, AutoAnalysis.Line2.Point2.Type, 0
TestParameter, AutoAnalysis.Line2.Point2.XY.X, 
TestParameter, AutoAnalysis.Line2.Point2.XY.Y, 
TestParameter, AutoAnalysis.Line2.Point2.Data.Var, 
TestParameter, AutoAnalysis.Line2.Point2.Data.Condition, 
TestParameter, AutoAnalysis.Line2.Point2.Data.Start, false
TestParameter, AutoAnalysis.Line2.Point2.Data.StartVar, 
TestParameter, AutoAnalysis.Line2.Point2.Data.StartCondition, 
TestParameter, AutoAnalysis.Line2.GradientExpr, 0
TestParameter, AutoAnalysis.Marker.Enabled, false
TestParameter, AutoAnalysis.Marker.Data.Var, 
TestParameter, AutoAnalysis.Marker.Data.Condition, 
TestParameter, AutoAnalysis.Marker.Data.Start, false
TestParameter, AutoAnalysis.Marker.Data.StartVar, 
TestParameter, AutoAnalysis.Marker.Data.StartCondition, 
MetaData, TestRecord.EntryPoint, true
MetaData, TestRecord.RecordTime, 05/02/2019 11:39:29
MetaData, TestRecord.TestTarget, 250-300-0.75-0.75
MetaData, TestRecord.IterationIndex, 2
MetaData, TestRecord.Preservation, true
MetaData, TestRecord.Flag, 
MetaData, TestRecord.Remarks, bad?
MetaData, TestRecord.LinkKey, 59814925-332d-421e-a213-7022ebd11462
Dimension1, 101, 101, 101, 101, 101, 101, 101, 101, 101, 101
Dimension2, 1, 1, 1, 1, 1, 1, 1, 1, 1, 1
DataName, VG, VD, VS, ID, IS, IG, absID, sqrtID, gm2, absIG
DataValue, -2, 3, 0, 3.9488000000000004E-10, -3.32431E-10, -6.6969000000000007E-11, 3.9488000000000004E-10, 1.9871587757398754E-05, 7.0140709929270563E-13, 6.6969000000000007E-11
DataValue, -1.9500000000000002, 3, 0, 3.96546E-10, -3.3299300000000003E-10, -6.507E-11, 3.96546E-10, 1.9913462782750768E-05, 2.785567993492463E-12, 6.507E-11
DataValue, -1.9000000000000001, 3, 0, 4.0154100000000005E-10, -3.35028E-10, -6.6009E-11, 4.0154100000000005E-10, 2.003848796691008E-05, 3.7606486613546232E-12, 6.6009E-11
DataValue, -1.85, 3, 0, 4.0430700000000005E-10, -3.39186E-10, -6.4789000000000008E-11, 4.0430700000000005E-10, 2.0107386702403672E-05, 8.78883965999563E-14, 6.4789000000000008E-11
DataValue, -1.8, 3, 0, 4.0273E-10, -3.42477E-10, -6.3291E-11, 4.0273E-10, 2.0068133944141394E-05, 5.6327831060875258E-14, 6.3291E-11
DataValue, -1.75, 3, 0, 4.05262E-10, -3.461E-10, -6.187E-11, 4.05262E-10, 2.0131120187411331E-05, 3.8019252760018981E-12, 6.187E-11
DataValue, -1.7000000000000002, 3, 0, 4.10594E-10, -3.48473E-10, -5.8762E-11, 4.10594E-10, 2.0263119207071747E-05, 6.41000617885125E-14, 5.8762E-11
DataValue, -1.6500000000000001, 3, 0, 4.0628200000000003E-10, -3.4720600000000005E-10, -5.7968000000000003E-11, 4.0628200000000003E-10, 2.015643817741617E-05, 2.1226241088880484E-13, 5.7968000000000003E-11
DataValue, -1.6, 3, 0, 4.0872900000000004E-10, -3.51154E-10, -5.7114000000000006E-11, 4.0872900000000004E-10, 2.0217047262149831E-05, 6.1866249669491882E-13, 5.7114000000000006E-11
DataValue, -1.55, 3, 0, 4.0945900000000004E-10, -3.5277200000000003E-10, -5.6188000000000004E-11, 4.0945900000000004E-10, 2.0235093278757082E-05, 3.95250000137604E-13, 5.6188000000000004E-11
DataValue, -1.5, 3, 0, 4.11275E-10, -3.5440500000000003E-10, -5.6311000000000006E-11, 4.11275E-10, 2.0279916173396774E-05, 4.9317221601572639E-13, 5.6311000000000006E-11
DataValue, -1.4500000000000002, 3, 0, 4.12306E-10, -3.55794E-10, -5.5283E-11, 4.12306E-10, 2.0305319500071896E-05, 4.4097355806458382E-13, 5.5283E-11
DataValue, -1.4000000000000001, 3, 0, 4.0858600000000005E-10, -3.5603E-10, -5.4039000000000006E-11, 4.0858600000000005E-10, 2.0213510333437884E-05, 7.1299789552964949E-13, 5.4039000000000006E-11
DataValue, -1.35, 3, 0, 4.08884E-10, -3.55705E-10, -5.2425E-11, 4.08884E-10, 2.0220880297356E-05, 4.1834921959418086E-13, 5.2425E-11
DataValue, -1.3, 3, 0, 4.1120500000000003E-10, -3.60503E-10, -5.1283E-11, 4.1120500000000003E-10, 2.0278190254556743E-05, 5.96114321820078E-14, 5.1283E-11
DataValue, -1.25, 3, 0, 4.09872E-10, -3.57675E-10, -5.0192E-11, 4.09872E-10, 2.0245295749877303E-05, 1.3473126685589276E-13, 5.0192E-11
DataValue, -1.2, 3, 0, 4.1269500000000004E-10, -3.62984E-10, -4.8925E-11, 4.1269500000000004E-10, 2.0314896012532283E-05, 5.1963872439678184E-13, 4.8925E-11
DataValue, -1.1500000000000001, 3, 0, 4.1279600000000003E-10, -3.6234900000000004E-10, -4.7962000000000006E-11, 4.1279600000000003E-10, 2.0317381721078139E-05, 3.0682899578020294E-14, 4.7962000000000006E-11
DataValue, -1.1, 3, 0, 4.1340700000000005E-10, -3.641E-10, -4.7323000000000004E-11, 4.1340700000000005E-10, 2.0332412547457324E-05, 2.3262797811918251E-14, 4.7323000000000004E-11
DataValue, -1.05, 3, 0, 4.13416E-10, -3.63026E-10, -4.6192E-11, 4.13416E-10, 2.0332633867750631E-05, 7.548473605286811E-14, 4.6192E-11
DataValue, -1, 3, 0, 4.14525E-10, -3.6952100000000004E-10, -4.5226000000000006E-11, 4.14525E-10, 2.0359887033085424E-05, 1.7749313861385898E-13, 4.5226000000000006E-11
DataValue, -0.95000000000000007, 3, 0, 4.1513100000000005E-10, -3.6879600000000003E-10, -4.3419E-11, 4.1513100000000005E-10, 2.0374763802311921E-05, 3.39500299849028E-13, 4.3419E-11
DataValue, -0.9, 3, 0, 4.1690100000000004E-10, -3.7068400000000004E-10, -3.0937000000000005E-11, 4.1690100000000004E-10, 2.0418153687344016E-05, 6.7706622962355322E-14, 3.0937000000000005E-11
DataValue, -0.85000000000000009, 3, 0, 4.1619200000000006E-10, -3.71724E-10, -3.6758E-11, 4.1619200000000006E-10, 2.0400784298648915E-05, 1.0633852422115288E-14, 3.6758E-11
DataValue, -0.8, 3, 0, 4.1648000000000004E-10, -3.7792900000000005E-10, -3.7155E-11, 4.1648000000000004E-10, 2.0407841630118557E-05, 9.1684443742505079E-13, 3.7155E-11
DataValue, -0.75, 3, 0, 4.2010800000000004E-10, -3.7630700000000004E-10, -4.1768000000000004E-11, 4.2010800000000004E-10, 2.0496536292749563E-05, 4.0576379932753614E-13, 4.1768000000000004E-11
DataValue, -0.70000000000000007, 3, 0, 4.1908400000000005E-10, -3.77268E-10, -4.1785E-11, 4.1908400000000005E-10, 2.04715412219012E-05, 3.1100927357416856E-13, 4.1785E-11
DataValue, -0.65, 3, 0, 4.1782500000000005E-10, -3.79571E-10, -3.9051000000000006E-11, 4.1782500000000005E-10, 2.0440768087329793E-05, 2.806954256010607E-13, 3.9051000000000006E-11
DataValue, -0.6, 3, 0, 4.21256E-10, -3.80758E-10, -3.7083E-11, 4.21256E-10, 2.0524521918914457E-05, 1.345637053971824E-13, 3.7083E-11
DataValue, -0.55, 3, 0, 4.1932600000000006E-10, -3.8240500000000004E-10, -3.4732000000000003E-11, 4.1932600000000006E-10, 2.0477451013248697E-05, 2.3739097822653796E-17, 3.4732000000000003E-11
DataValue, -0.5, 3, 0, 4.2123600000000005E-10, -3.8502800000000005E-10, -3.4252E-11, 4.2123600000000005E-10, 2.0524034691064036E-05, 6.4827960289157483E-13, 3.4252E-11
DataValue, -0.45, 3, 0, 4.2263E-10, -3.8665900000000003E-10, -3.3034000000000003E-11, 4.2263E-10, 2.0557966825539922E-05, 5.29628229675548E-13, 3.3034000000000003E-11
DataValue, -0.4, 3, 0, 4.18254E-10, -3.83144E-10, -3.1987000000000004E-11, 4.18254E-10, 2.0451259129941118E-05, 2.0716629086292046E-14, 3.1987000000000004E-11
DataValue, -0.35000000000000003, 3, 0, 4.2322200000000003E-10, -3.87484E-10, -3.1639000000000004E-11, 4.2322200000000003E-10, 2.0572360097956677E-05, 2.0962458602738313E-12, 3.1639000000000004E-11
DataValue, -0.3, 3, 0, 4.24197E-10, -3.8833500000000003E-10, -3.0747000000000004E-11, 4.24197E-10, 2.0596043309334926E-05, 6.6329627327305386E-14, 3.0747000000000004E-11
DataValue, -0.25, 3, 0, 4.2216300000000004E-10, -3.8766600000000003E-10, -3.0387000000000005E-11, 4.2216300000000004E-10, 2.0546605559069851E-05, 4.4664574631740095E-14, 3.0387000000000005E-11
DataValue, -0.2, 3, 0, 4.2506800000000005E-10, -3.94456E-10, -2.9098000000000004E-11, 4.2506800000000005E-10, 2.0617177304374137E-05, 5.0249687518065015E-13, 2.9098000000000004E-11
DataValue, -0.15, 3, 0, 4.2508100000000005E-10, -3.9380900000000005E-10, -2.8257E-11, 4.2508100000000005E-10, 2.0617492573055534E-05, 2.2130232080359296E-15, 2.8257E-11
DataValue, -0.1, 3, 0, 4.2526200000000006E-10, -3.9737400000000003E-10, -2.7416000000000002E-11, 4.2526200000000006E-10, 2.0621881582435685E-05, 4.3206129884209995E-15, 2.7416000000000002E-11
DataValue, -0.05, 3, 0, 4.2481000000000006E-10, -3.96879E-10, -2.6249E-11, 4.2481000000000006E-10, 2.0610919436065922E-05, 5.8483770356784833E-14, 2.6249E-11
DataValue, 0, 3, 0, 4.2626000000000004E-10, -3.96812E-10, -2.5047000000000003E-11, 4.2626000000000004E-10, 2.0646065000382035E-05, 9.89317341248438E-13, 2.5047000000000003E-11
DataValue, 0.05, 3, 0, 4.2892000000000006E-10, -4.0094200000000003E-10, -2.3665000000000003E-11, 4.2892000000000006E-10, 2.0710383868967761E-05, 3.9439818588263619E-16, 2.3665000000000003E-11
DataValue, 0.1, 3, 0, 4.2617800000000006E-10, -3.9876200000000004E-10, -2.2774E-11, 4.2617800000000006E-10, 2.0644079054295449E-05, 2.7515909002606872E-13, 2.2774E-11
DataValue, 0.15, 3, 0, 4.2675000000000005E-10, -4.0099300000000005E-10, -2.2094E-11, 4.2675000000000005E-10, 2.06579282601136E-05, 8.1433157224068464E-13, 2.2094E-11
DataValue, 0.2, 3, 0, 4.2991200000000003E-10, -4.0419100000000004E-10, -2.1257000000000003E-11, 4.2991200000000003E-10, 2.0734319376338352E-05, 1.0998769574031659E-12, 2.1257000000000003E-11
DataValue, 0.25, 3, 0, 4.3109400000000004E-10, -4.06165E-10, -2.0227E-11, 4.3109400000000004E-10, 2.0762803278940925E-05, 5.6922785207646109E-13, 2.0227E-11
DataValue, 0.3, 3, 0, 4.26789E-10, -4.0738700000000005E-10, -1.9061000000000002E-11, 4.26789E-10, 2.0658872186060883E-05, 1.3617288038703043E-13, 1.9061000000000002E-11
DataValue, 0.35000000000000003, 3, 0, 4.2956300000000004E-10, -4.0760800000000004E-10, -1.8109E-11, 4.2956300000000004E-10, 2.0725901669167497E-05, 4.8422826616725148E-13, 1.8109E-11
DataValue, 0.4, 3, 0, 4.29669E-10, -4.09286E-10, -1.7142000000000003E-11, 4.29669E-10, 2.072845869812804E-05, 2.2443368635686024E-13, 1.7142000000000003E-11
DataValue, 0.45, 3, 0, 4.3152900000000005E-10, -4.10933E-10, -1.6012000000000002E-11, 4.3152900000000005E-10, 2.077327610176113E-05, 1.2732180198889683E-13, 1.6012000000000002E-11
DataValue, 0.5, 3, 0, 4.2819100000000006E-10, -4.0802600000000005E-10, -1.5025E-11, 4.2819100000000006E-10, 2.0692776517422694E-05, 3.3324514891925905E-12, 1.5025E-11
DataValue, 0.55, 3, 0, 4.2397800000000005E-10, -4.0584200000000003E-10, -1.3815000000000001E-11, 4.2397800000000005E-10, 2.059072606781995E-05, 9.5508731884894622E-13, 1.3815000000000001E-11
DataValue, 0.6, 3, 0, 4.2415600000000003E-10, -4.1056800000000004E-10, -1.2381E-11, 4.2415600000000003E-10, 2.0595047948475382E-05, 1.424297757752261E-12, 1.2381E-11
DataValue, 0.65, 3, 0, 4.2890700000000005E-10, -4.1312400000000005E-10, -1.1142E-11, 4.2890700000000005E-10, 2.0710070014367408E-05, 2.1633726639739459E-13, 1.1142E-11
DataValue, 0.70000000000000007, 3, 0, 4.2607400000000004E-10, -4.1282100000000004E-10, -9.9680000000000011E-12, 4.2607400000000004E-10, 2.0641560018564488E-05, 2.6810338470479826E-13, 9.9680000000000011E-12
DataValue, 0.75, 3, 0, 4.26765E-10, -4.12703E-10, -9.03E-12, 4.26765E-10, 2.0658291313659028E-05, 2.9889168141106941E-13, 9.03E-12
DataValue, 0.8, 3, 0, 4.2382000000000004E-10, -4.11529E-10, -7.912000000000001E-12, 4.2382000000000004E-10, 2.0586889031614272E-05, 5.19936549351337E-13, 7.912000000000001E-12
DataValue, 0.85000000000000009, 3, 0, 4.2379100000000005E-10, -4.1299200000000006E-10, -7.0820000000000007E-12, 4.2379100000000005E-10, 2.0586184687794872E-05, 7.1441906870682461E-13, 7.0820000000000007E-12
DataValue, 0.9, 3, 0, 4.2034700000000003E-10, -4.1253900000000005E-10, -6.4350000000000008E-12, 4.2034700000000003E-10, 2.0502365717155667E-05, 4.2472680528334517E-13, 6.4350000000000008E-12
DataValue, 0.95000000000000007, 3, 0, 4.21112E-10, -4.11353E-10, -5.564E-12, 4.21112E-10, 2.0521013620189427E-05, 2.1045435698595766E-13, 5.564E-12
DataValue, 1, 3, 0, 4.1846800000000004E-10, -4.11119E-10, -4.515E-12, 4.1846800000000004E-10, 2.0456490412580552E-05, 2.2164295547509102E-13, 4.515E-12
DataValue, 1.05, 3, 0, 4.19182E-10, -4.10649E-10, -3.505E-12, 4.19182E-10, 2.04739346487186E-05, 1.8672646799560237E-12, 3.505E-12
DataValue, 1.1, 3, 0, 4.12896E-10, -4.1041600000000003E-10, -2.253E-12, 4.12896E-10, 2.0319842519074797E-05, 2.2791139464458148E-12, 2.253E-12
DataValue, 1.1500000000000001, 3, 0, 4.13023E-10, -4.1051400000000005E-10, -1.2960000000000001E-12, 4.13023E-10, 2.0322967303029349E-05, 1.7977797654647691E-12, 1.2960000000000001E-12
DataValue, 1.2, 3, 0, 4.18363E-10, -4.12439E-10, -5.21E-13, 4.18363E-10, 2.0453923828938057E-05, 3.4563058595682525E-14, 5.21E-13
DataValue, 1.25, 3, 0, 4.1377900000000003E-10, -4.08384E-10, 3.53E-13, 4.1377900000000003E-10, 2.0341558445704204E-05, 8.355650884400076E-13, 3.53E-13
DataValue, 1.3, 3, 0, 4.14632E-10, -4.1423600000000003E-10, 1.2480000000000001E-12, 4.14632E-10, 2.0362514579491406E-05, 7.2196332486411558E-13, 1.2480000000000001E-12
DataValue, 1.35, 3, 0, 4.17243E-10, -4.16815E-10, 2.8190000000000004E-12, 4.17243E-10, 2.0426526870713975E-05, 1.1044743889945253E-12, 2.8190000000000004E-12
DataValue, 1.4000000000000001, 3, 0, 4.18923E-10, -4.1692700000000005E-10, 3.8090000000000004E-12, 4.18923E-10, 2.0467608555959828E-05, 6.0745962391317243E-13, 3.8090000000000004E-12
DataValue, 1.4500000000000002, 3, 0, 4.14065E-10, -4.17007E-10, 5.2340000000000005E-12, 4.14065E-10, 2.0348587174543592E-05, 2.6714732559736847E-12, 5.2340000000000005E-12
DataValue, 1.5, 3, 0, 4.12259E-10, -4.1472500000000003E-10, 6.9400000000000007E-12, 4.12259E-10, 2.0304162134892444E-05, 7.1062365711090579E-15, 6.9400000000000007E-12
DataValue, 1.55, 3, 0, 4.13722E-10, -4.1769600000000003E-10, 8.2860000000000008E-12, 4.13722E-10, 2.0340157324858627E-05, 1.4432865993139535E-14, 8.2860000000000008E-12
DataValue, 1.6, 3, 0, 4.12747E-10, -4.20773E-10, 9.324E-12, 4.12747E-10, 2.03161758212514E-05, 3.4125188288554126E-13, 9.324E-12
DataValue, 1.6500000000000001, 3, 0, 4.11349E-10, -4.17924E-10, 1.0077E-11, 4.11349E-10, 2.0281740556470985E-05, 1.3673928642710174E-14, 1.0077E-11
DataValue, 1.7000000000000002, 3, 0, 4.1227200000000003E-10, -4.1967300000000004E-10, 1.0388000000000001E-11, 4.1227200000000003E-10, 2.0304482263776145E-05, 9.3310780121721181E-13, 1.0388000000000001E-11
DataValue, 1.75, 3, 0, 4.0744000000000004E-10, -4.1900300000000003E-10, 1.1420000000000001E-11, 4.0744000000000004E-10, 2.0185143051264215E-05, 7.9197812276536254E-13, 1.1420000000000001E-11
DataValue, 1.8, 3, 0, 4.08666E-10, -4.1709500000000005E-10, 1.2835000000000002E-11, 4.08666E-10, 2.02154891110752E-05, 1.4884658961236987E-13, 1.2835000000000002E-11
DataValue, 1.85, 3, 0, 4.0899900000000003E-10, -4.1889500000000003E-10, 1.3975E-11, 4.0899900000000003E-10, 2.022372369273275E-05, 1.1925102195884469E-13, 1.3975E-11
DataValue, 1.9000000000000001, 3, 0, 4.0727100000000004E-10, -4.1817200000000003E-10, 1.553E-11, 4.0727100000000004E-10, 2.0180956369805669E-05, 3.5245572239270641E-14, 1.553E-11
DataValue, 1.9500000000000002, 3, 0, 4.0824000000000003E-10, -4.20485E-10, 1.7827E-11, 4.0824000000000003E-10, 2.0204949888579284E-05, 8.0305667974894054E-13, 1.7827E-11
DataValue, 2, 3, 0, 4.10896E-10, -4.24859E-10, 1.9875000000000002E-11, 4.10896E-10, 2.0270569799588762E-05, 9.9214051140315886E-13, 1.9875000000000002E-11
DataValue, 2.05, 3, 0, 4.1227500000000006E-10, -4.2905600000000003E-10, 2.1482E-11, 4.1227500000000006E-10, 2.0304556138955611E-05, 2.7616708548945805E-14, 2.1482E-11
DataValue, 2.1, 3, 0, 4.1157E-10, -4.2996600000000003E-10, 2.3230000000000003E-11, 4.1157E-10, 2.0287188075236057E-05, 2.4563500425045047E-12, 2.3230000000000003E-11
