
SetupTitle, Transfer stab
PrimitiveTest, I/V Sweep
TestParameter, Context.MainFrame, 4155C
TestParameter, Channel.UnitType, SMU, SMU, SMU
TestParameter, Channel.Unit, SMU3:MP, SMU1:MP, SMU4:MP
TestParameter, Channel.IName, ID, IS, IG
TestParameter, Channel.VName, VD, VS, VG
TestParameter, Channel.Mode, V, COMMON, V
TestParameter, Channel.Func, CONST, CONST, VAR1
TestParameter, Channel.Index, 
TestParameter, Channel.Time, 
TestParameter, Measurement.Port.Unit, SMU3:MP, SMU1:MP, SMU4:MP
TestParameter, Measurement.Port.SeriesResistor, NONE, NONE, NONE
TestParameter, Measurement.Port.Filter, ON, ON, ON
TestParameter, Measurement.Primary.Locus, Single
TestParameter, Measurement.Primary.Scale, LINEAR
TestParameter, Measurement.Primary.Start, -2
TestParameter, Measurement.Primary.Stop, 3
TestParameter, Measurement.Primary.Step, 0.05
TestParameter, Measurement.Primary.Compliance, 0.1
TestParameter, Measurement.Primary.PowerCompliance, 0
TestParameter, Measurement.Aborting.Condition, CONTINUE AT ANY
TestParameter, Measurement.PostOutput.Value, START
TestParameter, Measurement.PostOutput.Retention, OFF
TestParameter, Measurement.Bias.Source, 3, 0, -2
TestParameter, Measurement.Bias.Compliance, 0.1, 0.1, 0.1
TestParameter, Measurement.Monitor.Unit, SMU3:MP, SMU1:MP, SMU4:MP
TestParameter, Measurement.Monitor.Adc, HR ADC, HR ADC, HR ADC
TestParameter, Measurement.Monitor.RangingMode, AUTO, AUTO, AUTO
TestParameter, Measurement.Monitor.RangeBoundary, , , 
TestParameter, Measurement.Monitor.RangeRating, BY FULL RANGE, BY FULL RANGE, BY FULL RANGE
TestParameter, Measurement.Monitor.RangeRatingCoeff, 50, 50, 50
TestParameter, Measurement.Timing.Hold, 0.5
TestParameter, Measurement.Timing.Delay, 0.05
TestParameter, Measurement.Adc.HighResolution.AutoZero, OFF
TestParameter, Measurement.Adc.HighResolution.Mode, AUTO
TestParameter, Measurement.Adc.HighResolution.Coeff, 1
TestParameter, Measurement.Ag16440ASelector.SemiconductorRelay.Channel1, DEFAULT
TestParameter, Measurement.Ag16440ASelector.SemiconductorRelay.Channel3, DEFAULT
TestParameter, Function.User.Name, absID, sqrtID, gm2, absIG
TestParameter, Function.User.Unit, A, A, A/V, A
TestParameter, Function.User.Definition, abs(ID), sqrt(abs(ID)), (delta(sqrtID)/delta(VG))^2, abs(IG)
TestParameter, Output.Graph.Enabled, true
TestParameter, Output.Graph.XAxis.Data, VG
TestParameter, Output.Graph.XAxis.Scale, Linear
TestParameter, Output.Graph.XAxis.Left, -5
TestParameter, Output.Graph.XAxis.Right, 7
TestParameter, Output.Graph.YAxis.Data, ID, absIG, gm2
TestParameter, Output.Graph.YAxis.Scale, Log, Log, Linear
TestParameter, Output.Graph.YAxis.Bottom, 1E-14, 1E-14, 0
TestParameter, Output.Graph.YAxis.Top, 0.01, 0.01, 1E-05
TestParameter, Output.Graph.YAxis.Group, , , 
TestParameter, Output.List.Data, VG, IG, VD, ID, VS, IS, sqrtID, gm2, absIG
TestParameter, AutoAnalysis.Interpolation, false
TestParameter, AutoAnalysis.Line1.Enabled, false
TestParameter, AutoAnalysis.Line1.Type, 1
TestParameter, AutoAnalysis.Line1.Fix, True
TestParameter, AutoAnalysis.Line1.YAxis, 0
TestParameter, AutoAnalysis.Line1.Point1.Type, 0
TestParameter, AutoAnalysis.Line1.Point1.XY.X, 
TestParameter, AutoAnalysis.Line1.Point1.XY.Y, 
TestParameter, AutoAnalysis.Line1.Point1.Data.Var, 
TestParameter, AutoAnalysis.Line1.Point1.Data.Condition, 
TestParameter, AutoAnalysis.Line1.Point1.Data.Start, false
TestParameter, AutoAnalysis.Line1.Point1.Data.StartVar, 
TestParameter, AutoAnalysis.Line1.Point1.Data.StartCondition, 
TestParameter, AutoAnalysis.Line1.Point2.Type, 0
TestParameter, AutoAnalysis.Line1.Point2.XY.X, 
TestParameter, AutoAnalysis.Line1.Point2.XY.Y, 
TestParameter, AutoAnalysis.Line1.Point2.Data.Var, 
TestParameter, AutoAnalysis.Line1.Point2.Data.Condition, 
TestParameter, AutoAnalysis.Line1.Point2.Data.Start, false
TestParameter, AutoAnalysis.Line1.Point2.Data.StartVar, 
TestParameter, AutoAnalysis.Line1.Point2.Data.StartCondition, 
TestParameter, AutoAnalysis.Line1.GradientExpr, 0
TestParameter, AutoAnalysis.Line2.Enabled, false
TestParameter, AutoAnalysis.Line2.Type, 1
TestParameter, AutoAnalysis.Line2.Fix, True
TestParameter, AutoAnalysis.Line2.YAxis, 0
TestParameter, AutoAnalysis.Line2.Point1.Type, 0
TestParameter, AutoAnalysis.Line2.Point1.XY.X, 
TestParameter, AutoAnalysis.Line2.Point1.XY.Y, 
TestParameter, AutoAnalysis.Line2.Point1.Data.Var, 
TestParameter, AutoAnalysis.Line2.Point1.Data.Condition, 
TestParameter, AutoAnalysis.Line2.Point1.Data.Start, false
TestParameter, AutoAnalysis.Line2.Point1.Data.StartVar, 
TestParameter, AutoAnalysis.Line2.Point1.Data.StartCondition, 
TestParameter, AutoAnalysis.Line2.Point2.Type, 0
TestParameter, AutoAnalysis.Line2.Point2.XY.X, 
TestParameter, AutoAnalysis.Line2.Point2.XY.Y, 
TestParameter, AutoAnalysis.Line2.Point2.Data.Var, 
TestParameter, AutoAnalysis.Line2.Point2.Data.Condition, 
TestParameter, AutoAnalysis.Line2.Point2.Data.Start, false
TestParameter, AutoAnalysis.Line2.Point2.Data.StartVar, 
TestParameter, AutoAnalysis.Line2.Point2.Data.StartCondition, 
TestParameter, AutoAnalysis.Line2.GradientExpr, 0
TestParameter, AutoAnalysis.Marker.Enabled, false
TestParameter, AutoAnalysis.Marker.Data.Var, 
TestParameter, AutoAnalysis.Marker.Data.Condition, 
TestParameter, AutoAnalysis.Marker.Data.Start, false
TestParameter, AutoAnalysis.Marker.Data.StartVar, 
TestParameter, AutoAnalysis.Marker.Data.StartCondition, 
MetaData, TestRecord.EntryPoint, true
MetaData, TestRecord.RecordTime, 05/02/2019 13:52:45
MetaData, TestRecord.TestTarget, 150-300-2-5
MetaData, TestRecord.IterationIndex, 3
MetaData, TestRecord.Preservation, true
MetaData, TestRecord.Flag, 
MetaData, TestRecord.Remarks, good
MetaData, TestRecord.LinkKey, e710699a-3abb-4d17-b0cb-e8fbbc5003f1
Dimension1, 101, 101, 101, 101, 101, 101, 101, 101, 101, 101
Dimension2, 1, 1, 1, 1, 1, 1, 1, 1, 1, 1
DataName, VG, VD, VS, ID, IS, IG, absID, sqrtID, gm2, absIG
DataValue, -2, 3, 0, 1.189E-12, 1.3100000000000002E-13, -1.3E-13, 1.189E-12, 1.0904127658827185E-06, 6.3030474095798848E-12, 1.3E-13
DataValue, -1.9500000000000002, 3, 0, 9.3100000000000017E-13, -2.0300000000000002E-13, -9.9E-13, 9.3100000000000017E-13, 9.6488341264631561E-07, 2.8205199410016921E-13, 9.9E-13
DataValue, -1.9000000000000001, 3, 0, 1.076E-12, 1.868E-12, -1.0480000000000002E-12, 1.076E-12, 1.0373041983911952E-06, 1.1822043483208797E-12, 1.0480000000000002E-12
DataValue, -1.85, 3, 0, 7.33E-13, -5.45E-13, -2.005E-12, 7.33E-13, 8.561541917201597E-07, 1.8978207030983531E-11, 2.005E-12
DataValue, -1.8, 3, 0, 3.62E-13, -6.8E-14, -1.6120000000000002E-12, 3.62E-13, 6.01664358259653E-07, 2.1933756833170575E-13, 1.6120000000000002E-12
DataValue, -1.75, 3, 0, 6.55E-13, -1.212E-12, -4.6000000000000006E-13, 6.55E-13, 8.0932070281193227E-07, 1.2028037842360199E-12, 4.6000000000000006E-13
DataValue, -1.7000000000000002, 3, 0, 5.0600000000000007E-13, 4.09E-13, -5.39E-13, 5.0600000000000007E-13, 7.1133676975114961E-07, 3.6825009534707815E-11, 5.39E-13
DataValue, -1.6500000000000001, 3, 0, -4.1E-14, 2.9E-14, -8.1500000000000006E-13, 4.1E-14, 2.0248456731316586E-07, 1.869191784056942E-11, 8.1500000000000006E-13
DataValue, -1.6, 3, 0, 1.308E-12, 1.0200000000000001E-13, 1.7E-14, 1.308E-12, 1.1436782764396638E-06, 2.0478372940812654E-14, 1.7E-14
DataValue, -1.55, 3, 0, 4.7E-14, 3.66E-13, 3.15E-13, 4.7E-14, 2.16794833886788E-07, 2.5864772750535742E-12, 3.15E-13
DataValue, -1.5, 3, 0, 9.6600000000000012E-13, 2.71E-13, -1.082E-12, 9.6600000000000012E-13, 9.8285299002444927E-07, 1.801622922577584E-14, 1.082E-12
DataValue, -1.4500000000000002, 3, 0, 5.3E-14, -4.72E-13, -8.66E-13, 5.3E-14, 2.3021728866442677E-07, 1.1833535422134995E-12, 8.66E-13
DataValue, -1.4000000000000001, 3, 0, 7.6400000000000008E-13, 1.08E-12, 1.57E-13, 7.6400000000000008E-13, 8.7407093533648632E-07, 2.33362987453205E-10, 1.57E-13
DataValue, -1.35, 3, 0, 3.0900000000000004E-12, 5.12E-13, -1.2770000000000001E-12, 3.0900000000000004E-12, 1.7578395831246947E-06, 7.5060040758568069E-12, 1.2770000000000001E-12
DataValue, -1.3, 3, 0, -1.318E-12, 8.7400000000000011E-13, -1.068E-12, 1.318E-12, 1.1480418110852933E-06, 1.6720599766209257E-10, 1.068E-12
DataValue, -1.25, 3, 0, -2.1600000000000001E-13, 2.2000000000000002E-13, 7.6100000000000009E-13, 2.1600000000000001E-13, 4.6475800154489004E-07, 1.9069211899587528E-12, 7.6100000000000009E-13
DataValue, -1.2, 3, 0, -1.02E-12, -1.5000000000000002E-14, -9.75E-13, 1.02E-12, 1.0099504938362078E-06, 2.7848170749843749E-11, 9.75E-13
DataValue, -1.1500000000000001, 3, 0, 9.8500000000000014E-13, -2.7800000000000003E-13, 4.98E-13, 9.8500000000000014E-13, 9.9247166206396045E-07, 4.0500688705379447E-12, 4.98E-13
DataValue, -1.1, 3, 0, -6.54E-13, -6.6900000000000008E-13, 1.1600000000000001E-12, 6.54E-13, 8.0870266476622919E-07, 2.4056635945989822E-11, 1.1600000000000001E-12
DataValue, -1.05, 3, 0, 2.5200000000000004E-13, 4.4100000000000004E-13, 8.3600000000000007E-13, 2.5200000000000004E-13, 5.0199601592044536E-07, 6.0423264699005048E-12, 8.3600000000000007E-13
DataValue, -1, 3, 0, -1.1120000000000001E-12, 6.6800000000000008E-13, -1.2480000000000001E-12, 1.1120000000000001E-12, 1.0545141061171256E-06, 1.0252559094784779E-11, 1.2480000000000001E-12
DataValue, -0.95000000000000007, 3, 0, 6.76E-13, 2.7700000000000003E-13, -1.3840000000000002E-12, 6.76E-13, 8.221921916437787E-07, 1.874394459027725E-12, 1.3840000000000002E-12
DataValue, -0.9, 3, 0, 8.42E-13, 3.78E-13, -9.13E-13, 8.42E-13, 9.17605579756357E-07, 4.368509852931754E-11, 9.13E-13
DataValue, -0.85000000000000009, 3, 0, -2.6000000000000003E-14, 8.060000000000001E-13, 1.216E-12, 2.6000000000000003E-14, 1.61245154965971E-07, 2.2021934879337388E-11, 1.216E-12
DataValue, -0.8, 3, 0, 2.0100000000000003E-13, -2.17E-13, 3.6800000000000005E-13, 2.0100000000000003E-13, 4.4833023542919789E-07, 1.1747000276871941E-11, 3.6800000000000005E-13
DataValue, -0.75, 3, 0, 2.5400000000000003E-13, -8.6300000000000006E-13, -1.4280000000000002E-12, 2.5400000000000003E-13, 5.039841267341661E-07, 9.8947370445811416E-12, 1.4280000000000002E-12
DataValue, -0.70000000000000007, 3, 0, 5.82E-13, 3.5E-13, 8.6300000000000006E-13, 5.82E-13, 7.62889244910426E-07, 1.4378654245175569E-11, 8.6300000000000006E-13
DataValue, -0.65, 3, 0, 7.8000000000000011E-13, 8.5900000000000008E-13, -2.17E-13, 7.8000000000000011E-13, 8.8317608663278479E-07, 5.1142241929697736E-13, 2.17E-13
DataValue, -0.6, 3, 0, 4.7800000000000008E-13, 2.088E-12, 3.87E-13, 4.7800000000000008E-13, 6.9137544069774425E-07, 3.2031251907581518E-11, 3.87E-13
DataValue, -0.55, 3, 0, -2.1000000000000003E-12, 1.3960000000000001E-12, -9.42E-13, 2.1000000000000003E-12, 1.449137674618944E-06, 8.7387411318876291E-13, 9.42E-13
DataValue, -0.5, 3, 0, 6.16E-13, 2.1830000000000003E-12, -3.6330000000000004E-12, 6.16E-13, 7.8485667481394335E-07, 1.3133335097188413E-11, 3.6330000000000004E-12
DataValue, -0.45, 3, 0, 1.1810000000000001E-12, 2.4200000000000003E-13, -4.3870000000000006E-12, 1.1810000000000001E-12, 1.0867382389517727E-06, 9.9888892460904417E-12, 4.3870000000000006E-12
DataValue, -0.4, 3, 0, -1.212E-12, -3.0150000000000004E-12, 3.066E-12, 1.212E-12, 1.1009087155618309E-06, 1.1321575940650241E-13, 3.066E-12
DataValue, -0.35000000000000003, 3, 0, -1.109E-12, -1.76E-13, -4.7E-14, 1.109E-12, 1.0530906893520615E-06, 5.5170170151515595E-12, 4.7E-14
DataValue, -0.3, 3, 0, 7.5E-13, -1.005E-12, -1.053E-12, 7.5E-13, 8.6602540378443868E-07, 8.4348615072914706E-13, 1.053E-12
DataValue, -0.25, 3, 0, 9.240000000000001E-13, -7.1E-14, -1.7030000000000001E-12, 9.240000000000001E-13, 9.6124918725583341E-07, 3.8573593128807165E-11, 1.7030000000000001E-12
DataValue, -0.2, 3, 0, -6.0000000000000009E-14, -7.590000000000001E-13, 6.7200000000000006E-13, 6.0000000000000009E-14, 2.4494897427831784E-07, 2.08966862246671E-14, 6.7200000000000006E-13
DataValue, -0.15, 3, 0, 9.52E-13, -1.475E-12, 3.3600000000000003E-13, 9.52E-13, 9.7570487341203751E-07, 1.7777988618735745E-10, 3.3600000000000003E-13
DataValue, -0.1, 3, 0, 2.491E-12, -1.07E-12, -1.2020000000000001E-12, 2.491E-12, 1.5782902141241325E-06, 2.8700648756438432E-10, 1.2020000000000001E-12
DataValue, -0.05, 3, 0, 7.128E-12, -4.3710000000000007E-12, -3.813E-12, 7.128E-12, 2.6698314553544385E-06, 7.0278663677100229E-10, 3.813E-12
DataValue, 0, 3, 0, 1.7887000000000002E-11, -1.6443E-11, -3.978E-12, 1.7887000000000002E-11, 4.2293025429732506E-06, 2.4077758571548663E-09, 3.978E-12
DataValue, 0.05, 3, 0, 5.7407000000000005E-11, -5.2201000000000007E-11, 1.168E-12, 5.7407000000000005E-11, 7.5767407240844667E-06, 8.2176625120676117E-09, 1.168E-12
DataValue, 0.1, 3, 0, 1.7674200000000002E-10, -1.6756400000000002E-10, 1.879E-12, 1.7674200000000002E-10, 1.3294434925937997E-05, 2.2151365970729349E-08, 1.879E-12
DataValue, 0.15, 3, 0, 5.04455E-10, -4.8472100000000007E-10, -7.5E-13, 5.04455E-10, 2.2460075689988225E-05, 4.3862640702994563E-08, 7.5E-13
DataValue, 0.2, 3, 0, 1.17223E-09, -1.15833E-09, -7.54E-13, 1.17223E-09, 3.423784455832464E-05, 8.7916802587312067E-08, 7.54E-13
DataValue, 0.25, 3, 0, 2.71554E-09, -2.67257E-09, -2.598E-12, 2.71554E-09, 5.2110843401349777E-05, 1.4951812497873268E-07, 2.598E-12
DataValue, 0.3, 3, 0, 5.3152E-09, -5.29415E-09, 2.1990000000000002E-12, 5.3152E-09, 7.2905418179995373E-05, 1.9265826712507568E-07, 2.1990000000000002E-12
DataValue, 0.35000000000000003, 3, 0, 9.21671E-09, -9.11726E-09, 1.721E-12, 9.21671E-09, 9.60036978454476E-05, 2.2472353163512589E-07, 1.721E-12
DataValue, 0.4, 3, 0, 1.4474599999999999E-08, -1.42628E-08, 1.35E-13, 1.4474599999999999E-08, 0.0001203104318004054, 2.6989441071011028E-07, 1.35E-13
DataValue, 0.45, 3, 0, 2.1890699999999998E-08, -2.1811E-08, 1.4260000000000002E-12, 2.1890699999999998E-08, 0.00014795506074480859, 3.31241240484504E-07, 1.4260000000000002E-12
DataValue, 0.5, 3, 0, 3.16356E-08, -3.15469E-08, -1.47E-13, 3.16356E-08, 0.00017786399298340292, 3.684974559681192E-07, 1.47E-13
DataValue, 0.55, 3, 0, 4.3538599999999995E-08, -4.34515E-08, -3.923E-12, 4.3538599999999995E-08, 0.00020865905204423793, 3.84143228753878E-07, 3.923E-12
DataValue, 0.6, 3, 0, 5.7524799999999996E-08, -5.7285999999999994E-08, 5.87E-13, 5.7524799999999996E-08, 0.00023984328216566749, 3.9901390060910746E-07, 5.87E-13
DataValue, 0.65, 3, 0, 7.3889699999999992E-08, -7.3492399999999989E-08, -8.8800000000000005E-13, 7.3889699999999992E-08, 0.0002718265991399664, 4.1821369029906767E-07, 8.8800000000000005E-13
DataValue, 0.70000000000000007, 3, 0, 9.2728E-08, -9.2385399999999985E-08, -5.16E-13, 9.2728E-08, 0.00030451272551405796, 4.3804853283506469E-07, 5.16E-13
DataValue, 0.75, 3, 0, 1.14252E-07, -1.1343E-07, 1.3020000000000001E-12, 1.14252E-07, 0.00033801183411235767, 4.4625746002055481E-07, 1.3020000000000001E-12
DataValue, 0.8, 3, 0, 1.37875E-07, -1.37749E-07, 3.4600000000000004E-13, 1.37875E-07, 0.00037131522995966648, 4.8722981009402839E-07, 3.4600000000000004E-13
DataValue, 0.85000000000000009, 3, 0, 1.66312E-07, -1.6551E-07, 6.16E-13, 1.66312E-07, 0.00040781368294847585, 5.2999486013368742E-07, 6.16E-13
DataValue, 0.9, 3, 0, 1.9723899999999998E-07, -1.96966E-07, -1.212E-12, 1.9723899999999998E-07, 0.00044411597584414814, 5.3486315689234331E-07, 1.212E-12
DataValue, 0.95000000000000007, 3, 0, 2.31311E-07, -2.3078599999999999E-07, -1.272E-12, 2.31311E-07, 0.00048094802213960707, 5.5805195345265969E-07, 1.272E-12
DataValue, 1, 3, 0, 2.69173E-07, -2.68344E-07, 1.32E-12, 2.69173E-07, 0.000518818850852588, 5.7325272501853659E-07, 1.32E-12
DataValue, 1.05, 3, 0, 3.09872E-07, -3.10082E-07, 5.7300000000000008E-13, 3.09872E-07, 0.00055666147702171744, 5.82111990984364E-07, 5.7300000000000008E-13
DataValue, 1.1, 3, 0, 3.54162E-07, -3.52865E-07, -3.76E-13, 3.54162E-07, 0.00059511511491475329, 5.8519532657329467E-07, 3.76E-13
DataValue, 1.1500000000000001, 3, 0, 4.00891E-07, -4.00797E-07, -2.85E-13, 4.00891E-07, 0.00063315953755747846, 5.8825990306303457E-07, 2.85E-13
DataValue, 1.2, 3, 0, 4.51333E-07, -4.51582E-07, 1.5500000000000002E-13, 4.51333E-07, 0.000671813218089671, 6.0948749454643451E-07, 1.5500000000000002E-13
DataValue, 1.25, 3, 0, 5.05847E-07, -5.06759E-07, -7.4600000000000005E-13, 5.05847E-07, 0.00071122921762256089, 6.391052180470039E-07, 7.4600000000000005E-13
DataValue, 1.3, 3, 0, 5.65139E-07, -5.6353E-07, 2.8E-13, 5.65139E-07, 0.00075175727465718613, 6.59076937547049E-07, 2.8E-13
DataValue, 1.35, 3, 0, 6.27918E-07, -6.27257E-07, 5.0900000000000005E-13, 6.27918E-07, 0.0007924127712246945, 6.5856607629995947E-07, 5.0900000000000005E-13
DataValue, 1.4000000000000001, 3, 0, 6.93738E-07, -6.94594E-07, -1.095E-12, 6.93738E-07, 0.00083290935881403085, 6.636419532491933E-07, 1.095E-12
DataValue, 1.4500000000000002, 3, 0, 7.63661E-07, -7.62386E-07, -2.4000000000000004E-13, 7.63661E-07, 0.000873876993632399, 6.6361481547205966E-07, 2.4000000000000004E-13
DataValue, 1.5, 3, 0, 8.36076E-07, -8.3559799999999994E-07, 2.93E-13, 8.36076E-07, 0.00091437191557921333, 6.8947623229857858E-07, 2.93E-13
DataValue, 1.55, 3, 0, 9.1568E-07, -9.15014E-07, 3.06E-13, 9.1568E-07, 0.00095691169916560222, 7.0199910166355093E-07, 3.06E-13
DataValue, 1.6, 3, 0, 9.96318E-07, -9.95845E-07, -1.057E-12, 9.96318E-07, 0.00099815730223246882, 7.0138394087349547E-07, 1.057E-12
DataValue, 1.6500000000000001, 3, 0, 1.082974E-06, -1.083121E-06, 1.349E-12, 1.082974E-06, 0.001040660367266862, 7.0052859647004916E-07, 1.349E-12
DataValue, 1.7000000000000002, 3, 0, 1.1704100000000001E-06, -1.1690300000000001E-06, 1.0000000000000002E-14, 1.1704100000000001E-06, 0.0010818548886056762, 6.9272656594756873E-07, 1.0000000000000002E-14
DataValue, 1.75, 3, 0, 1.2631300000000002E-06, -1.26343E-06, -5.43E-13, 1.2631300000000002E-06, 0.0011238905640675164, 7.24028089889205E-07, 5.43E-13
DataValue, 1.8, 3, 0, 1.3617600000000002E-06, -1.3627500000000002E-06, 1.4090000000000002E-12, 1.3617600000000002E-06, 0.0011669447287682481, 7.3800022799482034E-07, 1.4090000000000002E-12
DataValue, 1.85, 3, 0, 1.4636100000000001E-06, -1.46383E-06, 8.8400000000000007E-13, 1.4636100000000001E-06, 0.0012097975037170478, 7.582369472215675E-07, 8.8400000000000007E-13
DataValue, 1.9000000000000001, 3, 0, 1.5725700000000002E-06, -1.57215E-06, 1.0850000000000001E-12, 1.5725700000000002E-06, 0.001254021530915638, 7.5044714122208458E-07, 1.0850000000000001E-12
DataValue, 1.9500000000000002, 3, 0, 1.6807200000000002E-06, -1.6812500000000002E-06, 1.168E-12, 1.6807200000000002E-06, 0.0012964258559593758, 7.3557665550559006E-07, 1.168E-12
DataValue, 2, 3, 0, 1.7950300000000002E-06, -1.7956300000000002E-06, 3.3160000000000004E-12, 1.7950300000000002E-06, 0.00133978729655121, 7.7576751005492843E-07, 3.3160000000000004E-12
DataValue, 2.05, 3, 0, 1.91685E-06, -1.91538E-06, 2.386E-12, 1.91685E-06, 0.0013845035211222832, 7.7830872411486107E-07, 2.386E-12
DataValue, 2.1, 3, 0, 2.03921E-06, -2.0415300000000003E-06, 2.1460000000000003E-12, 2.03921E-06, 0.0014280091036124386, 7.6940776870653285E-07, 2.1460000000000003E-12
DataValue, 2.15, 3, 0, 2.16743E-06, -2.1681100000000003E-06, 3.075E-12, 2.16743E-06, 0.0014722194129952234, 7.8287569960592925E-07, 3.075E-12
DataValue, 2.2, 3, 0, 2.29974E-06, -2.3006600000000004E-06, 3.773E-12, 2.29974E-06, 0.0015164893669261251, 7.9212248637675014E-07, 3.773E-12
DataValue, 2.25, 3, 0, 2.4374100000000004E-06, -2.4374700000000004E-06, 3.905E-12, 2.4374100000000004E-06, 0.0015612206762658507, 7.8863277769033583E-07, 3.905E-12
DataValue, 2.3000000000000003, 3, 0, 2.57697E-06, -2.57659E-06, 5.0500000000000005E-12, 2.57697E-06, 0.0016052943655292633, 7.8661719915226343E-07, 5.0500000000000005E-12
DataValue, 2.35, 3, 0, 2.7222100000000002E-06, -2.7233800000000003E-06, 3.804E-12, 2.7222100000000002E-06, 0.0016499121188717901, 8.1078064887399626E-07, 3.804E-12
DataValue, 2.4, 3, 0, 2.8741700000000004E-06, -2.87396E-06, 5.6310000000000005E-12, 2.8741700000000004E-06, 0.0016953377244667213, 8.1215224844402423E-07, 5.6310000000000005E-12
DataValue, 2.45, 3, 0, 3.02771E-06, -3.02742E-06, 6.9330000000000004E-12, 3.02771E-06, 0.0017400316089082981, 8.1014725376902288E-07, 6.9330000000000004E-12
