
SetupTitle, Transfer stab
PrimitiveTest, I/V Sweep
TestParameter, Context.MainFrame, 4155C
TestParameter, Channel.UnitType, SMU, SMU, SMU
TestParameter, Channel.Unit, SMU3:MP, SMU1:MP, SMU4:MP
TestParameter, Channel.IName, ID, IS, IG
TestParameter, Channel.VName, VD, VS, VG
TestParameter, Channel.Mode, V, COMMON, V
TestParameter, Channel.Func, CONST, CONST, VAR1
TestParameter, Channel.Index, 
TestParameter, Channel.Time, 
TestParameter, Measurement.Port.Unit, SMU3:MP, SMU1:MP, SMU4:MP
TestParameter, Measurement.Port.SeriesResistor, NONE, NONE, NONE
TestParameter, Measurement.Port.Filter, ON, ON, ON
TestParameter, Measurement.Primary.Locus, Single
TestParameter, Measurement.Primary.Scale, LINEAR
TestParameter, Measurement.Primary.Start, -2
TestParameter, Measurement.Primary.Stop, 3
TestParameter, Measurement.Primary.Step, 0.05
TestParameter, Measurement.Primary.Compliance, 0.1
TestParameter, Measurement.Primary.PowerCompliance, 0
TestParameter, Measurement.Aborting.Condition, CONTINUE AT ANY
TestParameter, Measurement.PostOutput.Value, START
TestParameter, Measurement.PostOutput.Retention, OFF
TestParameter, Measurement.Bias.Source, 3, 0, -2
TestParameter, Measurement.Bias.Compliance, 0.1, 0.1, 0.1
TestParameter, Measurement.Monitor.Unit, SMU3:MP, SMU1:MP, SMU4:MP
TestParameter, Measurement.Monitor.Adc, HR ADC, HR ADC, HR ADC
TestParameter, Measurement.Monitor.RangingMode, AUTO, AUTO, AUTO
TestParameter, Measurement.Monitor.RangeBoundary, , , 
TestParameter, Measurement.Monitor.RangeRating, BY FULL RANGE, BY FULL RANGE, BY FULL RANGE
TestParameter, Measurement.Monitor.RangeRatingCoeff, 50, 50, 50
TestParameter, Measurement.Timing.Hold, 0.5
TestParameter, Measurement.Timing.Delay, 0.05
TestParameter, Measurement.Adc.HighResolution.AutoZero, OFF
TestParameter, Measurement.Adc.HighResolution.Mode, AUTO
TestParameter, Measurement.Adc.HighResolution.Coeff, 1
TestParameter, Measurement.Ag16440ASelector.SemiconductorRelay.Channel1, DEFAULT
TestParameter, Measurement.Ag16440ASelector.SemiconductorRelay.Channel3, DEFAULT
TestParameter, Function.User.Name, absID, sqrtID, gm2, absIG
TestParameter, Function.User.Unit, A, A, A/V, A
TestParameter, Function.User.Definition, abs(ID), sqrt(abs(ID)), (delta(sqrtID)/delta(VG))^2, abs(IG)
TestParameter, Output.Graph.Enabled, true
TestParameter, Output.Graph.XAxis.Data, VG
TestParameter, Output.Graph.XAxis.Scale, Linear
TestParameter, Output.Graph.XAxis.Left, -5
TestParameter, Output.Graph.XAxis.Right, 7
TestParameter, Output.Graph.YAxis.Data, ID, absIG, gm2
TestParameter, Output.Graph.YAxis.Scale, Log, Log, Linear
TestParameter, Output.Graph.YAxis.Bottom, 1E-14, 1E-14, 0
TestParameter, Output.Graph.YAxis.Top, 0.01, 0.01, 1E-05
TestParameter, Output.Graph.YAxis.Group, , , 
TestParameter, Output.List.Data, VG, IG, VD, ID, VS, IS, sqrtID, gm2, absIG
TestParameter, AutoAnalysis.Interpolation, false
TestParameter, AutoAnalysis.Line1.Enabled, false
TestParameter, AutoAnalysis.Line1.Type, 1
TestParameter, AutoAnalysis.Line1.Fix, True
TestParameter, AutoAnalysis.Line1.YAxis, 0
TestParameter, AutoAnalysis.Line1.Point1.Type, 0
TestParameter, AutoAnalysis.Line1.Point1.XY.X, 
TestParameter, AutoAnalysis.Line1.Point1.XY.Y, 
TestParameter, AutoAnalysis.Line1.Point1.Data.Var, 
TestParameter, AutoAnalysis.Line1.Point1.Data.Condition, 
TestParameter, AutoAnalysis.Line1.Point1.Data.Start, false
TestParameter, AutoAnalysis.Line1.Point1.Data.StartVar, 
TestParameter, AutoAnalysis.Line1.Point1.Data.StartCondition, 
TestParameter, AutoAnalysis.Line1.Point2.Type, 0
TestParameter, AutoAnalysis.Line1.Point2.XY.X, 
TestParameter, AutoAnalysis.Line1.Point2.XY.Y, 
TestParameter, AutoAnalysis.Line1.Point2.Data.Var, 
TestParameter, AutoAnalysis.Line1.Point2.Data.Condition, 
TestParameter, AutoAnalysis.Line1.Point2.Data.Start, false
TestParameter, AutoAnalysis.Line1.Point2.Data.StartVar, 
TestParameter, AutoAnalysis.Line1.Point2.Data.StartCondition, 
TestParameter, AutoAnalysis.Line1.GradientExpr, 0
TestParameter, AutoAnalysis.Line2.Enabled, false
TestParameter, AutoAnalysis.Line2.Type, 1
TestParameter, AutoAnalysis.Line2.Fix, True
TestParameter, AutoAnalysis.Line2.YAxis, 0
TestParameter, AutoAnalysis.Line2.Point1.Type, 0
TestParameter, AutoAnalysis.Line2.Point1.XY.X, 
TestParameter, AutoAnalysis.Line2.Point1.XY.Y, 
TestParameter, AutoAnalysis.Line2.Point1.Data.Var, 
TestParameter, AutoAnalysis.Line2.Point1.Data.Condition, 
TestParameter, AutoAnalysis.Line2.Point1.Data.Start, false
TestParameter, AutoAnalysis.Line2.Point1.Data.StartVar, 
TestParameter, AutoAnalysis.Line2.Point1.Data.StartCondition, 
TestParameter, AutoAnalysis.Line2.Point2.Type, 0
TestParameter, AutoAnalysis.Line2.Point2.XY.X, 
TestParameter, AutoAnalysis.Line2.Point2.XY.Y, 
TestParameter, AutoAnalysis.Line2.Point2.Data.Var, 
TestParameter, AutoAnalysis.Line2.Point2.Data.Condition, 
TestParameter, AutoAnalysis.Line2.Point2.Data.Start, false
TestParameter, AutoAnalysis.Line2.Point2.Data.StartVar, 
TestParameter, AutoAnalysis.Line2.Point2.Data.StartCondition, 
TestParameter, AutoAnalysis.Line2.GradientExpr, 0
TestParameter, AutoAnalysis.Marker.Enabled, false
TestParameter, AutoAnalysis.Marker.Data.Var, 
TestParameter, AutoAnalysis.Marker.Data.Condition, 
TestParameter, AutoAnalysis.Marker.Data.Start, false
TestParameter, AutoAnalysis.Marker.Data.StartVar, 
TestParameter, AutoAnalysis.Marker.Data.StartCondition, 
MetaData, TestRecord.EntryPoint, true
MetaData, TestRecord.RecordTime, 05/02/2019 15:19:42
MetaData, TestRecord.TestTarget, 350-300-5-5
MetaData, TestRecord.IterationIndex, 3
MetaData, TestRecord.Preservation, true
MetaData, TestRecord.Flag, 
MetaData, TestRecord.Remarks, good
MetaData, TestRecord.LinkKey, 66205fb5-1719-4e92-ba42-3dd7ebacb30b
Dimension1, 101, 101, 101, 101, 101, 101, 101, 101, 101, 101
Dimension2, 1, 1, 1, 1, 1, 1, 1, 1, 1, 1
DataName, VG, VD, VS, ID, IS, IG, absID, sqrtID, gm2, absIG
DataValue, -2, 3, 0, 4.917E-12, -5.43E-13, 2.05E-13, 4.917E-12, 2.2174309459372124E-06, 1.742558634413696E-13, 2.05E-13
DataValue, -1.9500000000000002, 3, 0, 5.0100000000000007E-12, 1.7960000000000002E-12, -5.343E-12, 5.0100000000000007E-12, 2.2383029285599394E-06, 1.2808505392287337E-13, 5.343E-12
DataValue, -1.9000000000000001, 3, 0, 5.077E-12, -9.5000000000000012E-14, -3.77E-13, 5.077E-12, 2.2532199182503248E-06, 7.853595067551493E-12, 3.77E-13
DataValue, -1.85, 3, 0, 3.834E-12, 3.1110000000000004E-12, -5.08E-12, 3.834E-12, 1.9580602646496863E-06, 1.9863982690736224E-12, 5.08E-12
DataValue, -1.8, 3, 0, 5.732E-12, -6.032E-12, -1.0992000000000002E-11, 5.732E-12, 2.3941595602632669E-06, 4.6308018031689127E-11, 1.0992000000000002E-11
DataValue, -1.75, 3, 0, 6.9620000000000004E-12, -1.1750000000000001E-12, -1.0480000000000002E-12, 6.9620000000000004E-12, 2.6385602134497521E-06, 8.4858229223306829E-12, 1.0480000000000002E-12
DataValue, -1.7000000000000002, 3, 0, 4.422E-12, 3.4560000000000002E-12, -3.06E-13, 4.422E-12, 2.1028552018624585E-06, 1.604710161091507E-13, 3.06E-13
DataValue, -1.6500000000000001, 3, 0, 7.1750000000000004E-12, -5.997E-12, -1.4390000000000002E-11, 7.1750000000000004E-12, 2.678619047195775E-06, 1.1507064673563627E-14, 1.4390000000000002E-11
DataValue, -1.6, 3, 0, 4.3770000000000004E-12, -1.1410000000000001E-11, 2.8980000000000004E-12, 4.3770000000000004E-12, 2.0921281031523861E-06, 2.4665870119278269E-11, 2.8980000000000004E-12
DataValue, -1.55, 3, 0, 4.7610000000000004E-12, 1.203E-12, -9.27E-13, 4.7610000000000004E-12, 2.1819715855161816E-06, 3.45505629376719E-11, 9.27E-13
DataValue, -1.5, 3, 0, 7.1820000000000007E-12, -2.766E-12, -1.3991E-11, 7.1820000000000007E-12, 2.6799253720952756E-06, 3.0527432094536558E-12, 1.3991E-11
DataValue, -1.4500000000000002, 3, 0, 5.5540000000000008E-12, -9.417E-12, 1.833E-12, 5.5540000000000008E-12, 2.3566925976885488E-06, 8.576102208472257E-11, 1.833E-12
DataValue, -1.4000000000000001, 3, 0, 3.0760000000000002E-12, -5.8600000000000005E-12, 4.3340000000000007E-12, 3.0760000000000002E-12, 1.7538529014715002E-06, 1.6388629428891291E-11, 4.3340000000000007E-12
DataValue, -1.35, 3, 0, 7.626E-12, 9.23E-13, -8.3740000000000013E-12, 7.626E-12, 2.7615213198525193E-06, 3.0543265277397219E-11, 8.3740000000000013E-12
DataValue, -1.3, 3, 0, 5.3200000000000008E-12, -1.8570000000000003E-12, -6.3880000000000006E-12, 5.3200000000000008E-12, 2.3065125189341593E-06, 2.3785001605010632E-12, 6.3880000000000006E-12
DataValue, -1.25, 3, 0, 6.7980000000000007E-12, -3.931E-12, -1.186E-12, 6.7980000000000007E-12, 2.6072974513852464E-06, 3.8195127759493288E-11, 1.186E-12
DataValue, -1.2, 3, 0, 2.8510000000000003E-12, -4.2900000000000004E-13, -4.173E-12, 2.8510000000000003E-12, 1.6884904500766358E-06, 2.9915078273660993E-12, 4.173E-12
DataValue, -1.1500000000000001, 3, 0, 5.926E-12, -3.2240000000000004E-12, -2.11E-13, 5.926E-12, 2.4343376922686793E-06, 5.2468516021252626E-12, 2.11E-13
DataValue, -1.1, 3, 0, 3.6770000000000006E-12, -1.7120000000000002E-12, 1.602E-12, 3.6770000000000006E-12, 1.9175505208468434E-06, 6.4991382695903682E-13, 1.602E-12
DataValue, -1.05, 3, 0, 5.54E-12, -8.8E-14, -4.092E-12, 5.54E-12, 2.353720459187964E-06, 2.4947271971218542E-11, 4.092E-12
DataValue, -1, 3, 0, 5.842E-12, -2.7630000000000002E-12, -6.771E-12, 5.842E-12, 2.4170229622409465E-06, 5.9479595695274954E-13, 6.771E-12
DataValue, -0.95000000000000007, 3, 0, 5.9090000000000008E-12, -4.8440000000000008E-12, -3.962E-12, 5.9090000000000008E-12, 2.4308434750102689E-06, 8.64102566811884E-13, 3.962E-12
DataValue, -0.9, 3, 0, 6.3E-12, -1.1500000000000002E-12, -2.907E-12, 6.3E-12, 2.5099800796022268E-06, 1.218600451197698E-11, 2.907E-12
DataValue, -0.85000000000000009, 3, 0, 7.728000000000001E-12, -3.4030000000000003E-12, -2.318E-12, 7.728000000000001E-12, 2.779928056623049E-06, 5.75798673326661E-12, 2.318E-12
DataValue, -0.8, 3, 0, 5.153E-12, -1.652E-12, -1.8480000000000002E-12, 5.153E-12, 2.2700220263248549E-06, 2.665684221795553E-11, 1.8480000000000002E-12
DataValue, -0.75, 3, 0, 5.124E-12, -2.737E-12, -4.275E-12, 5.124E-12, 2.2636254107073461E-06, 1.7949989561586709E-11, 4.275E-12
DataValue, -0.70000000000000007, 3, 0, 3.409E-12, -4.638E-12, -1.53E-13, 3.409E-12, 1.846347746227671E-06, 3.813925776338785E-12, 1.53E-13
DataValue, -0.65, 3, 0, 4.278E-12, -3.0490000000000004E-12, 1E-15, 4.278E-12, 2.0683326618317469E-06, 1.3971700903170786E-11, 1E-15
DataValue, -0.6, 3, 0, 4.9290000000000005E-12, -4.2800000000000004E-13, -3.4040000000000004E-12, 4.9290000000000005E-12, 2.2201351310224339E-06, 1.2187360079883814E-11, 3.4040000000000004E-12
DataValue, -0.55, 3, 0, 5.8440000000000005E-12, -2.94E-13, -7.959E-12, 5.8440000000000005E-12, 2.4174366589426911E-06, 9.395619047683743E-12, 7.959E-12
DataValue, -0.5, 3, 0, 6.384E-12, -3.564E-12, -4.5710000000000006E-12, 6.384E-12, 2.5266578715766012E-06, 8.4037983930485827E-14, 4.5710000000000006E-12
DataValue, -0.45, 3, 0, 5.9850000000000009E-12, -3.3820000000000003E-12, -2.2700000000000002E-12, 5.9850000000000009E-12, 2.4464259645450138E-06, 2.2801743120733227E-11, 2.2700000000000002E-12
DataValue, -0.4, 3, 0, 4.199E-12, -3.1720000000000002E-12, 1.73E-12, 4.199E-12, 2.0491461636496309E-06, 4.5387268941125337E-12, 1.73E-12
DataValue, -0.35000000000000003, 3, 0, 4.988E-12, -1.9650000000000002E-12, 3.737E-12, 4.988E-12, 2.2333830840229806E-06, 4.6285995786292538E-12, 3.737E-12
DataValue, -0.3, 3, 0, 5.127E-12, -3.06E-13, -4.397E-12, 5.127E-12, 2.2642879675518307E-06, 2.6305319160468528E-11, 4.397E-12
DataValue, -0.25, 3, 0, 7.542E-12, -4.189E-12, -6.2270000000000008E-12, 7.542E-12, 2.7462701979229941E-06, 1.7694664048671921E-11, 6.2270000000000008E-12
DataValue, -0.2, 3, 0, 3.3990000000000004E-12, -7.953E-12, -1.76E-13, 3.3990000000000004E-12, 1.8436377084449104E-06, 1.9080303834564696E-11, 1.76E-13
DataValue, -0.15, 3, 0, 1.0132000000000001E-11, -1.0903E-11, 3.9270000000000005E-12, 1.0132000000000001E-11, 3.1830802691732423E-06, 6.6210929635466714E-10, 3.9270000000000005E-12
DataValue, -0.1, 3, 0, 1.9508E-11, -1.8162000000000003E-11, 5.12E-13, 1.9508E-11, 4.4167861619055094E-06, 9.3185094999696542E-10, 5.12E-13
DataValue, -0.05, 3, 0, 3.8884E-11, -3.3219E-11, -5.1650000000000007E-12, 3.8884E-11, 6.2357036491481862E-06, 1.6600619029858132E-09, 5.1650000000000007E-12
DataValue, 0, 3, 0, 7.21E-11, -6.9317E-11, -3.5120000000000004E-12, 7.21E-11, 8.4911718861415121E-06, 3.5056563776524776E-09, 3.5120000000000004E-12
DataValue, 0.05, 3, 0, 1.4778200000000002E-10, -1.34534E-10, 4.3560000000000004E-12, 1.4778200000000002E-10, 1.2156562013990634E-05, 6.6351201435661418E-09, 4.3560000000000004E-12
DataValue, 0.1, 3, 0, 2.76783E-10, -2.5976600000000004E-10, -6.655E-12, 2.76783E-10, 1.663679656664708E-05, 9.8390857322402069E-09, 6.655E-12
DataValue, 0.15, 3, 0, 4.8734E-10, -4.68624E-10, -2.6930000000000003E-12, 4.8734E-10, 2.2075778581966254E-05, 1.575643815299256E-08, 2.6930000000000003E-12
DataValue, 0.2, 3, 0, 8.5201300000000006E-10, -8.1660100000000006E-10, -3.1360000000000004E-12, 8.5201300000000006E-10, 2.91892617241341E-05, 1.8566902330819648E-08, 3.1360000000000004E-12
DataValue, 0.25, 3, 0, 1.27462E-09, -1.21221E-09, -2.7560000000000004E-12, 1.27462E-09, 3.5701820681864395E-05, 2.5215384001776987E-08, 2.7560000000000004E-12
DataValue, 0.3, 3, 0, 2.03118E-09, -1.98109E-09, 9.23E-13, 2.03118E-09, 4.50686143563345E-05, 3.5343708260422491E-08, 9.23E-13
DataValue, 0.35000000000000003, 3, 0, 2.97044E-09, -2.9332E-09, 8.3400000000000008E-13, 2.97044E-09, 5.4501743091391119E-05, 3.0565683781168888E-08, 8.3400000000000008E-13
DataValue, 0.4, 3, 0, 3.91271E-09, -3.89687E-09, 6.7200000000000004E-12, 3.91271E-09, 6.2551658651070158E-05, 3.0781650731425382E-08, 6.7200000000000004E-12
DataValue, 0.45, 3, 0, 5.19069E-09, -5.12041E-09, -3.3370000000000004E-12, 5.19069E-09, 7.2046443354269754E-05, 3.1505003730853E-08, 3.3370000000000004E-12
DataValue, 0.5, 3, 0, 6.4483E-09, -6.46011E-09, 1.835E-12, 6.4483E-09, 8.0301307585866868E-05, 2.9587321659894979E-08, 1.835E-12
DataValue, 0.55, 3, 0, 7.9651E-09, -7.76944E-09, -7.51E-12, 7.9651E-09, 8.924740892597386E-05, 2.7003732856499181E-08, 7.51E-12
DataValue, 0.6, 3, 0, 9.35749E-09, -9.01019E-09, -8.4290000000000013E-12, 9.35749E-09, 9.6734120143825158E-05, 1.1764758042414783E-08, 8.4290000000000013E-12
DataValue, 0.65, 3, 0, 1.00188E-08, -9.9705999999999986E-09, -7.563E-12, 1.00188E-08, 0.00010009395586148047, 1.8396053800243673E-08, 7.563E-12
DataValue, 0.70000000000000007, 3, 0, 1.2165499999999999E-08, -1.18103E-08, -9.3700000000000015E-13, 1.2165499999999999E-08, 0.00011029732544354827, 2.759613718105074E-08, 9.3700000000000015E-13
DataValue, 0.75, 3, 0, 1.3620299999999999E-08, -1.3488599999999999E-08, 4.7470000000000007E-12, 1.3620299999999999E-08, 0.00011670604097474988, 2.7838778292116902E-08, 4.7470000000000007E-12
DataValue, 0.8, 3, 0, 1.61245E-08, -1.52435E-08, 4.0530000000000006E-12, 1.61245E-08, 0.00012698228222866368, 1.7202315953627354E-08, 4.0530000000000006E-12
DataValue, 0.85000000000000009, 3, 0, 1.6853699999999997E-08, -1.7010599999999997E-08, 1.7800000000000002E-13, 1.6853699999999997E-08, 0.00012982180094267678, 2.6455205694794852E-08, 1.7800000000000002E-13
DataValue, 0.9, 3, 0, 2.0519799999999997E-08, -1.96512E-08, -3.892E-12, 2.0519799999999997E-08, 0.0001432473385442117, 3.3613043866577089E-08, 3.892E-12
DataValue, 0.95000000000000007, 3, 0, 2.1950099999999997E-08, -2.17801E-08, -2.1540000000000003E-12, 2.1950099999999997E-08, 0.00014815566138355968, 1.7732614944123785E-08, 2.1540000000000003E-12
DataValue, 1, 3, 0, 2.45122E-08, -2.41018E-08, 9.7900000000000017E-13, 2.45122E-08, 0.00015656372504510742, 3.5869412396196638E-08, 9.7900000000000017E-13
DataValue, 1.05, 3, 0, 2.7920699999999996E-08, -2.6333299999999998E-08, 4.1500000000000005E-13, 2.7920699999999996E-08, 0.00016709488322507065, 4.076498852909527E-08, 4.1500000000000005E-13
DataValue, 1.1, 3, 0, 3.1241999999999996E-08, -2.9786499999999997E-08, -1.4670000000000001E-12, 3.1241999999999996E-08, 0.00017675406643129883, 3.4237354486658456E-08, 1.4670000000000001E-12
DataValue, 1.1500000000000001, 3, 0, 3.4446699999999994E-08, -3.3718899999999994E-08, 1.694E-12, 3.4446699999999994E-08, 0.00018559822197424197, 4.6750393747114639E-08, 1.694E-12
DataValue, 1.2, 3, 0, 3.9352999999999995E-08, -3.8168099999999994E-08, 3.5980000000000002E-12, 3.9352999999999995E-08, 0.00019837590579503347, 5.6413306123861431E-08, 3.5980000000000002E-12
DataValue, 1.25, 3, 0, 4.3827299999999996E-08, -4.2642299999999995E-08, 7.6900000000000006E-13, 4.3827299999999996E-08, 0.00020934970742754811, 3.9872457254551385E-08, 7.6900000000000006E-13
DataValue, 1.3, 3, 0, 4.7674099999999993E-08, -4.8207299999999993E-08, -3.867E-12, 4.7674099999999993E-08, 0.00021834399465064293, 4.3709798964406634E-08, 3.867E-12
DataValue, 1.35, 3, 0, 5.30181E-08, -5.36853E-08, 1.0412E-11, 5.30181E-08, 0.0002302565959967271, 7.7069924691522387E-08, 1.0412E-11
DataValue, 1.4000000000000001, 3, 0, 6.05679E-08, -5.8668799999999997E-08, 1.6113E-11, 6.05679E-08, 0.00024610546519734174, 7.7685139967141688E-08, 1.6113E-11
DataValue, 1.4500000000000002, 3, 0, 6.663039999999999E-08, -6.5260499999999991E-08, 2.5330000000000002E-12, 6.663039999999999E-08, 0.00025812865009525773, 6.2216516748060693E-08, 2.5330000000000002E-12
DataValue, 1.5, 3, 0, 7.3467399999999987E-08, -7.3537899999999988E-08, -1.1695000000000001E-11, 7.3467399999999987E-08, 0.00027104870411053433, 8.36293104035985E-08, 1.1695000000000001E-11
DataValue, 1.55, 3, 0, 8.239619999999999E-08, -8.1120999999999989E-08, -1.1574E-11, 8.239619999999999E-08, 0.00028704738284819804, 1.196681161898518E-07, 1.1574E-11
DataValue, 1.6, 3, 0, 9.341689999999999E-08, -9.0531399999999987E-08, -2.6420000000000003E-12, 9.341689999999999E-08, 0.00030564178379272684, 9.3791541798991925E-08, 2.6420000000000003E-12
DataValue, 1.6500000000000001, 3, 0, 1.00916E-07, -9.8521E-08, -1.556E-12, 1.00916E-07, 0.00031767278762903189, 1.2144554776626816E-07, 1.556E-12
DataValue, 1.7000000000000002, 3, 0, 1.15934E-07, -1.13153E-07, -5.793E-12, 1.15934E-07, 0.00034049082219642866, 1.7057518679661968E-07, 5.793E-12
DataValue, 1.75, 3, 0, 1.28862E-07, -1.26483E-07, -9.36E-13, 1.28862E-07, 0.00035897353662909474, 1.5125542674310227E-07, 9.36E-13
DataValue, 1.8, 3, 0, 1.43931E-07, -1.42094E-07, 3.967E-12, 1.43931E-07, 0.00037938239284394839, 1.6292051758127644E-07, 3.967E-12
DataValue, 1.85, 3, 0, 1.5946999999999999E-07, -1.58059E-07, 1.859E-12, 1.5946999999999999E-07, 0.00039933695045662879, 1.819998782132952E-07, 1.859E-12
DataValue, 1.9000000000000001, 3, 0, 1.7812099999999998E-07, -1.78032E-07, 9.227E-12, 1.7812099999999998E-07, 0.00042204383658572716, 2.5425895796471719E-07, 9.227E-12
DataValue, 1.9500000000000002, 3, 0, 2.02285E-07, -1.9847699999999999E-07, 2.8100000000000003E-12, 2.02285E-07, 0.00044976104766864813, 2.4863121739174966E-07, 2.8100000000000003E-12
DataValue, 2, 3, 0, 2.22696E-07, -2.22577E-07, 5.824E-12, 2.22696E-07, 0.00047190677045365646, 2.9028078246190708E-07, 5.824E-12
DataValue, 2.05, 3, 0, 2.53652E-07, -2.50529E-07, 9.841E-12, 2.53652E-07, 0.00050363875942981194, 3.0438417420240644E-07, 9.841E-12
DataValue, 2.1, 3, 0, 2.77811E-07, -2.74163E-07, 6.6950000000000009E-12, 2.77811E-07, 0.00052707779311976326, 2.3546038062761679E-07, 6.6950000000000009E-12
DataValue, 2.15, 3, 0, 3.04884E-07, -3.00664E-07, 4.454E-12, 3.04884E-07, 0.00055216301940640687, 3.0586698311096564E-07, 4.454E-12
DataValue, 2.2, 3, 0, 3.3917E-07, -3.32793E-07, 1.0741E-11, 3.3917E-07, 0.00058238303546720861, 3.1719808204013527E-07, 1.0741E-11
DataValue, 2.25, 3, 0, 3.7025199999999997E-07, -3.6585799999999997E-07, 1.2657000000000002E-11, 3.7025199999999997E-07, 0.00060848336049558493, 3.9677054601565724E-07, 1.2657000000000002E-11
DataValue, 2.3000000000000003, 3, 0, 4.16506E-07, -4.12459E-07, 1.4835E-11, 4.16506E-07, 0.00064537276050357132, 5.2799793716744433E-07, 1.4835E-11
DataValue, 2.35, 3, 0, 4.63961E-07, -4.61764E-07, 1.6834E-11, 4.63961E-07, 0.00068114682704979257, 5.2446112979195383E-07, 1.6834E-11
