
SetupTitle, Transfer stab
PrimitiveTest, I/V Sweep
TestParameter, Context.MainFrame, 4155C
TestParameter, Channel.UnitType, SMU, SMU, SMU
TestParameter, Channel.Unit, SMU3:MP, SMU1:MP, SMU4:MP
TestParameter, Channel.IName, ID, IS, IG
TestParameter, Channel.VName, VD, VS, VG
TestParameter, Channel.Mode, V, COMMON, V
TestParameter, Channel.Func, CONST, CONST, VAR1
TestParameter, Channel.Index, 
TestParameter, Channel.Time, 
TestParameter, Measurement.Port.Unit, SMU3:MP, SMU1:MP, SMU4:MP
TestParameter, Measurement.Port.SeriesResistor, NONE, NONE, NONE
TestParameter, Measurement.Port.Filter, ON, ON, ON
TestParameter, Measurement.Primary.Locus, Single
TestParameter, Measurement.Primary.Scale, LINEAR
TestParameter, Measurement.Primary.Start, -2
TestParameter, Measurement.Primary.Stop, 3
TestParameter, Measurement.Primary.Step, 0.05
TestParameter, Measurement.Primary.Compliance, 0.1
TestParameter, Measurement.Primary.PowerCompliance, 0
TestParameter, Measurement.Aborting.Condition, CONTINUE AT ANY
TestParameter, Measurement.PostOutput.Value, START
TestParameter, Measurement.PostOutput.Retention, OFF
TestParameter, Measurement.Bias.Source, 3, 0, -2
TestParameter, Measurement.Bias.Compliance, 0.1, 0.1, 0.1
TestParameter, Measurement.Monitor.Unit, SMU3:MP, SMU1:MP, SMU4:MP
TestParameter, Measurement.Monitor.Adc, HR ADC, HR ADC, HR ADC
TestParameter, Measurement.Monitor.RangingMode, AUTO, AUTO, AUTO
TestParameter, Measurement.Monitor.RangeBoundary, , , 
TestParameter, Measurement.Monitor.RangeRating, BY FULL RANGE, BY FULL RANGE, BY FULL RANGE
TestParameter, Measurement.Monitor.RangeRatingCoeff, 50, 50, 50
TestParameter, Measurement.Timing.Hold, 0.5
TestParameter, Measurement.Timing.Delay, 0.05
TestParameter, Measurement.Adc.HighResolution.AutoZero, OFF
TestParameter, Measurement.Adc.HighResolution.Mode, AUTO
TestParameter, Measurement.Adc.HighResolution.Coeff, 1
TestParameter, Measurement.Ag16440ASelector.SemiconductorRelay.Channel1, DEFAULT
TestParameter, Measurement.Ag16440ASelector.SemiconductorRelay.Channel3, DEFAULT
TestParameter, Function.User.Name, absID, sqrtID, gm2, absIG
TestParameter, Function.User.Unit, A, A, A/V, A
TestParameter, Function.User.Definition, abs(ID), sqrt(abs(ID)), (delta(sqrtID)/delta(VG))^2, abs(IG)
TestParameter, Output.Graph.Enabled, true
TestParameter, Output.Graph.XAxis.Data, VG
TestParameter, Output.Graph.XAxis.Scale, Linear
TestParameter, Output.Graph.XAxis.Left, -5
TestParameter, Output.Graph.XAxis.Right, 7
TestParameter, Output.Graph.YAxis.Data, ID, absIG, gm2
TestParameter, Output.Graph.YAxis.Scale, Log, Log, Linear
TestParameter, Output.Graph.YAxis.Bottom, 1E-14, 1E-14, 0
TestParameter, Output.Graph.YAxis.Top, 0.01, 0.01, 1E-05
TestParameter, Output.Graph.YAxis.Group, , , 
TestParameter, Output.List.Data, VG, IG, VD, ID, VS, IS, sqrtID, gm2, absIG
TestParameter, AutoAnalysis.Interpolation, false
TestParameter, AutoAnalysis.Line1.Enabled, false
TestParameter, AutoAnalysis.Line1.Type, 1
TestParameter, AutoAnalysis.Line1.Fix, True
TestParameter, AutoAnalysis.Line1.YAxis, 0
TestParameter, AutoAnalysis.Line1.Point1.Type, 0
TestParameter, AutoAnalysis.Line1.Point1.XY.X, 
TestParameter, AutoAnalysis.Line1.Point1.XY.Y, 
TestParameter, AutoAnalysis.Line1.Point1.Data.Var, 
TestParameter, AutoAnalysis.Line1.Point1.Data.Condition, 
TestParameter, AutoAnalysis.Line1.Point1.Data.Start, false
TestParameter, AutoAnalysis.Line1.Point1.Data.StartVar, 
TestParameter, AutoAnalysis.Line1.Point1.Data.StartCondition, 
TestParameter, AutoAnalysis.Line1.Point2.Type, 0
TestParameter, AutoAnalysis.Line1.Point2.XY.X, 
TestParameter, AutoAnalysis.Line1.Point2.XY.Y, 
TestParameter, AutoAnalysis.Line1.Point2.Data.Var, 
TestParameter, AutoAnalysis.Line1.Point2.Data.Condition, 
TestParameter, AutoAnalysis.Line1.Point2.Data.Start, false
TestParameter, AutoAnalysis.Line1.Point2.Data.StartVar, 
TestParameter, AutoAnalysis.Line1.Point2.Data.StartCondition, 
TestParameter, AutoAnalysis.Line1.GradientExpr, 0
TestParameter, AutoAnalysis.Line2.Enabled, false
TestParameter, AutoAnalysis.Line2.Type, 1
TestParameter, AutoAnalysis.Line2.Fix, True
TestParameter, AutoAnalysis.Line2.YAxis, 0
TestParameter, AutoAnalysis.Line2.Point1.Type, 0
TestParameter, AutoAnalysis.Line2.Point1.XY.X, 
TestParameter, AutoAnalysis.Line2.Point1.XY.Y, 
TestParameter, AutoAnalysis.Line2.Point1.Data.Var, 
TestParameter, AutoAnalysis.Line2.Point1.Data.Condition, 
TestParameter, AutoAnalysis.Line2.Point1.Data.Start, false
TestParameter, AutoAnalysis.Line2.Point1.Data.StartVar, 
TestParameter, AutoAnalysis.Line2.Point1.Data.StartCondition, 
TestParameter, AutoAnalysis.Line2.Point2.Type, 0
TestParameter, AutoAnalysis.Line2.Point2.XY.X, 
TestParameter, AutoAnalysis.Line2.Point2.XY.Y, 
TestParameter, AutoAnalysis.Line2.Point2.Data.Var, 
TestParameter, AutoAnalysis.Line2.Point2.Data.Condition, 
TestParameter, AutoAnalysis.Line2.Point2.Data.Start, false
TestParameter, AutoAnalysis.Line2.Point2.Data.StartVar, 
TestParameter, AutoAnalysis.Line2.Point2.Data.StartCondition, 
TestParameter, AutoAnalysis.Line2.GradientExpr, 0
TestParameter, AutoAnalysis.Marker.Enabled, false
TestParameter, AutoAnalysis.Marker.Data.Var, 
TestParameter, AutoAnalysis.Marker.Data.Condition, 
TestParameter, AutoAnalysis.Marker.Data.Start, false
TestParameter, AutoAnalysis.Marker.Data.StartVar, 
TestParameter, AutoAnalysis.Marker.Data.StartCondition, 
MetaData, TestRecord.EntryPoint, true
MetaData, TestRecord.RecordTime, 05/02/2019 14:43:55
MetaData, TestRecord.TestTarget, 350-300-20-10
MetaData, TestRecord.IterationIndex, 3
MetaData, TestRecord.Preservation, true
MetaData, TestRecord.Flag, 
MetaData, TestRecord.Remarks, good
MetaData, TestRecord.LinkKey, 48486fef-ce65-44a2-bd78-65387f64602a
Dimension1, 101, 101, 101, 101, 101, 101, 101, 101, 101, 101
Dimension2, 1, 1, 1, 1, 1, 1, 1, 1, 1, 1
DataName, VG, VD, VS, ID, IS, IG, absID, sqrtID, gm2, absIG
DataValue, -2, 3, 0, 1.2640000000000001E-11, -2.962E-12, -9.634E-12, 1.2640000000000001E-11, 3.5552777669262357E-06, 2.5244520997251608E-13, 9.634E-12
DataValue, -1.9500000000000002, 3, 0, 1.2462000000000001E-11, -3.07E-12, -9.092E-12, 1.2462000000000001E-11, 3.5301558039270733E-06, 2.2967227751010553E-11, 9.092E-12
DataValue, -1.9000000000000001, 3, 0, 9.4620000000000015E-12, -3.0150000000000004E-12, -9.4930000000000008E-12, 9.4620000000000015E-12, 3.07603641070778E-06, 4.7530192126593012E-13, 9.4930000000000008E-12
DataValue, -1.85, 3, 0, 1.198E-11, -2.3710000000000003E-12, -8.5290000000000013E-12, 1.198E-11, 3.461213659975356E-06, 1.5261703818304821E-11, 8.5290000000000013E-12
DataValue, -1.8, 3, 0, 1.2018000000000002E-11, -3.0190000000000004E-12, -8.553E-12, 1.2018000000000002E-11, 3.4666987178005534E-06, 1.6341509651596838E-15, 8.553E-12
DataValue, -1.75, 3, 0, 1.2008000000000001E-11, -3.208E-12, -9.135000000000001E-12, 1.2008000000000001E-11, 3.4652561232901675E-06, 6.5599427803177038E-13, 9.135000000000001E-12
DataValue, -1.7000000000000002, 3, 0, 1.1463000000000002E-11, -3.584E-12, -7.64E-12, 1.1463000000000002E-11, 3.3857052441108931E-06, 8.0296003606792556E-13, 7.64E-12
DataValue, -1.6500000000000001, 3, 0, 1.1395000000000001E-11, -2.933E-12, -8.344E-12, 1.1395000000000001E-11, 3.37564808592365E-06, 2.0184057686419476E-14, 8.344E-12
DataValue, -1.6, 3, 0, 1.1367E-11, -3.3570000000000003E-12, -8.078E-12, 1.1367E-11, 3.3714981833007116E-06, 1.4426144735377006E-11, 8.078E-12
DataValue, -1.55, 3, 0, 8.975E-12, -3.0980000000000003E-12, -8.2420000000000014E-12, 8.975E-12, 2.9958304357890486E-06, 7.3142957998766756E-13, 8.2420000000000014E-12
DataValue, -1.5, 3, 0, 1.1951E-11, -3.6510000000000005E-12, -8.001E-12, 1.1951E-11, 3.4570218396764577E-06, 1.2160380151138412E-11, 8.001E-12
DataValue, -1.4500000000000002, 3, 0, 1.1186E-11, -3.986E-12, -7.3930000000000013E-12, 1.1186E-11, 3.3445478020204765E-06, 1.3228784618133062E-12, 7.3930000000000013E-12
DataValue, -1.4000000000000001, 3, 0, 1.1169000000000001E-11, -3.786E-12, -7.668E-12, 1.1169000000000001E-11, 3.3420053859920694E-06, 1.6311648320584443E-12, 7.668E-12
DataValue, -1.35, 3, 0, 1.0348E-11, -3.8320000000000006E-12, -6.9460000000000005E-12, 1.0348E-11, 3.2168307384753712E-06, 8.5928760878045919E-13, 6.9460000000000005E-12
DataValue, -1.3, 3, 0, 1.0558000000000001E-11, -3.602E-12, -7.8450000000000014E-12, 1.0558000000000001E-11, 3.2493076185550669E-06, 2.0315731532353123E-11, 7.8450000000000014E-12
DataValue, -1.25, 3, 0, 1.3451000000000002E-11, -3.662E-12, -5.942E-12, 1.3451000000000002E-11, 3.6675604971152147E-06, 5.5346362462017245E-13, 5.942E-12
DataValue, -1.2, 3, 0, 1.1047E-11, -3.7400000000000006E-12, -8.2350000000000012E-12, 1.1047E-11, 3.3237027544592491E-06, 2.5355662264269892E-11, 8.2350000000000012E-12
DataValue, -1.1500000000000001, 3, 0, 1.0011E-11, -3.8870000000000007E-12, -6.021E-12, 1.0011E-11, 3.1640164348498572E-06, 1.1002767605181255E-11, 6.021E-12
DataValue, -1.1, 3, 0, 1.3362E-11, -4.462E-12, -6.807E-12, 1.3362E-11, 3.6554069540886964E-06, 4.66872480670851E-12, 6.807E-12
DataValue, -1.05, 3, 0, 1.1425E-11, -2.081E-12, -6.5560000000000007E-12, 1.1425E-11, 3.3800887562311141E-06, 1.7990604514302816E-11, 6.5560000000000007E-12
DataValue, -1, 3, 0, 1.0441E-11, -5.3810000000000006E-12, -6.282E-12, 1.0441E-11, 3.2312536266904212E-06, 4.9570037062814338E-13, 6.282E-12
DataValue, -0.95000000000000007, 3, 0, 1.0954E-11, -4.215E-12, -6.6350000000000007E-12, 1.0954E-11, 3.309682764254E-06, 2.2457371929021797E-12, 6.6350000000000007E-12
DataValue, -0.9, 3, 0, 9.495E-12, -4.4030000000000005E-12, -5.48E-12, 9.495E-12, 3.0813957876261207E-06, 2.0906254292330129E-12, 5.48E-12
DataValue, -0.85000000000000009, 3, 0, 1.1932E-11, -4.281E-12, -5.9470000000000004E-12, 1.1932E-11, 3.4542727165063269E-06, 2.1629979315322332E-12, 5.9470000000000004E-12
DataValue, -0.8, 3, 0, 1.0423000000000001E-11, -4.3870000000000006E-12, -5.595E-12, 1.0423000000000001E-11, 3.2284671285301946E-06, 3.65365571303572E-12, 5.595E-12
DataValue, -0.75, 3, 0, 1.0648E-11, -4.147E-12, -4.8970000000000006E-12, 1.0648E-11, 3.2631273343220919E-06, 1.8829867291860009E-15, 4.8970000000000006E-12
DataValue, -0.70000000000000007, 3, 0, 1.0395E-11, -4.4630000000000007E-12, -5.6460000000000008E-12, 1.0395E-11, 3.2241277890307016E-06, 1.0043503582321486E-12, 5.6460000000000008E-12
DataValue, -0.65, 3, 0, 1.0004000000000001E-11, -4E-12, -6.4220000000000007E-12, 1.0004000000000001E-11, 3.1629100524675061E-06, 2.7037890589567178E-13, 6.4220000000000007E-12
DataValue, -0.6, 3, 0, 1.0733000000000001E-11, -5.054E-12, -5.861E-12, 1.0733000000000001E-11, 3.2761257607118809E-06, 8.7247671867175826E-15, 5.861E-12
DataValue, -0.55, 3, 0, 9.9450000000000009E-12, -4.825E-12, -5.422E-12, 9.9450000000000009E-12, 3.1535694062442957E-06, 9.2675134958073332E-12, 5.422E-12
DataValue, -0.5, 3, 0, 8.831E-12, -4.8740000000000004E-12, -4.2400000000000005E-12, 8.831E-12, 2.97169985025406E-06, 1.8028753149052465E-13, 4.2400000000000005E-12
DataValue, -0.45, 3, 0, 9.679E-12, -5.359E-12, -4.7310000000000007E-12, 9.679E-12, 3.1111091269834942E-06, 5.9784699093760846E-12, 4.7310000000000007E-12
DataValue, -0.4, 3, 0, 1.0344E-11, -4.722E-12, -4.186E-12, 1.0344E-11, 3.216208948436031E-06, 7.49980058874746E-12, 4.186E-12
DataValue, -0.35000000000000003, 3, 0, 1.1458E-11, -5.017E-12, -4.096E-12, 1.1458E-11, 3.3849667649771689E-06, 1.1566832729748054E-11, 4.096E-12
DataValue, -0.3, 3, 0, 8.272E-12, -5.0730000000000007E-12, -4.725E-12, 8.272E-12, 2.8761084819596079E-06, 2.9914486256900332E-12, 4.725E-12
DataValue, -0.25, 3, 0, 1.0317000000000001E-11, -5.117E-12, -3.915E-12, 1.0317000000000001E-11, 3.2120087172982582E-06, 4.4984237791275839E-12, 3.915E-12
DataValue, -0.2, 3, 0, 9.537E-12, -5.432E-12, -4.0660000000000006E-12, 9.537E-12, 3.0882033611794415E-06, 4.7136428846773482E-14, 4.0660000000000006E-12
DataValue, -0.15, 3, 0, 1.0178000000000001E-11, -5.135E-12, -3.179E-12, 1.0178000000000001E-11, 3.1902977917429592E-06, 4.2198106441578811E-13, 3.179E-12
DataValue, -0.1, 3, 0, 9.14E-12, -5.2990000000000007E-12, -3.8110000000000006E-12, 9.14E-12, 3.0232432915661947E-06, 6.9265381764402279E-12, 3.8110000000000006E-12
DataValue, -0.05, 3, 0, 8.5680000000000015E-12, -6.1300000000000007E-12, -4.4950000000000005E-12, 8.5680000000000015E-12, 2.9271146202361125E-06, 2.1704666545427482E-11, 4.4950000000000005E-12
DataValue, 0, 3, 0, 1.2174E-11, -8.0510000000000011E-12, -3.518E-12, 1.2174E-11, 3.4891259650519928E-06, 1.187771730993935E-10, 3.518E-12
DataValue, 0.05, 3, 0, 1.6136E-11, -1.2430000000000001E-11, -3.46E-12, 1.6136E-11, 4.0169640277204378E-06, 3.3957616719542069E-10, 3.46E-12
DataValue, 0.1, 3, 0, 2.8429000000000003E-11, -2.3356000000000002E-11, -3.301E-12, 2.8429000000000003E-11, 5.3318852200699148E-06, 1.3929536881701997E-09, 3.301E-12
DataValue, 0.15, 3, 0, 6.005E-11, -5.3888E-11, -2.899E-12, 6.005E-11, 7.74919350642375E-06, 4.0169580840280336E-09, 2.899E-12
DataValue, 0.2, 3, 0, 1.36185E-10, -1.27955E-10, -2.7880000000000002E-12, 1.36185E-10, 1.1669832903688039E-05, 9.6709405061710985E-09, 2.7880000000000002E-12
DataValue, 0.25, 3, 0, 3.0917200000000005E-10, -2.93343E-10, -2.9810000000000003E-12, 3.0917200000000005E-10, 1.7583287519687554E-05, 1.9983580186934517E-08, 2.9810000000000003E-12
DataValue, 0.3, 3, 0, 6.65958E-10, -6.3657600000000006E-10, -2.9810000000000003E-12, 6.65958E-10, 2.5806162054827138E-05, 3.1812998201804436E-08, 2.9810000000000003E-12
DataValue, 0.35000000000000003, 3, 0, 1.25454E-09, -1.19664E-09, -2.7600000000000004E-12, 1.25454E-09, 3.5419486162280783E-05, 5.5593857397263996E-08, 2.7600000000000004E-12
DataValue, 0.4, 3, 0, 2.43883E-09, -2.38518E-09, -4.64E-13, 2.43883E-09, 4.9384511742043171E-05, 9.4505557847903929E-08, 4.64E-13
DataValue, 0.45, 3, 0, 4.37731E-09, -4.28965E-09, -1.191E-12, 4.37731E-09, 6.616124243089756E-05, 1.2486057394856764E-07, 1.191E-12
DataValue, 0.5, 3, 0, 7.1775E-09, -7.07103E-09, -3.5820000000000003E-12, 7.1775E-09, 8.4720127478657637E-05, 1.3431684688338371E-07, 3.5820000000000003E-12
DataValue, 0.55, 3, 0, 1.057E-08, -1.02709E-08, -9.8900000000000013E-13, 1.057E-08, 0.000102810505299799, 1.6658095286473068E-07, 9.8900000000000013E-13
DataValue, 0.6, 3, 0, 1.5758899999999997E-08, -1.56122E-08, -1.883E-12, 1.5758899999999997E-08, 0.00012553445742106029, 2.2445843093198591E-07, 1.883E-12
DataValue, 0.65, 3, 0, 2.2556299999999997E-08, -2.2350299999999998E-08, -1.842E-12, 2.2556299999999997E-08, 0.00015018754941738678, 2.5470577295806451E-07, 1.842E-12
DataValue, 0.70000000000000007, 3, 0, 3.0977E-08, -3.06929E-08, -2.0740000000000003E-12, 3.0977E-08, 0.00017600284088616297, 2.7687600725696385E-07, 2.0740000000000003E-12
DataValue, 0.75, 3, 0, 4.11305E-08, -4.0825199999999994E-08, -8.8600000000000006E-13, 4.11305E-08, 0.00020280655807936783, 2.931109674244359E-07, 8.8600000000000006E-13
DataValue, 0.8, 3, 0, 5.29656E-08, -5.26145E-08, -6.0100000000000006E-13, 5.29656E-08, 0.00023014256451165221, 3.2109245285082149E-07, 6.0100000000000006E-13
DataValue, 0.85000000000000009, 3, 0, 6.732549999999999E-08, -6.6593399999999988E-08, -5.3100000000000006E-13, 6.732549999999999E-08, 0.00025947157840503453, 3.4526985935956108E-07, 5.3100000000000006E-13
DataValue, 0.9, 3, 0, 8.3464499999999986E-08, -8.2892299999999988E-08, -1.2130000000000002E-12, 8.3464499999999986E-08, 0.00028890223259781151, 3.5619772884107009E-07, 1.2130000000000002E-12
DataValue, 0.95000000000000007, 3, 0, 1.018592E-07, -1.01191E-07, -8.3400000000000008E-13, 1.018592E-07, 0.00031915388138012673, 3.3184586742228551E-07, 8.3400000000000008E-13
DataValue, 1, 3, 0, 1.20068E-07, -1.18421E-07, 1.1300000000000001E-13, 1.20068E-07, 0.00034650829715895693, 3.6634265939586942E-07, 1.1300000000000001E-13
DataValue, 1.05, 3, 0, 1.4415699999999999E-07, -1.43031E-07, -5.19E-13, 1.4415699999999999E-07, 0.00037968012852926603, 4.3922069757622113E-07, 5.19E-13
DataValue, 1.1, 3, 0, 1.70389E-07, -1.69301E-07, -6.8E-13, 1.70389E-07, 0.00041278202480243733, 4.6644028093725757E-07, 6.8E-13
DataValue, 1.1500000000000001, 3, 0, 2.00683E-07, -1.99134E-07, 3.2000000000000005E-13, 2.00683E-07, 0.00044797656188689156, 5.0307242765762392E-07, 3.2000000000000005E-13
DataValue, 1.2, 3, 0, 2.33975E-07, -2.32784E-07, 2.3200000000000002E-12, 2.33975E-07, 0.00048370962363798389, 5.0873775661308917E-07, 2.3200000000000002E-12
DataValue, 1.25, 3, 0, 2.69675E-07, -2.67366E-07, 1.759E-12, 2.69675E-07, 0.000519302416709185, 5.2443753479410747E-07, 1.759E-12
DataValue, 1.3, 3, 0, 3.0927799999999997E-07, -3.07432E-07, 1.7000000000000002E-12, 3.0927799999999997E-07, 0.00055612768318076013, 5.2989459439266254E-07, 1.7000000000000002E-12
DataValue, 1.35, 3, 0, 3.50578E-07, -3.49058E-07, 1.744E-12, 3.50578E-07, 0.00059209627595518618, 5.7936364361250165E-07, 1.744E-12
DataValue, 1.4000000000000001, 3, 0, 3.99732E-07, -3.96781E-07, 3.4750000000000004E-12, 3.99732E-07, 0.00063224362392988985, 5.7454770925568687E-07, 3.4750000000000004E-12
DataValue, 1.4500000000000002, 3, 0, 4.46084E-07, -4.46203E-07, 5.1360000000000007E-12, 4.46084E-07, 0.00066789520136021339, 6.0587638199464567E-07, 5.1360000000000007E-12
DataValue, 1.5, 3, 0, 5.04216E-07, -5.01742E-07, 5.5890000000000005E-12, 5.04216E-07, 0.00071008168544189334, 6.9332100810071473E-07, 5.5890000000000005E-12
DataValue, 1.55, 3, 0, 5.64243E-07, -5.60691E-07, 6.2E-12, 5.64243E-07, 0.00075116110122929022, 6.6767229467425946E-07, 6.2E-12
DataValue, 1.6, 3, 0, 6.26936E-07, -6.21344E-07, 6.7290000000000009E-12, 6.26936E-07, 0.00079179290221622982, 7.0052831309962707E-07, 6.7290000000000009E-12
DataValue, 1.6500000000000001, 3, 0, 6.96989E-07, -6.91932E-07, 1.1836000000000001E-11, 6.96989E-07, 0.00083485867067426445, 7.5753406261239725E-07, 1.1836000000000001E-11
DataValue, 1.7000000000000002, 3, 0, 7.72341E-07, -7.68451E-07, 1.5851E-11, 7.72341E-07, 0.000878829334967831, 7.8756038754046279E-07, 1.5851E-11
DataValue, 1.75, 3, 0, 8.5304299999999994E-07, -8.5024299999999995E-07, 1.8003000000000002E-11, 8.5304299999999994E-07, 0.00092360326980798417, 8.2716250386147584E-07, 1.8003000000000002E-11
DataValue, 1.8, 3, 0, 9.40469E-07, -9.36909E-07, 1.9182000000000003E-11, 9.40469E-07, 0.00096977780960382876, 8.8349456057927265E-07, 1.9182000000000003E-11
DataValue, 1.85, 3, 0, 1.035505E-06, -1.031399E-06, 2.3122E-11, 1.035505E-06, 0.0010175976611608343, 8.47421704092214E-07, 2.3122E-11
DataValue, 1.9000000000000001, 3, 0, 1.1274900000000002E-06, -1.122548E-06, 2.5450000000000003E-11, 1.1274900000000002E-06, 0.0010618333202532307, 8.2819214902529756E-07, 2.5450000000000003E-11
DataValue, 1.9500000000000002, 3, 0, 1.2290000000000002E-06, -1.2242100000000001E-06, 3.4089E-11, 1.2290000000000002E-06, 0.0011086027241532469, 9.4446335417815672E-07, 3.4089E-11
DataValue, 2, 3, 0, 1.34332E-06, -1.3412700000000002E-06, 4.5749E-11, 1.34332E-06, 0.0011590168247268889, 1.023620149990105E-06, 4.5749E-11
DataValue, 2.05, 3, 0, 1.4635600000000002E-06, -1.45998E-06, 4.4781E-11, 1.4635600000000002E-06, 0.0012097768389252625, 1.0406149090833288E-06, 4.4781E-11
DataValue, 2.1, 3, 0, 1.5901900000000002E-06, -1.5880200000000002E-06, 6.0324E-11, 1.5901900000000002E-06, 0.0012610273589419067, 1.0560169282318011E-06, 6.0324E-11
DataValue, 2.15, 3, 0, 1.7227600000000002E-06, -1.7202100000000001E-06, 7.0181E-11, 1.7227600000000002E-06, 0.0013125395232144442, 1.0825930236314574E-06, 7.0181E-11
DataValue, 2.2, 3, 0, 1.8634300000000002E-06, -1.8612300000000003E-06, 8.0333000000000008E-11, 1.8634300000000002E-06, 0.0013650750895097311, 1.1222226240792672E-06, 8.0333000000000008E-11
DataValue, 2.25, 3, 0, 2.01207E-06, -2.00871E-06, 9.9532000000000008E-11, 2.01207E-06, 0.001418474532728734, 1.1471174305455804E-06, 9.9532000000000008E-11
DataValue, 2.3000000000000003, 3, 0, 2.1673100000000003E-06, -2.1628600000000002E-06, 9.151E-11, 2.1673100000000003E-06, 0.0014721786576363618, 1.1793488608888504E-06, 9.151E-11
DataValue, 2.35, 3, 0, 2.33195E-06, -2.32658E-06, 1.4048900000000002E-10, 2.33195E-06, 0.0015270723623980627, 1.1921293958642976E-06, 1.4048900000000002E-10
