
SetupTitle, Transfer stab
PrimitiveTest, I/V Sweep
TestParameter, Context.MainFrame, 4155C
TestParameter, Channel.UnitType, SMU, SMU, SMU
TestParameter, Channel.Unit, SMU3:MP, SMU1:MP, SMU4:MP
TestParameter, Channel.IName, ID, IS, IG
TestParameter, Channel.VName, VD, VS, VG
TestParameter, Channel.Mode, V, COMMON, V
TestParameter, Channel.Func, CONST, CONST, VAR1
TestParameter, Channel.Index, 
TestParameter, Channel.Time, 
TestParameter, Measurement.Port.Unit, SMU3:MP, SMU1:MP, SMU4:MP
TestParameter, Measurement.Port.SeriesResistor, NONE, NONE, NONE
TestParameter, Measurement.Port.Filter, ON, ON, ON
TestParameter, Measurement.Primary.Locus, Single
TestParameter, Measurement.Primary.Scale, LINEAR
TestParameter, Measurement.Primary.Start, -2
TestParameter, Measurement.Primary.Stop, 3
TestParameter, Measurement.Primary.Step, 0.05
TestParameter, Measurement.Primary.Compliance, 0.1
TestParameter, Measurement.Primary.PowerCompliance, 0
TestParameter, Measurement.Aborting.Condition, CONTINUE AT ANY
TestParameter, Measurement.PostOutput.Value, START
TestParameter, Measurement.PostOutput.Retention, OFF
TestParameter, Measurement.Bias.Source, 3, 0, -2
TestParameter, Measurement.Bias.Compliance, 0.1, 0.1, 0.1
TestParameter, Measurement.Monitor.Unit, SMU3:MP, SMU1:MP, SMU4:MP
TestParameter, Measurement.Monitor.Adc, HR ADC, HR ADC, HR ADC
TestParameter, Measurement.Monitor.RangingMode, AUTO, AUTO, AUTO
TestParameter, Measurement.Monitor.RangeBoundary, , , 
TestParameter, Measurement.Monitor.RangeRating, BY FULL RANGE, BY FULL RANGE, BY FULL RANGE
TestParameter, Measurement.Monitor.RangeRatingCoeff, 50, 50, 50
TestParameter, Measurement.Timing.Hold, 0.5
TestParameter, Measurement.Timing.Delay, 0.05
TestParameter, Measurement.Adc.HighResolution.AutoZero, OFF
TestParameter, Measurement.Adc.HighResolution.Mode, AUTO
TestParameter, Measurement.Adc.HighResolution.Coeff, 1
TestParameter, Measurement.Ag16440ASelector.SemiconductorRelay.Channel1, DEFAULT
TestParameter, Measurement.Ag16440ASelector.SemiconductorRelay.Channel3, DEFAULT
TestParameter, Function.User.Name, absID, sqrtID, gm2, absIG
TestParameter, Function.User.Unit, A, A, A/V, A
TestParameter, Function.User.Definition, abs(ID), sqrt(abs(ID)), (delta(sqrtID)/delta(VG))^2, abs(IG)
TestParameter, Output.Graph.Enabled, true
TestParameter, Output.Graph.XAxis.Data, VG
TestParameter, Output.Graph.XAxis.Scale, Linear
TestParameter, Output.Graph.XAxis.Left, -5
TestParameter, Output.Graph.XAxis.Right, 7
TestParameter, Output.Graph.YAxis.Data, ID, absIG, gm2
TestParameter, Output.Graph.YAxis.Scale, Log, Log, Linear
TestParameter, Output.Graph.YAxis.Bottom, 1E-14, 1E-14, 0
TestParameter, Output.Graph.YAxis.Top, 0.01, 0.01, 1E-05
TestParameter, Output.Graph.YAxis.Group, , , 
TestParameter, Output.List.Data, VG, IG, VD, ID, VS, IS, sqrtID, gm2, absIG
TestParameter, AutoAnalysis.Interpolation, false
TestParameter, AutoAnalysis.Line1.Enabled, false
TestParameter, AutoAnalysis.Line1.Type, 1
TestParameter, AutoAnalysis.Line1.Fix, True
TestParameter, AutoAnalysis.Line1.YAxis, 0
TestParameter, AutoAnalysis.Line1.Point1.Type, 0
TestParameter, AutoAnalysis.Line1.Point1.XY.X, 
TestParameter, AutoAnalysis.Line1.Point1.XY.Y, 
TestParameter, AutoAnalysis.Line1.Point1.Data.Var, 
TestParameter, AutoAnalysis.Line1.Point1.Data.Condition, 
TestParameter, AutoAnalysis.Line1.Point1.Data.Start, false
TestParameter, AutoAnalysis.Line1.Point1.Data.StartVar, 
TestParameter, AutoAnalysis.Line1.Point1.Data.StartCondition, 
TestParameter, AutoAnalysis.Line1.Point2.Type, 0
TestParameter, AutoAnalysis.Line1.Point2.XY.X, 
TestParameter, AutoAnalysis.Line1.Point2.XY.Y, 
TestParameter, AutoAnalysis.Line1.Point2.Data.Var, 
TestParameter, AutoAnalysis.Line1.Point2.Data.Condition, 
TestParameter, AutoAnalysis.Line1.Point2.Data.Start, false
TestParameter, AutoAnalysis.Line1.Point2.Data.StartVar, 
TestParameter, AutoAnalysis.Line1.Point2.Data.StartCondition, 
TestParameter, AutoAnalysis.Line1.GradientExpr, 0
TestParameter, AutoAnalysis.Line2.Enabled, false
TestParameter, AutoAnalysis.Line2.Type, 1
TestParameter, AutoAnalysis.Line2.Fix, True
TestParameter, AutoAnalysis.Line2.YAxis, 0
TestParameter, AutoAnalysis.Line2.Point1.Type, 0
TestParameter, AutoAnalysis.Line2.Point1.XY.X, 
TestParameter, AutoAnalysis.Line2.Point1.XY.Y, 
TestParameter, AutoAnalysis.Line2.Point1.Data.Var, 
TestParameter, AutoAnalysis.Line2.Point1.Data.Condition, 
TestParameter, AutoAnalysis.Line2.Point1.Data.Start, false
TestParameter, AutoAnalysis.Line2.Point1.Data.StartVar, 
TestParameter, AutoAnalysis.Line2.Point1.Data.StartCondition, 
TestParameter, AutoAnalysis.Line2.Point2.Type, 0
TestParameter, AutoAnalysis.Line2.Point2.XY.X, 
TestParameter, AutoAnalysis.Line2.Point2.XY.Y, 
TestParameter, AutoAnalysis.Line2.Point2.Data.Var, 
TestParameter, AutoAnalysis.Line2.Point2.Data.Condition, 
TestParameter, AutoAnalysis.Line2.Point2.Data.Start, false
TestParameter, AutoAnalysis.Line2.Point2.Data.StartVar, 
TestParameter, AutoAnalysis.Line2.Point2.Data.StartCondition, 
TestParameter, AutoAnalysis.Line2.GradientExpr, 0
TestParameter, AutoAnalysis.Marker.Enabled, false
TestParameter, AutoAnalysis.Marker.Data.Var, 
TestParameter, AutoAnalysis.Marker.Data.Condition, 
TestParameter, AutoAnalysis.Marker.Data.Start, false
TestParameter, AutoAnalysis.Marker.Data.StartVar, 
TestParameter, AutoAnalysis.Marker.Data.StartCondition, 
MetaData, TestRecord.EntryPoint, true
MetaData, TestRecord.RecordTime, 05/02/2019 16:03:56
MetaData, TestRecord.TestTarget, br-br-100-20
MetaData, TestRecord.IterationIndex, 3
MetaData, TestRecord.Preservation, true
MetaData, TestRecord.Flag, 
MetaData, TestRecord.Remarks, good
MetaData, TestRecord.LinkKey, cfc3c66f-4f9d-4aa9-8292-498b40fc6a16
Dimension1, 101, 101, 101, 101, 101, 101, 101, 101, 101, 101
Dimension2, 1, 1, 1, 1, 1, 1, 1, 1, 1, 1
DataName, VG, VD, VS, ID, IS, IG, absID, sqrtID, gm2, absIG
DataValue, -2, 3, 0, 2.7220000000000003E-12, 1.06E-13, -1.216E-12, 2.7220000000000003E-12, 1.6498484778912276E-06, 4.3670060738908839E-10, 1.216E-12
DataValue, -1.9500000000000002, 3, 0, -3.66E-13, -5.3200000000000006E-13, 9.72E-13, 3.66E-13, 6.04979338490167E-07, 2.1396832255640608E-10, 9.72E-13
DataValue, -1.9000000000000001, 3, 0, 3.5E-14, -5.68E-13, -6.63E-13, 3.5E-14, 1.8708286933869707E-07, 1.6960846452043474E-15, 6.63E-13
DataValue, -1.85, 3, 0, 3.7100000000000003E-13, -9.8000000000000012E-14, 1.3740000000000002E-12, 3.7100000000000003E-13, 6.0909769331364245E-07, 1.7868421271261757E-10, 1.3740000000000002E-12
DataValue, -1.8, 3, 0, 2.322E-12, 1.12E-13, 2.0700000000000003E-13, 2.322E-12, 1.5238110119040353E-06, 9.18348457587413E-12, 2.0700000000000003E-13
DataValue, -1.75, 3, 0, -8.3200000000000009E-13, 2.9000000000000003E-13, 5.13E-13, 8.3200000000000009E-13, 9.1214034007931048E-07, 2.1877061997007995E-10, 5.13E-13
DataValue, -1.7000000000000002, 3, 0, 2E-15, 6.77E-13, 6.1E-14, 2E-15, 4.4721359549995796E-08, 8.0263191866038291E-11, 6.1E-14
DataValue, -1.6500000000000001, 3, 0, -3.2690000000000003E-12, -1.335E-12, 1.5630000000000001E-12, 3.2690000000000003E-12, 1.8080376102282829E-06, 1.2913590988300439E-10, 1.5630000000000001E-12
DataValue, -1.6, 3, 0, -1.395E-12, -7.4300000000000007E-13, 1.2980000000000001E-12, 1.395E-12, 1.1811011811017716E-06, 9.6472606748811281E-11, 1.2980000000000001E-12
DataValue, -1.55, 3, 0, -6.82E-13, 5.68E-13, 7.4500000000000006E-13, 6.82E-13, 8.2583291288250315E-07, 1.9660244436414935E-11, 7.4500000000000006E-13
DataValue, -1.5, 3, 0, -2.6390000000000004E-12, 6.0300000000000006E-13, -1.118E-12, 2.6390000000000004E-12, 1.6244999230532455E-06, 3.470837360130522E-12, 1.118E-12
DataValue, -1.4500000000000002, 3, 0, -4.09E-13, -1.29E-13, 4.4900000000000006E-13, 4.09E-13, 6.3953107821277928E-07, 9.1235336203787158E-11, 4.4900000000000006E-13
DataValue, -1.4000000000000001, 3, 0, -4.48E-13, -1.276E-12, -8.7E-13, 4.48E-13, 6.6932802122726042E-07, 9.0273366230589281E-11, 8.7E-13
DataValue, -1.35, 3, 0, 2.527E-12, -2.837E-12, 8.844E-12, 2.527E-12, 1.5896540504147435E-06, 3.6038121921414333E-11, 8.844E-12
DataValue, -1.3, 3, 0, -1.6120000000000002E-12, 3.213E-12, 6.83E-13, 1.6120000000000002E-12, 1.2696456198483104E-06, 1.9967535169233694E-11, 6.83E-13
DataValue, -1.25, 3, 0, 1.306E-12, 1.326E-12, -3.6480000000000006E-12, 1.306E-12, 1.1428035701729323E-06, 2.8095420716107082E-11, 3.6480000000000006E-12
DataValue, -1.2, 3, 0, -5.4700000000000009E-13, -9.42E-13, -1.997E-12, 5.4700000000000009E-13, 7.3959448348402393E-07, 1.4025504163894957E-13, 1.997E-12
DataValue, -1.1500000000000001, 3, 0, -1.393E-12, -1.184E-12, -4.6000000000000006E-14, 1.393E-12, 1.1802542099056457E-06, 1.1617629752611708E-11, 4.6000000000000006E-14
DataValue, -1.1, 3, 0, -1.59E-13, 3.31E-13, -6.1E-14, 1.59E-13, 3.9874804074753774E-07, 5.1456065747660056E-12, 6.1E-14
DataValue, -1.05, 3, 0, 9.0900000000000006E-13, -2.24E-13, 5.42E-13, 9.0900000000000006E-13, 9.5341491492424227E-07, 5.6732051290996939E-11, 5.42E-13
DataValue, -1, 3, 0, -1.3270000000000001E-12, -2.5400000000000003E-13, 2.937E-12, 1.3270000000000001E-12, 1.1519548602267366E-06, 9.4654394574780744E-12, 2.937E-12
DataValue, -0.95000000000000007, 3, 0, 4.1700000000000004E-13, 2.0320000000000002E-12, -3.038E-12, 4.1700000000000004E-13, 6.457553716385176E-07, 3.3953005766338841E-11, 3.038E-12
DataValue, -0.9, 3, 0, 3.0090000000000002E-12, 2.0800000000000002E-13, -4.7900000000000008E-13, 3.0090000000000002E-12, 1.734646938140439E-06, 7.6695132311140294E-14, 4.7900000000000008E-13
DataValue, -0.85000000000000009, 3, 0, 3.8200000000000004E-13, -8.3000000000000012E-14, -6.9500000000000007E-13, 3.8200000000000004E-13, 6.1806148561449774E-07, 9.8744286194607272E-11, 6.9500000000000007E-13
DataValue, -0.8, 3, 0, 5.4900000000000008E-13, -1.1560000000000001E-12, 2.026E-12, 5.4900000000000008E-13, 7.4094534211370816E-07, 6.70110701672271E-12, 2.026E-12
DataValue, -0.75, 3, 0, -7.6900000000000006E-13, -2.61E-13, 3.5710000000000004E-12, 7.6900000000000006E-13, 8.7692645073575012E-07, 3.3992882564781467E-13, 3.5710000000000004E-12
DataValue, -0.70000000000000007, 3, 0, -4.66E-13, 4.93E-13, 2.0070000000000002E-12, 4.66E-13, 6.8264192663504048E-07, 5.2654395670317942E-13, 2.0070000000000002E-12
DataValue, -0.65, 3, 0, -6.4700000000000007E-13, 1.931E-12, 5.93E-13, 6.4700000000000007E-13, 8.0436310208760826E-07, 8.260428874146518E-12, 5.93E-13
DataValue, -0.6, 3, 0, 9.4100000000000013E-13, 1.954E-12, -5.787E-12, 9.4100000000000013E-13, 9.70051545022222E-07, 1.5663248629259424E-12, 5.787E-12
DataValue, -0.55, 3, 0, 8.6400000000000005E-13, -1.588E-12, -4.8840000000000006E-12, 8.6400000000000005E-13, 9.2951600308978007E-07, 6.8168544422858214E-13, 4.8840000000000006E-12
DataValue, -0.5, 3, 0, 1.1080000000000001E-12, 3.42E-13, -4.8210000000000006E-12, 1.1080000000000001E-12, 1.0526157893552614E-06, 7.0317616893267035E-14, 4.8210000000000006E-12
DataValue, -0.45, 3, 0, 9.1400000000000014E-13, -3.7400000000000006E-12, 1.9830000000000003E-12, 9.1400000000000014E-13, 9.5603347221736974E-07, 4.3569338129876976E-12, 1.9830000000000003E-12
DataValue, -0.4, 3, 0, -1.5910000000000002E-12, -3.572E-12, 3.7200000000000003E-13, 1.5910000000000002E-12, 1.2613484847574838E-06, 1.5174113805929362E-13, 3.7200000000000003E-13
DataValue, -0.35000000000000003, 3, 0, -9.9E-13, -1.159E-12, 4.9740000000000004E-12, 9.9E-13, 9.9498743710662E-07, 9.13686139596084E-13, 4.9740000000000004E-12
DataValue, -0.3, 3, 0, -1.3590000000000002E-12, 6.9600000000000006E-13, 1.613E-12, 1.3590000000000002E-12, 1.165761553663527E-06, 2.3763615026256932E-12, 1.613E-12
DataValue, -0.25, 3, 0, -7.07E-13, 6.8900000000000009E-13, 1.29E-13, 7.07E-13, 8.4083292038311633E-07, 2.7110253410028075E-12, 1.29E-13
DataValue, -0.2, 3, 0, 1.7700000000000001E-12, -3.5540000000000004E-12, -9.19E-13, 1.7700000000000001E-12, 1.330413469565007E-06, 1.2146310278757927E-10, 9.19E-13
DataValue, -0.15, 3, 0, 3.775E-12, 4.288E-12, -4.5740000000000005E-12, 3.775E-12, 1.942935922772545E-06, 4.0050126903644122E-10, 4.5740000000000005E-12
DataValue, -0.1, 3, 0, 1.11E-11, -1.2509000000000002E-11, -3.933E-12, 1.11E-11, 3.3316662497915363E-06, 1.0299273239964539E-09, 3.933E-12
DataValue, -0.05, 3, 0, 2.6545E-11, -2.8617000000000004E-11, 2.712E-12, 2.6545E-11, 5.1521840029253612E-06, 2.3815907927998792E-09, 2.712E-12
DataValue, 0, 3, 0, 6.7434E-11, -6.3754000000000008E-11, 2.12E-13, 6.7434E-11, 8.2118207481654147E-06, 5.3339902019562575E-09, 2.12E-13
DataValue, 0.05, 3, 0, 1.55142E-10, -1.4933400000000002E-10, 7.2960000000000012E-12, 1.55142E-10, 1.2455601149683623E-05, 1.0797347320404409E-08, 7.2960000000000012E-12
DataValue, 0.1, 3, 0, 3.4606600000000004E-10, -3.2946800000000004E-10, 1.1328E-11, 3.4606600000000004E-10, 1.8602849244134623E-05, 2.0225387394461604E-08, 1.1328E-11
DataValue, 0.15, 3, 0, 7.11673E-10, -6.8532000000000007E-10, 1.1252000000000001E-11, 7.11673E-10, 2.6677200002998814E-05, 3.01670602578243E-08, 1.1252000000000001E-11
DataValue, 0.2, 3, 0, 1.29395E-09, -1.24916E-09, -3.692E-12, 1.29395E-09, 3.5971516509594086E-05, 5.1083684953785656E-08, 3.692E-12
DataValue, 0.25, 3, 0, 2.42841E-09, -2.39478E-09, -6.092E-12, 2.42841E-09, 4.9278900150064226E-05, 8.4446655700409315E-08, 6.092E-12
DataValue, 0.3, 3, 0, 4.22906E-09, -4.16035E-09, 2.9650000000000004E-12, 4.22906E-09, 6.5031223270056978E-05, 1.1284199947169099E-07, 2.9650000000000004E-12
DataValue, 0.35000000000000003, 3, 0, 6.86758E-09, -6.76509E-09, 5.7880000000000008E-12, 6.86758E-09, 8.2870863396009091E-05, 1.2985278261164079E-07, 5.7880000000000008E-12
DataValue, 0.4, 3, 0, 1.02144E-08, -1.012197E-08, 3.8240000000000007E-12, 1.02144E-08, 0.00010106631486306405, 1.6861360090340557E-07, 3.8240000000000007E-12
DataValue, 0.45, 3, 0, 1.53595E-08, -1.49193E-08, 2.7520000000000004E-12, 1.53595E-08, 0.00012393344988339509, 2.171578762546001E-07, 2.7520000000000004E-12
DataValue, 0.5, 3, 0, 2.1805399999999998E-08, -2.1614299999999997E-08, 2.6010000000000003E-12, 2.1805399999999998E-08, 0.00014766651617750045, 2.5532532851356268E-07, 2.6010000000000003E-12
DataValue, 0.55, 3, 0, 3.04374E-08, -3.0169099999999996E-08, -2.278E-12, 3.04374E-08, 0.00017446317663048555, 3.053757200951023E-07, 2.278E-12
DataValue, 0.6, 3, 0, 4.1179499999999995E-08, -4.0853499999999996E-08, -2.933E-12, 4.1179499999999995E-08, 0.00020292732689315156, 3.4443137741598623E-07, 2.933E-12
DataValue, 0.65, 3, 0, 5.4359599999999997E-08, -5.3962299999999993E-08, 1.2800000000000002E-12, 5.4359599999999997E-08, 0.00023315145292277293, 3.8576791324379863E-07, 1.2800000000000002E-12
DataValue, 0.70000000000000007, 3, 0, 7.02449E-08, -6.9793199999999993E-08, 1.698E-12, 7.02449E-08, 0.00026503754451020708, 4.3419568967512712E-07, 1.698E-12
DataValue, 0.75, 3, 0, 8.9427899999999993E-08, -8.882E-08, -3.14E-13, 8.9427899999999993E-08, 0.00029904497989432962, 4.2406135721853905E-07, 3.14E-13
DataValue, 0.8, 3, 0, 1.09004E-07, -1.07679E-07, 1.7120000000000002E-12, 1.09004E-07, 0.00033015753815413636, 4.67785018429591E-07, 1.7120000000000002E-12
DataValue, 0.85000000000000009, 3, 0, 1.35012E-07, -1.34309E-07, 5.9E-13, 1.35012E-07, 0.000367439790986224, 5.8290635789988171E-07, 5.9E-13
DataValue, 0.9, 3, 0, 1.65247E-07, -1.6432699999999999E-07, -5.0300000000000008E-13, 1.65247E-07, 0.00040650584251643909, 6.3262675288402049E-07, 5.0300000000000008E-13
DataValue, 0.95000000000000007, 3, 0, 1.99789E-07, -1.98952E-07, -1.4070000000000002E-12, 1.99789E-07, 0.00044697762807549996, 6.7357614125418607E-07, 1.4070000000000002E-12
DataValue, 1, 3, 0, 2.38708E-07, -2.37728E-07, 3.62E-13, 2.38708E-07, 0.00048857752711314916, 7.10475767015568E-07, 3.62E-13
DataValue, 1.05, 3, 0, 2.82245E-07, -2.80956E-07, 1.6120000000000002E-12, 2.82245E-07, 0.00053126735265777438, 7.46057926618186E-07, 1.6120000000000002E-12
DataValue, 1.1, 3, 0, 3.3057E-07, -3.29341E-07, 1.7800000000000002E-13, 3.3057E-07, 0.00057495217192389135, 7.8777767210915047E-07, 1.7800000000000002E-13
DataValue, 1.1500000000000001, 3, 0, 3.8443E-07, -3.8308999999999997E-07, -1.2310000000000001E-12, 3.8443E-07, 0.000620024193076367, 8.29585986291476E-07, 1.2310000000000001E-12
DataValue, 1.2, 3, 0, 4.43601E-07, -4.42376E-07, 1.9E-14, 4.43601E-07, 0.00066603378292696231, 8.6920232234864388E-07, 1.9E-14
DataValue, 1.25, 3, 0, 5.08733E-07, -5.07139E-07, 3.06E-13, 5.08733E-07, 0.00071325521379096831, 9.1715152961776063E-07, 3.06E-13
DataValue, 1.3, 3, 0, 5.80342E-07, -5.78461E-07, 7.6300000000000008E-13, 5.80342E-07, 0.00076180181149692727, 9.5303130216109642E-07, 7.6300000000000008E-13
DataValue, 1.35, 3, 0, 6.57524E-07, -6.55667E-07, -1.9600000000000002E-13, 6.57524E-07, 0.00081087853591028046, 9.8546868594272961E-07, 1.9600000000000002E-13
DataValue, 1.4000000000000001, 3, 0, 7.41446E-07, -7.39292E-07, -9.38E-13, 7.41446E-07, 0.00086107258695187832, 1.0340150436945393E-06, 9.38E-13
DataValue, 1.4500000000000002, 3, 0, 8.3277499999999994E-07, -8.30518E-07, 6.4600000000000007E-13, 8.3277499999999994E-07, 0.000912565066173366, 1.073798656031134E-06, 6.4600000000000007E-13
DataValue, 1.5, 3, 0, 9.3064E-07, -9.2867099999999994E-07, 2.12E-13, 9.3064E-07, 0.0009646968435731507, 1.108981843665623E-06, 2.12E-13
DataValue, 1.55, 3, 0, 1.036066E-06, -1.034358E-06, 1.8400000000000002E-13, 1.036066E-06, 0.001017873273055148, 1.0791397505457369E-06, 1.8400000000000002E-13
DataValue, 1.6, 3, 0, 1.1418600000000002E-06, -1.13979E-06, 2.5300000000000003E-13, 1.1418600000000002E-06, 0.0010685784950110124, 1.1197253520485076E-06, 2.5300000000000003E-13
DataValue, 1.6500000000000001, 3, 0, 1.26268E-06, -1.2608E-06, 2.55E-13, 1.26268E-06, 0.0011236903488061113, 1.2381722942611908E-06, 2.55E-13
DataValue, 1.7000000000000002, 3, 0, 1.39205E-06, -1.3900800000000001E-06, -8.66E-13, 1.39205E-06, 0.0011798516855944226, 1.2713042509834829E-06, 8.66E-13
DataValue, 1.75, 3, 0, 1.5287900000000002E-06, -1.5268600000000001E-06, 2.93E-13, 1.5287900000000002E-06, 0.0012364424774327354, 1.301960674343834E-06, 2.93E-13
DataValue, 1.8, 3, 0, 1.6743200000000001E-06, -1.6721200000000002E-06, 3.3700000000000003E-13, 1.6743200000000001E-06, 0.0012939551769671159, 1.3237190636382079E-06, 3.3700000000000003E-13
DataValue, 1.85, 3, 0, 1.8265400000000003E-06, -1.8242200000000002E-06, -1.7200000000000002E-13, 1.8265400000000003E-06, 0.0013514954679909217, 1.3491925442517786E-06, 1.7200000000000002E-13
DataValue, 1.9000000000000001, 3, 0, 1.98841E-06, -1.9865600000000003E-06, 2.1500000000000002E-13, 1.98841E-06, 0.0014101099247930994, 1.3904980541012137E-06, 2.1500000000000002E-13
DataValue, 1.9500000000000002, 3, 0, 2.1591800000000003E-06, -2.15701E-06, -5.9700000000000008E-13, 2.1591800000000003E-06, 0.0014694148495234423, 1.4185355648950456E-06, 5.9700000000000008E-13
DataValue, 2, 3, 0, 2.3384900000000003E-06, -2.3360200000000003E-06, 4.4400000000000003E-13, 2.3384900000000003E-06, 0.0015292122154887465, 1.4404563229576842E-06, 4.4400000000000003E-13
DataValue, 2.05, 3, 0, 2.5263000000000003E-06, -2.52344E-06, 3.9200000000000005E-13, 2.5263000000000003E-06, 0.0015894338614739526, 1.4660043835404881E-06, 3.9200000000000005E-13
DataValue, 2.1, 3, 0, 2.7234600000000004E-06, -2.72069E-06, -4.64E-13, 2.7234600000000004E-06, 0.001650290883450551, 1.4937803981976359E-06, 4.64E-13
DataValue, 2.15, 3, 0, 2.9297600000000005E-06, -2.9276E-06, 3.51E-13, 2.9297600000000005E-06, 0.0017116541706781777, 1.5279129378875631E-06, 3.51E-13
DataValue, 2.2, 3, 0, 3.1467200000000004E-06, -3.1442900000000003E-06, -3.63E-13, 3.1467200000000004E-06, 0.001773899658943538, 1.5521131027573853E-06, 3.63E-13
DataValue, 2.25, 3, 0, 3.3717700000000005E-06, -3.3688600000000002E-06, 1.58E-13, 3.3717700000000005E-06, 0.0018362380020030085, 1.5662548390451434E-06, 1.58E-13
DataValue, 2.3000000000000003, 3, 0, 3.6063900000000005E-06, -3.6033900000000002E-06, 2.5400000000000003E-13, 3.6063900000000005E-06, 0.0018990497623811759, 1.5914679389433919E-06, 2.5400000000000003E-13
DataValue, 2.35, 3, 0, 3.85098E-06, -3.84905E-06, -6.31E-13, 3.85098E-06, 0.001962391398268959, 1.6198169225949618E-06, 6.31E-13
