
SetupTitle, Transfer lin
PrimitiveTest, I/V Sweep
TestParameter, Context.MainFrame, 4155C
TestParameter, Channel.UnitType, SMU, SMU, SMU
TestParameter, Channel.Unit, SMU3:MP, SMU1:MP, SMU4:MP
TestParameter, Channel.IName, ID, IS, IG
TestParameter, Channel.VName, VD, VS, VG
TestParameter, Channel.Mode, V, COMMON, V
TestParameter, Channel.Func, CONST, CONST, VAR1
TestParameter, Channel.Index, 
TestParameter, Channel.Time, 
TestParameter, Measurement.Port.Unit, SMU3:MP, SMU1:MP, SMU4:MP
TestParameter, Measurement.Port.SeriesResistor, NONE, NONE, NONE
TestParameter, Measurement.Port.Filter, ON, ON, ON
TestParameter, Measurement.Primary.Locus, Double
TestParameter, Measurement.Primary.Scale, LINEAR
TestParameter, Measurement.Primary.Start, -2
TestParameter, Measurement.Primary.Stop, 3
TestParameter, Measurement.Primary.Step, 0.05
TestParameter, Measurement.Primary.Compliance, 0.001
TestParameter, Measurement.Primary.PowerCompliance, 0
TestParameter, Measurement.Aborting.Condition, CONTINUE AT ANY
TestParameter, Measurement.PostOutput.Value, START
TestParameter, Measurement.PostOutput.Retention, OFF
TestParameter, Measurement.Bias.Source, 0.1, 0, -2
TestParameter, Measurement.Bias.Compliance, 0.001, 0.1, 0.001
TestParameter, Measurement.Monitor.Unit, SMU3:MP, SMU1:MP, SMU4:MP
TestParameter, Measurement.Monitor.Adc, HR ADC, HR ADC, HR ADC
TestParameter, Measurement.Monitor.RangingMode, AUTO, AUTO, AUTO
TestParameter, Measurement.Monitor.RangeBoundary, , , 
TestParameter, Measurement.Monitor.RangeRating, BY FULL RANGE, BY FULL RANGE, BY FULL RANGE
TestParameter, Measurement.Monitor.RangeRatingCoeff, 50, 50, 50
TestParameter, Measurement.Timing.Hold, 0.5
TestParameter, Measurement.Timing.Delay, 0.05
TestParameter, Measurement.Adc.HighResolution.AutoZero, OFF
TestParameter, Measurement.Adc.HighResolution.Mode, AUTO
TestParameter, Measurement.Adc.HighResolution.Coeff, 1
TestParameter, Measurement.Ag16440ASelector.SemiconductorRelay.Channel1, DEFAULT
TestParameter, Measurement.Ag16440ASelector.SemiconductorRelay.Channel3, DEFAULT
TestParameter, Function.User.Name, absID, sqrtID, gm2, absIG
TestParameter, Function.User.Unit, A, A, A/V, A
TestParameter, Function.User.Definition, abs(ID), sqrt(abs(ID)), (delta(sqrtID)/delta(VG))^2, abs(IG)
TestParameter, Output.Graph.Enabled, true
TestParameter, Output.Graph.XAxis.Data, VG
TestParameter, Output.Graph.XAxis.Scale, Linear
TestParameter, Output.Graph.XAxis.Left, -5
TestParameter, Output.Graph.XAxis.Right, 7
TestParameter, Output.Graph.YAxis.Data, ID, absIG, gm2
TestParameter, Output.Graph.YAxis.Scale, Log, Log, Linear
TestParameter, Output.Graph.YAxis.Bottom, 1E-14, 1E-14, 0
TestParameter, Output.Graph.YAxis.Top, 0.01, 0.01, 1E-05
TestParameter, Output.Graph.YAxis.Group, , , 
TestParameter, Output.List.Data, VG, IG, VD, ID, VS, IS, sqrtID, gm2, absIG
TestParameter, AutoAnalysis.Interpolation, false
TestParameter, AutoAnalysis.Line1.Enabled, false
TestParameter, AutoAnalysis.Line1.Type, 1
TestParameter, AutoAnalysis.Line1.Fix, True
TestParameter, AutoAnalysis.Line1.YAxis, 0
TestParameter, AutoAnalysis.Line1.Point1.Type, 0
TestParameter, AutoAnalysis.Line1.Point1.XY.X, 
TestParameter, AutoAnalysis.Line1.Point1.XY.Y, 
TestParameter, AutoAnalysis.Line1.Point1.Data.Var, 
TestParameter, AutoAnalysis.Line1.Point1.Data.Condition, 
TestParameter, AutoAnalysis.Line1.Point1.Data.Start, false
TestParameter, AutoAnalysis.Line1.Point1.Data.StartVar, 
TestParameter, AutoAnalysis.Line1.Point1.Data.StartCondition, 
TestParameter, AutoAnalysis.Line1.Point2.Type, 0
TestParameter, AutoAnalysis.Line1.Point2.XY.X, 
TestParameter, AutoAnalysis.Line1.Point2.XY.Y, 
TestParameter, AutoAnalysis.Line1.Point2.Data.Var, 
TestParameter, AutoAnalysis.Line1.Point2.Data.Condition, 
TestParameter, AutoAnalysis.Line1.Point2.Data.Start, false
TestParameter, AutoAnalysis.Line1.Point2.Data.StartVar, 
TestParameter, AutoAnalysis.Line1.Point2.Data.StartCondition, 
TestParameter, AutoAnalysis.Line1.GradientExpr, 0
TestParameter, AutoAnalysis.Line2.Enabled, false
TestParameter, AutoAnalysis.Line2.Type, 1
TestParameter, AutoAnalysis.Line2.Fix, True
TestParameter, AutoAnalysis.Line2.YAxis, 0
TestParameter, AutoAnalysis.Line2.Point1.Type, 0
TestParameter, AutoAnalysis.Line2.Point1.XY.X, 
TestParameter, AutoAnalysis.Line2.Point1.XY.Y, 
TestParameter, AutoAnalysis.Line2.Point1.Data.Var, 
TestParameter, AutoAnalysis.Line2.Point1.Data.Condition, 
TestParameter, AutoAnalysis.Line2.Point1.Data.Start, false
TestParameter, AutoAnalysis.Line2.Point1.Data.StartVar, 
TestParameter, AutoAnalysis.Line2.Point1.Data.StartCondition, 
TestParameter, AutoAnalysis.Line2.Point2.Type, 0
TestParameter, AutoAnalysis.Line2.Point2.XY.X, 
TestParameter, AutoAnalysis.Line2.Point2.XY.Y, 
TestParameter, AutoAnalysis.Line2.Point2.Data.Var, 
TestParameter, AutoAnalysis.Line2.Point2.Data.Condition, 
TestParameter, AutoAnalysis.Line2.Point2.Data.Start, false
TestParameter, AutoAnalysis.Line2.Point2.Data.StartVar, 
TestParameter, AutoAnalysis.Line2.Point2.Data.StartCondition, 
TestParameter, AutoAnalysis.Line2.GradientExpr, 0
TestParameter, AutoAnalysis.Marker.Enabled, false
TestParameter, AutoAnalysis.Marker.Data.Var, 
TestParameter, AutoAnalysis.Marker.Data.Condition, 
TestParameter, AutoAnalysis.Marker.Data.Start, false
TestParameter, AutoAnalysis.Marker.Data.StartVar, 
TestParameter, AutoAnalysis.Marker.Data.StartCondition, 
MetaData, TestRecord.EntryPoint, true
MetaData, TestRecord.RecordTime, 05/02/2019 14:45:38
MetaData, TestRecord.TestTarget, 350-300-20-10
MetaData, TestRecord.IterationIndex, 1
MetaData, TestRecord.Preservation, true
MetaData, TestRecord.Flag, 
MetaData, TestRecord.Remarks, good
MetaData, TestRecord.LinkKey, 863eb185-eaa3-4b5f-85d5-f18342e46ac7
Dimension1, 202, 202, 202, 202, 202, 202, 202, 202, 202, 202
Dimension2, 1, 1, 1, 1, 1, 1, 1, 1, 1, 1
DataName, VG, VD, VS, ID, IS, IG, absID, sqrtID, gm2, absIG
DataValue, -2, 0.1, 0, 2.2240000000000002E-12, 6.3E-12, -4.7890000000000007E-12, 2.2240000000000002E-12, 1.49130815058458E-06, 5.6885879996271247E-11, 4.7890000000000007E-12
DataValue, -1.9500000000000002, 0.1, 0, 3.4910000000000004E-12, 2.1600000000000001E-13, -8.6900000000000011E-12, 3.4910000000000004E-12, 1.8684217939212764E-06, 1.6552598698890112E-11, 8.6900000000000011E-12
DataValue, -1.9000000000000001, 0.1, 0, 3.6030000000000003E-12, -1.1060000000000001E-12, -1.0445000000000001E-11, 3.6030000000000003E-12, 1.8981570008826983E-06, 6.7962075670667371E-11, 1.0445000000000001E-11
DataValue, -1.85, 0.1, 0, 1.09E-12, -8.7400000000000011E-13, -8.253E-12, 1.09E-12, 1.044030650891055E-06, 5.1905457257398536E-12, 8.253E-12
DataValue, -1.8, 0.1, 0, 2.79E-12, -4.2190000000000005E-12, -7.7540000000000011E-12, 2.79E-12, 1.6703293088490067E-06, 1.028095295454903E-12, 7.7540000000000011E-12
DataValue, -1.75, 0.1, 0, 1.312E-12, 7.144E-12, 2.214E-12, 1.312E-12, 1.1454256850621082E-06, 2.1156086975456072E-11, 2.214E-12
DataValue, -1.7000000000000002, 0.1, 0, 1.4650000000000001E-12, 1.3460000000000001E-12, -1.558E-12, 1.4650000000000001E-12, 1.2103718436910204E-06, 1.9017451771018656E-13, 1.558E-12
DataValue, -1.6500000000000001, 0.1, 0, 1.214E-12, 2.5200000000000004E-13, -4.723E-12, 1.214E-12, 1.1018166816671456E-06, 2.5376378416874621E-12, 4.723E-12
DataValue, -1.6, 0.1, 0, 1.876E-12, 3.5E-14, -2.929E-12, 1.876E-12, 1.3696714934611146E-06, 2.9201033340159424E-13, 2.929E-12
DataValue, -1.55, 0.1, 0, 1.3360000000000002E-12, 3.658E-12, -4.375E-12, 1.3360000000000002E-12, 1.1558546621439913E-06, 2.0416717294451554E-12, 4.375E-12
DataValue, -1.5, 0.1, 0, 1.5050000000000002E-12, 1.963E-12, -4.7680000000000007E-12, 1.5050000000000002E-12, 1.2267844146385297E-06, 3.7620535896315129E-12, 4.7680000000000007E-12
DataValue, -1.4500000000000002, 0.1, 0, 1.822E-12, 2.372E-12, -3.9370000000000007E-12, 1.822E-12, 1.3498148021117564E-06, 1.7611801545834557E-12, 3.9370000000000007E-12
DataValue, -1.4000000000000001, 0.1, 0, 1.197E-12, 5.14E-13, -4.107E-12, 1.197E-12, 1.0940749517286282E-06, 2.9280234518264411E-11, 4.107E-12
DataValue, -1.35, 0.1, 0, 6.54E-13, 1.4260000000000002E-12, -3.741E-12, 6.54E-13, 8.0870266476622919E-07, 5.5678368289855057E-12, 3.741E-12
DataValue, -1.3, 0.1, 0, 1.7690000000000002E-12, 1.4550000000000002E-12, -4.0160000000000007E-12, 1.7690000000000002E-12, 1.3300375934536589E-06, 4.0500688705379253E-12, 4.0160000000000007E-12
DataValue, -1.25, 0.1, 0, 1.02E-12, 2.9890000000000003E-12, 3.343E-12, 1.02E-12, 1.0099504938362078E-06, 4.7788022788268336E-11, 3.343E-12
DataValue, -1.2, 0.1, 0, -4.0800000000000003E-13, 9.637E-12, -5.001E-12, 4.0800000000000003E-13, 6.3874877690685246E-07, 2.205056115581727E-11, 5.001E-12
DataValue, -1.1500000000000001, 0.1, 0, 2.92E-13, 6.5430000000000007E-12, -4.062E-12, 2.92E-13, 5.4037024344425184E-07, 1.3163164110683575E-10, 4.062E-12
DataValue, -1.1, 0.1, 0, 3.1900000000000003E-12, 3.4160000000000004E-12, -6.437E-12, 3.1900000000000003E-12, 1.7860571099491753E-06, 1.2298805822565189E-11, 6.437E-12
DataValue, -1.05, 0.1, 0, -7.94E-13, -4.7E-13, -2.7170000000000002E-12, 7.94E-13, 8.9106677639781856E-07, 4.8904688333308084E-11, 2.7170000000000002E-12
DataValue, -1, 0.1, 0, 1.1810000000000001E-12, 2.4580000000000002E-12, -3.666E-12, 1.1810000000000001E-12, 1.0867382389517727E-06, 1.2668589078861328E-11, 3.666E-12
DataValue, -0.95000000000000007, 0.1, 0, 1.5550000000000001E-12, 9.82E-13, -5.632E-12, 1.5550000000000001E-12, 1.2469963913339927E-06, 1.4778379496505622E-12, 5.632E-12
DataValue, -0.9, 0.1, 0, 1.46E-12, -1.5430000000000002E-12, -3.627E-12, 1.46E-12, 1.2083045973594573E-06, 1.5971819200561915E-11, 3.627E-12
DataValue, -0.85000000000000009, 0.1, 0, 7.1800000000000007E-13, 5.93E-13, -2.1030000000000002E-12, 7.1800000000000007E-13, 8.4734880657259442E-07, 4.15072482159221E-11, 2.1030000000000002E-12
DataValue, -0.8, 0.1, 0, -3.4320000000000003E-12, 8.47E-13, -3.334E-12, 3.4320000000000003E-12, 1.8525657883055058E-06, 5.2043045981490169E-11, 3.334E-12
DataValue, -0.75, 0.1, 0, 2.461E-12, 6.61E-13, -2.071E-12, 2.461E-12, 1.5687574701017363E-06, 1.1509475601851741E-10, 2.071E-12
DataValue, -0.70000000000000007, 0.1, 0, 6.08E-13, 9.55E-13, -2.8940000000000004E-12, 6.08E-13, 7.7974354758471714E-07, 1.0481263204552221E-10, 2.8940000000000004E-12
DataValue, -0.65, 0.1, 0, 2.9700000000000005E-13, -1.3300000000000001E-13, -3.004E-12, 2.9700000000000005E-13, 5.4497706373754853E-07, 2.6667591308812616E-12, 3.004E-12
DataValue, -0.6, 0.1, 0, 3.8000000000000005E-13, -3.42E-13, -1.5150000000000001E-12, 3.8000000000000005E-13, 6.1644140029689773E-07, 1.9040007479431825E-11, 1.5150000000000001E-12
DataValue, -0.55, 0.1, 0, 9.63E-13, 6.52E-13, -1.458E-12, 9.63E-13, 9.8132563402776749E-07, 1.7610865290119521E-12, 1.458E-12
DataValue, -0.5, 0.1, 0, 2.34E-13, 6.0000000000000007E-13, -2.131E-12, 2.34E-13, 4.83735464897913E-07, 2.60751238617019E-12, 2.131E-12
DataValue, -0.45, 0.1, 0, -1.306E-12, -2.6000000000000003E-14, -4.2480000000000005E-12, 1.306E-12, 1.1428035701729323E-06, 2.5727584780605435E-11, 4.2480000000000005E-12
DataValue, -0.4, 0.1, 0, 9.82E-13, 5.0900000000000005E-13, -1.963E-12, 9.82E-13, 9.9095913134699954E-07, 1.5933179708508997E-11, 1.963E-12
DataValue, -0.35000000000000003, 0.1, 0, 5.5300000000000007E-13, 1.94E-13, -1.3630000000000002E-12, 5.5300000000000007E-13, 7.4363969770312837E-07, 1.5696223390648366E-12, 1.3630000000000002E-12
DataValue, -0.3, 0.1, 0, 1.2460000000000001E-12, -3.8200000000000004E-13, -5.22E-13, 1.2460000000000001E-12, 1.116243700990066E-06, 7.5404128452583227E-12, 5.22E-13
DataValue, -0.25, 0.1, 0, 2.2000000000000002E-13, 6.9300000000000008E-13, -1.0800000000000001E-13, 2.2000000000000002E-13, 4.69041575982343E-07, 5.7706751320143456E-12, 1.0800000000000001E-13
DataValue, -0.2, 0.1, 0, 1.8400000000000002E-12, 4.6000000000000006E-13, -7.100000000000001E-13, 1.8400000000000002E-12, 1.3564659966250537E-06, 9.2485246712591273E-11, 7.100000000000001E-13
DataValue, -0.15, 0.1, 0, -2.047E-12, 1.0120000000000001E-12, -5.9900000000000007E-13, 2.047E-12, 1.4307340773183535E-06, 1.988901394096528E-13, 5.9900000000000007E-13
DataValue, -0.1, 0.1, 0, 1.721E-12, -1.52E-13, 4E-13, 1.721E-12, 1.3118688958886098E-06, 5.4027349944800307E-11, 4E-13
DataValue, -0.05, 0.1, 0, 4.8400000000000006E-13, -2.1400000000000002E-13, -1.0800000000000001E-13, 4.8400000000000006E-13, 6.9570108523704353E-07, 8.337896960935624E-11, 1.0800000000000001E-13
DataValue, 0, 0.1, 0, 1.59E-13, -3.41E-13, -1.1000000000000001E-13, 1.59E-13, 3.9874804074753774E-07, 9.16865004614689E-12, 1.1000000000000001E-13
DataValue, 0.05, 0.1, 0, 9.97E-13, -6.0000000000000007E-13, -6.77E-13, 9.97E-13, 9.9849887330932933E-07, 7.7564123956326018E-11, 6.77E-13
DataValue, 0.1, 0.1, 0, 1.6370000000000002E-12, -1.7960000000000002E-12, 1.69E-13, 1.6370000000000002E-12, 1.2794530081249566E-06, 3.4673995413647229E-10, 1.69E-13
DataValue, 0.15, 0.1, 0, 8.183000000000001E-12, -5.1700000000000008E-12, -1.24E-13, 8.183000000000001E-12, 2.8605943438383573E-06, 6.068373362883683E-10, 1.24E-13
DataValue, 0.2, 0.1, 0, 1.4009000000000001E-11, -1.3122000000000002E-11, 6.1E-13, 1.4009000000000001E-11, 3.7428598691375025E-06, 9.4461558766465013E-10, 6.1E-13
DataValue, 0.25, 0.1, 0, 3.5213E-11, -3.4075E-11, 2.3100000000000003E-13, 3.5213E-11, 5.9340542633177867E-06, 3.0967278701669732E-09, 2.3100000000000003E-13
DataValue, 0.3, 0.1, 0, 8.6633E-11, -8.1948000000000007E-11, 8.26E-13, 8.6633E-11, 9.30768499681849E-06, 6.5761440025420477E-09, 8.26E-13
DataValue, 0.35000000000000003, 0.1, 0, 1.9721700000000002E-10, -1.8717400000000002E-10, 2.35E-13, 1.9721700000000002E-10, 1.4043397024936667E-05, 1.2609676689308518E-08, 2.35E-13
DataValue, 0.4, 0.1, 0, 4.21767E-10, -4.0347000000000006E-10, 5.8E-14, 4.21767E-10, 2.0536966669885795E-05, 2.1461329301826792E-08, 5.8E-14
DataValue, 0.45, 0.1, 0, 8.2329300000000009E-10, -7.9234000000000008E-10, 5.2600000000000008E-13, 8.2329300000000009E-10, 2.8693082790108144E-05, 2.8011433082526924E-08, 5.2600000000000008E-13
DataValue, 0.5, 0.1, 0, 1.38932E-09, -1.32815E-09, 1.529E-12, 1.38932E-09, 3.7273583138732452E-05, 4.1927544520314013E-08, 1.529E-12
DataValue, 0.55, 0.1, 0, 2.41762E-09, -2.38553E-09, 1.304E-12, 2.41762E-09, 4.9169299364542504E-05, 6.1825881560556074E-08, 1.304E-12
DataValue, 0.6, 0.1, 0, 3.86118E-09, -3.80038E-09, 1.8860000000000002E-12, 3.86118E-09, 6.2138393928391812E-05, 6.8525102285187668E-08, 1.8860000000000002E-12
DataValue, 0.65, 0.1, 0, 5.67711E-09, -5.60289E-09, 3.426E-12, 5.67711E-09, 7.5346599126967893E-05, 7.10814216599268E-08, 3.426E-12
DataValue, 0.70000000000000007, 0.1, 0, 7.88535E-09, -7.77011E-09, 2.853E-12, 7.88535E-09, 8.8799493241797274E-05, 7.17500862532772E-08, 2.853E-12
DataValue, 0.75, 0.1, 0, 1.043111E-08, -1.03199E-08, 1.8140000000000002E-12, 1.043111E-08, 0.00010213280569924631, 6.0975599319405236E-08, 1.8140000000000002E-12
DataValue, 0.8, 0.1, 0, 1.28806E-08, -1.2581099999999999E-08, 1.51E-12, 1.28806E-08, 0.00011349273104476779, 6.0787920027778885E-08, 1.51E-12
DataValue, 0.85000000000000009, 0.1, 0, 1.6075199999999998E-08, -1.5952999999999997E-08, -3.6290000000000004E-12, 1.6075199999999998E-08, 0.00012678801205161315, 7.2326151714514934E-08, 3.6290000000000004E-12
DataValue, 0.9, 0.1, 0, 1.9708299999999997E-08, -1.9539199999999998E-08, -8.3600000000000007E-13, 1.9708299999999997E-08, 0.00014038625288823688, 7.01815331984777E-08, 8.3600000000000007E-13
DataValue, 0.95000000000000007, 0.1, 0, 2.3494699999999997E-08, -2.3378799999999996E-08, 1.1690000000000002E-12, 2.3494699999999997E-08, 0.00015327980949883776, 6.6522544296135351E-08, 1.1690000000000002E-12
DataValue, 1, 0.1, 0, 2.7615199999999997E-08, -2.74387E-08, 3.897E-12, 2.7615199999999997E-08, 0.0001661782175858196, 6.6992791097877919E-08, 3.897E-12
DataValue, 1.05, 0.1, 0, 3.20993E-08, -3.1877999999999996E-08, 3.6120000000000004E-12, 3.20993E-08, 0.00017916277515153643, 6.433164576946869E-08, 3.6120000000000004E-12
DataValue, 1.1, 0.1, 0, 3.6688299999999994E-08, -3.64998E-08, 3.534E-12, 3.6688299999999994E-08, 0.00019154190142107286, 6.1619392831662419E-08, 3.534E-12
DataValue, 1.1500000000000001, 0.1, 0, 4.1610299999999996E-08, -4.1425499999999996E-08, 1.1891000000000001E-11, 4.1610299999999996E-08, 0.00020398602893335611, 6.1668959944473531E-08, 1.1891000000000001E-11
DataValue, 1.2, 0.1, 0, 4.6818199999999994E-08, -4.6588399999999995E-08, 3.7850000000000005E-12, 4.6818199999999994E-08, 0.00021637513720388485, 5.9861412288215939E-08, 3.7850000000000005E-12
DataValue, 1.25, 0.1, 0, 5.2190599999999992E-08, -5.1905099999999993E-08, 3.196E-12, 5.2190599999999992E-08, 0.00022845262090858139, 5.72997571092183E-08, 3.196E-12
DataValue, 1.3, 0.1, 0, 5.7750099999999996E-08, -5.7535499999999993E-08, 3.53E-13, 5.7750099999999996E-08, 0.00024031250487646289, 5.9039507568650205E-08, 3.53E-13
DataValue, 1.35, 0.1, 0, 6.38829E-08, -6.36748E-08, 4.817E-12, 6.38829E-08, 0.0002527506676549045, 5.9042776327803944E-08, 4.817E-12
DataValue, 1.4000000000000001, 0.1, 0, 7.0019099999999992E-08, -6.98457E-08, 2.3460000000000003E-12, 7.0019099999999992E-08, 0.00026461122425173122, 5.8000136776573895E-08, 2.3460000000000003E-12
DataValue, 1.4500000000000002, 0.1, 0, 7.6636999999999987E-08, -7.62722E-08, 5.1200000000000008E-12, 7.6636999999999987E-08, 0.0002768338852091629, 5.8179780269799758E-08, 5.1200000000000008E-12
DataValue, 1.5, 0.1, 0, 8.3366E-08, -8.31511E-08, 6.147E-12, 8.3366E-08, 0.000288731709377408, 5.7199148095366774E-08, 6.147E-12
DataValue, 1.55, 0.1, 0, 9.0450699999999991E-08, -9.0396799999999988E-08, 1.4778000000000002E-11, 9.0450699999999991E-08, 0.00030075022859509182, 5.7798753425837964E-08, 1.4778000000000002E-11
DataValue, 1.6, 0.1, 0, 9.7826999999999993E-08, -9.7556399999999985E-08, 7.35E-12, 9.7826999999999993E-08, 0.00031277308068310481, 5.6247544473628136E-08, 7.35E-12
DataValue, 1.6500000000000001, 0.1, 0, 1.052787E-07, -1.0514229999999999E-07, 9.272E-12, 1.052787E-07, 0.00032446679337029235, 5.4364486400268674E-08, 9.272E-12
DataValue, 1.7000000000000002, 0.1, 0, 1.12956E-07, -1.1267459999999999E-07, 1.2794E-11, 1.12956E-07, 0.00033608927385443292, 5.3283426226744915E-08, 1.2794E-11
DataValue, 1.75, 0.1, 0, 1.2079099999999999E-07, -1.20197E-07, 9.1260000000000013E-12, 1.2079099999999999E-07, 0.00034754999640339518, 5.3560962146619028E-08, 9.1260000000000013E-12
DataValue, 1.8, 0.1, 0, 1.29048E-07, -1.28895E-07, 1.5561E-11, 1.29048E-07, 0.00035923251523212651, 5.5161051299828712E-08, 1.5561E-11
DataValue, 1.85, 0.1, 0, 1.3766799999999999E-07, -1.37544E-07, 2.3594E-11, 1.3766799999999999E-07, 0.00037103638635583973, 5.727377675701349E-08, 2.3594E-11
DataValue, 1.9000000000000001, 0.1, 0, 1.46815E-07, -1.4651399999999998E-07, 2.9005E-11, 1.46815E-07, 0.00038316445555400882, 5.920978636327022E-08, 2.9005E-11
DataValue, 1.9500000000000002, 0.1, 0, 1.56317E-07, -1.56E-07, 3.4077E-11, 1.56317E-07, 0.00039536944747919006, 5.9375742957775139E-08, 3.4077E-11
DataValue, 2, 0.1, 0, 1.66082E-07, -1.65805E-07, 4.1793000000000005E-11, 1.66082E-07, 0.00040753159386727305, 5.7190167822320657E-08, 4.1793000000000005E-11
DataValue, 2.05, 0.1, 0, 1.75799E-07, -1.7541E-07, 5.3194E-11, 1.75799E-07, 0.00041928391335704739, 5.6462360238737654E-08, 5.3194E-11
DataValue, 2.1, 0.1, 0, 1.86014E-07, -1.85979E-07, 6.4423000000000009E-11, 1.86014E-07, 0.00043129340361290012, 5.6347036939204558E-08, 6.4423000000000009E-11
DataValue, 2.15, 0.1, 0, 1.96268E-07, -1.96285E-07, 7.9888E-11, 1.96268E-07, 0.00044302144417623847, 5.431892322429804E-08, 7.9888E-11
DataValue, 2.2, 0.1, 0, 2.06661E-07, -2.06616E-07, 9.7825000000000009E-11, 2.06661E-07, 0.00045459982402108339, 5.5299283937960457E-08, 9.7825000000000009E-11
DataValue, 2.25, 0.1, 0, 2.17657E-07, -2.17403E-07, 1.18567E-10, 2.17657E-07, 0.00046653724395807889, 5.5001855422280668E-08, 1.18567E-10
DataValue, 2.3000000000000003, 0.1, 0, 2.28534E-07, -2.28385E-07, 1.44198E-10, 2.28534E-07, 0.0004780522983942238, 5.37502742388889E-08, 1.44198E-10
