
SetupTitle, Transfer stab
PrimitiveTest, I/V Sweep
TestParameter, Context.MainFrame, 4155C
TestParameter, Channel.UnitType, SMU, SMU, SMU
TestParameter, Channel.Unit, SMU3:MP, SMU1:MP, SMU4:MP
TestParameter, Channel.IName, ID, IS, IG
TestParameter, Channel.VName, VD, VS, VG
TestParameter, Channel.Mode, V, COMMON, V
TestParameter, Channel.Func, CONST, CONST, VAR1
TestParameter, Channel.Index, 
TestParameter, Channel.Time, 
TestParameter, Measurement.Port.Unit, SMU3:MP, SMU1:MP, SMU4:MP
TestParameter, Measurement.Port.SeriesResistor, NONE, NONE, NONE
TestParameter, Measurement.Port.Filter, ON, ON, ON
TestParameter, Measurement.Primary.Locus, Single
TestParameter, Measurement.Primary.Scale, LINEAR
TestParameter, Measurement.Primary.Start, -2
TestParameter, Measurement.Primary.Stop, 3
TestParameter, Measurement.Primary.Step, 0.05
TestParameter, Measurement.Primary.Compliance, 0.1
TestParameter, Measurement.Primary.PowerCompliance, 0
TestParameter, Measurement.Aborting.Condition, CONTINUE AT ANY
TestParameter, Measurement.PostOutput.Value, START
TestParameter, Measurement.PostOutput.Retention, OFF
TestParameter, Measurement.Bias.Source, 3, 0, -2
TestParameter, Measurement.Bias.Compliance, 0.1, 0.1, 0.1
TestParameter, Measurement.Monitor.Unit, SMU3:MP, SMU1:MP, SMU4:MP
TestParameter, Measurement.Monitor.Adc, HR ADC, HR ADC, HR ADC
TestParameter, Measurement.Monitor.RangingMode, AUTO, AUTO, AUTO
TestParameter, Measurement.Monitor.RangeBoundary, , , 
TestParameter, Measurement.Monitor.RangeRating, BY FULL RANGE, BY FULL RANGE, BY FULL RANGE
TestParameter, Measurement.Monitor.RangeRatingCoeff, 50, 50, 50
TestParameter, Measurement.Timing.Hold, 0.5
TestParameter, Measurement.Timing.Delay, 0.05
TestParameter, Measurement.Adc.HighResolution.AutoZero, OFF
TestParameter, Measurement.Adc.HighResolution.Mode, AUTO
TestParameter, Measurement.Adc.HighResolution.Coeff, 1
TestParameter, Measurement.Ag16440ASelector.SemiconductorRelay.Channel1, DEFAULT
TestParameter, Measurement.Ag16440ASelector.SemiconductorRelay.Channel3, DEFAULT
TestParameter, Function.User.Name, absID, sqrtID, gm2, absIG
TestParameter, Function.User.Unit, A, A, A/V, A
TestParameter, Function.User.Definition, abs(ID), sqrt(abs(ID)), (delta(sqrtID)/delta(VG))^2, abs(IG)
TestParameter, Output.Graph.Enabled, true
TestParameter, Output.Graph.XAxis.Data, VG
TestParameter, Output.Graph.XAxis.Scale, Linear
TestParameter, Output.Graph.XAxis.Left, -5
TestParameter, Output.Graph.XAxis.Right, 7
TestParameter, Output.Graph.YAxis.Data, ID, absIG, gm2
TestParameter, Output.Graph.YAxis.Scale, Log, Log, Linear
TestParameter, Output.Graph.YAxis.Bottom, 1E-14, 1E-14, 0
TestParameter, Output.Graph.YAxis.Top, 0.01, 0.01, 1E-05
TestParameter, Output.Graph.YAxis.Group, , , 
TestParameter, Output.List.Data, VG, IG, VD, ID, VS, IS, sqrtID, gm2, absIG
TestParameter, AutoAnalysis.Interpolation, false
TestParameter, AutoAnalysis.Line1.Enabled, false
TestParameter, AutoAnalysis.Line1.Type, 1
TestParameter, AutoAnalysis.Line1.Fix, True
TestParameter, AutoAnalysis.Line1.YAxis, 0
TestParameter, AutoAnalysis.Line1.Point1.Type, 0
TestParameter, AutoAnalysis.Line1.Point1.XY.X, 
TestParameter, AutoAnalysis.Line1.Point1.XY.Y, 
TestParameter, AutoAnalysis.Line1.Point1.Data.Var, 
TestParameter, AutoAnalysis.Line1.Point1.Data.Condition, 
TestParameter, AutoAnalysis.Line1.Point1.Data.Start, false
TestParameter, AutoAnalysis.Line1.Point1.Data.StartVar, 
TestParameter, AutoAnalysis.Line1.Point1.Data.StartCondition, 
TestParameter, AutoAnalysis.Line1.Point2.Type, 0
TestParameter, AutoAnalysis.Line1.Point2.XY.X, 
TestParameter, AutoAnalysis.Line1.Point2.XY.Y, 
TestParameter, AutoAnalysis.Line1.Point2.Data.Var, 
TestParameter, AutoAnalysis.Line1.Point2.Data.Condition, 
TestParameter, AutoAnalysis.Line1.Point2.Data.Start, false
TestParameter, AutoAnalysis.Line1.Point2.Data.StartVar, 
TestParameter, AutoAnalysis.Line1.Point2.Data.StartCondition, 
TestParameter, AutoAnalysis.Line1.GradientExpr, 0
TestParameter, AutoAnalysis.Line2.Enabled, false
TestParameter, AutoAnalysis.Line2.Type, 1
TestParameter, AutoAnalysis.Line2.Fix, True
TestParameter, AutoAnalysis.Line2.YAxis, 0
TestParameter, AutoAnalysis.Line2.Point1.Type, 0
TestParameter, AutoAnalysis.Line2.Point1.XY.X, 
TestParameter, AutoAnalysis.Line2.Point1.XY.Y, 
TestParameter, AutoAnalysis.Line2.Point1.Data.Var, 
TestParameter, AutoAnalysis.Line2.Point1.Data.Condition, 
TestParameter, AutoAnalysis.Line2.Point1.Data.Start, false
TestParameter, AutoAnalysis.Line2.Point1.Data.StartVar, 
TestParameter, AutoAnalysis.Line2.Point1.Data.StartCondition, 
TestParameter, AutoAnalysis.Line2.Point2.Type, 0
TestParameter, AutoAnalysis.Line2.Point2.XY.X, 
TestParameter, AutoAnalysis.Line2.Point2.XY.Y, 
TestParameter, AutoAnalysis.Line2.Point2.Data.Var, 
TestParameter, AutoAnalysis.Line2.Point2.Data.Condition, 
TestParameter, AutoAnalysis.Line2.Point2.Data.Start, false
TestParameter, AutoAnalysis.Line2.Point2.Data.StartVar, 
TestParameter, AutoAnalysis.Line2.Point2.Data.StartCondition, 
TestParameter, AutoAnalysis.Line2.GradientExpr, 0
TestParameter, AutoAnalysis.Marker.Enabled, false
TestParameter, AutoAnalysis.Marker.Data.Var, 
TestParameter, AutoAnalysis.Marker.Data.Condition, 
TestParameter, AutoAnalysis.Marker.Data.Start, false
TestParameter, AutoAnalysis.Marker.Data.StartVar, 
TestParameter, AutoAnalysis.Marker.Data.StartCondition, 
MetaData, TestRecord.EntryPoint, true
MetaData, TestRecord.RecordTime, 05/02/2019 10:53:09
MetaData, TestRecord.TestTarget, 250-300-100-20
MetaData, TestRecord.IterationIndex, 3
MetaData, TestRecord.Preservation, true
MetaData, TestRecord.Flag, 
MetaData, TestRecord.Remarks, bad
MetaData, TestRecord.LinkKey, 2ade065e-6820-4f44-9967-91a6b4f7415a
Dimension1, 101, 101, 101, 101, 101, 101, 101, 101, 101, 101
Dimension2, 1, 1, 1, 1, 1, 1, 1, 1, 1, 1
DataName, VG, VD, VS, ID, IS, IG, absID, sqrtID, gm2, absIG
DataValue, -2, 3, 0, 4.5792E-11, 5.4120000000000008E-12, -5.0162E-11, 4.5792E-11, 6.7669786463384087E-06, 5.4674835227756177E-13, 5.0162E-11
DataValue, -1.9500000000000002, 3, 0, 4.5293000000000006E-11, 6.292E-12, -5.0129000000000003E-11, 4.5293000000000006E-11, 6.7300074294164045E-06, 3.1266680037510961E-14, 5.0129000000000003E-11
DataValue, -1.9000000000000001, 3, 0, 4.5553000000000007E-11, 5.3970000000000005E-12, -5.0002000000000006E-11, 4.5553000000000007E-11, 6.7492962596110716E-06, 1.4222615218740684E-12, 5.0002000000000006E-11
DataValue, -1.85, 3, 0, 4.3702000000000006E-11, 4.0510000000000004E-12, -4.8691000000000004E-11, 4.3702000000000006E-11, 6.6107488229398037E-06, 3.4196411457947446E-12, 4.8691000000000004E-11
DataValue, -1.8, 3, 0, 4.3091000000000005E-11, 4.33E-12, -4.7111E-11, 4.3091000000000005E-11, 6.5643735420830526E-06, 2.2576110023078964E-12, 4.7111E-11
DataValue, -1.75, 3, 0, 4.1738000000000005E-11, 4.309E-12, -4.7066E-11, 4.1738000000000005E-11, 6.460495337046534E-06, 2.4622488552338168E-13, 4.7066E-11
DataValue, -1.7000000000000002, 3, 0, 4.2442E-11, 4.1920000000000007E-12, -4.6462000000000005E-11, 4.2442E-11, 6.5147524895424846E-06, 1.9398190338169682E-12, 4.6462000000000005E-11
DataValue, -1.6500000000000001, 3, 0, 4.3557E-11, 3.138E-12, -4.5789E-11, 4.3557E-11, 6.5997727233594945E-06, 2.68127576378495E-13, 4.5789E-11
DataValue, -1.6, 3, 0, 4.177E-11, 2.532E-12, -4.487E-11, 4.177E-11, 6.4629714528226104E-06, 6.6007765369751239E-13, 4.487E-11
DataValue, -1.55, 3, 0, 4.4636000000000005E-11, 2.272E-12, -4.3338000000000005E-11, 4.4636000000000005E-11, 6.6810178865199875E-06, 6.8116294756069454E-13, 4.3338000000000005E-11
DataValue, -1.5, 3, 0, 4.071E-11, 2.435E-12, -4.3368000000000003E-11, 4.071E-11, 6.3804388563797082E-06, 2.4733679737514663E-11, 4.3368000000000003E-11
DataValue, -1.4500000000000002, 3, 0, 3.8238000000000004E-11, 2.1540000000000003E-12, -4.2242000000000005E-11, 3.8238000000000004E-11, 6.1836882198248E-06, 5.0869771625420818E-12, 4.2242000000000005E-11
DataValue, -1.4000000000000001, 3, 0, 4.3639E-11, 1.4280000000000002E-12, -4.1570000000000005E-11, 4.3639E-11, 6.605982137426652E-06, 1.0250037452368694E-11, 4.1570000000000005E-11
DataValue, -1.35, 3, 0, 4.2300000000000005E-11, 9.65E-13, -4.1085000000000006E-11, 4.2300000000000005E-11, 6.50384501660364E-06, 8.569792645515113E-12, 4.1085000000000006E-11
DataValue, -1.3, 3, 0, 3.9857000000000005E-11, 1.0020000000000002E-12, -3.9431E-11, 3.9857000000000005E-11, 6.3132400556291228E-06, 5.7208132651763756E-12, 3.9431E-11
DataValue, -1.25, 3, 0, 3.9246000000000005E-11, 7.8800000000000008E-13, -3.9207000000000006E-11, 3.9246000000000005E-11, 6.2646628001832633E-06, 6.4113811394546641E-12, 3.9207000000000006E-11
DataValue, -1.2, 3, 0, 3.6724000000000005E-11, 3.2400000000000003E-13, -3.8447E-11, 3.6724000000000005E-11, 6.0600330032104614E-06, 1.1390421297136732E-13, 3.8447E-11
DataValue, -1.1500000000000001, 3, 0, 3.9670000000000004E-11, -2.79E-13, -3.8314000000000003E-11, 3.9670000000000004E-11, 6.2984124983998944E-06, 1.6721769495515582E-12, 3.8314000000000003E-11
DataValue, -1.1, 3, 0, 3.8308000000000004E-11, -6.410000000000001E-13, -3.7224000000000004E-11, 3.8308000000000004E-11, 6.1893456843191428E-06, 3.0373485899874862E-12, 3.7224000000000004E-11
DataValue, -1.05, 3, 0, 3.7505000000000004E-11, -5.7E-13, -3.5850000000000004E-11, 3.7505000000000004E-11, 6.12413259164104E-06, 2.048067149593632E-15, 3.5850000000000004E-11
DataValue, -1, 3, 0, 3.8252E-11, -1.1080000000000001E-12, -3.6108E-11, 3.8252E-11, 6.1848201267296367E-06, 7.786471379780347E-14, 3.6108E-11
DataValue, -0.95000000000000007, 3, 0, 3.7164000000000006E-11, -1.4760000000000002E-12, -3.4848000000000003E-11, 3.7164000000000006E-11, 6.0962283421801062E-06, 9.6746390868258514E-13, 3.4848000000000003E-11
DataValue, -0.9, 3, 0, 3.7045E-11, -2.089E-12, -3.4701E-11, 3.7045E-11, 6.0864603835069857E-06, 1.0232897870000383E-13, 3.4701E-11
DataValue, -0.85000000000000009, 3, 0, 3.6775000000000004E-11, -2.102E-12, -3.2709E-11, 3.6775000000000004E-11, 6.064239441183041E-06, 1.3505365267293098E-13, 3.2709E-11
DataValue, -0.8, 3, 0, 3.6599000000000006E-11, -2.3620000000000002E-12, -3.2572E-11, 3.6599000000000006E-11, 6.0497107368865172E-06, 3.8624512695603867E-12, 3.2572E-11
DataValue, -0.75, 3, 0, 3.4430000000000004E-11, -2.903E-12, -3.2601000000000005E-11, 3.4430000000000004E-11, 5.8677082408722406E-06, 1.9004893052033886E-12, 3.2601000000000005E-11
DataValue, -0.70000000000000007, 3, 0, 3.495E-11, -3.0230000000000003E-12, -3.1094E-11, 3.495E-11, 5.9118525015429808E-06, 1.0612350692362714E-14, 3.1094E-11
DataValue, -0.65, 3, 0, 3.4551E-11, -2.7880000000000002E-12, -2.7574000000000003E-11, 3.4551E-11, 5.8780098672935213E-06, 1.97579652950635E-14, 2.7574000000000003E-11
DataValue, -0.6, 3, 0, 3.4784000000000004E-11, -2.086E-12, -3.0331E-11, 3.4784000000000004E-11, 5.8977961985812972E-06, 5.5297212253108368E-14, 3.0331E-11
DataValue, -0.55, 3, 0, 3.4828E-11, -3.067E-12, -3.1655E-11, 3.4828E-11, 5.9015252265833787E-06, 4.2640363991909877E-14, 3.1655E-11
DataValue, -0.5, 3, 0, 3.5028E-11, -6.303E-12, -2.8846000000000004E-11, 3.5028E-11, 5.9184457419156932E-06, 7.55656833102269E-12, 2.8846000000000004E-11
DataValue, -0.45, 3, 0, 3.1659E-11, -5.9720000000000008E-12, -2.6277000000000002E-11, 3.1659E-11, 5.6266330962663633E-06, 1.6656199788397321E-12, 2.6277000000000002E-11
DataValue, -0.4, 3, 0, 3.3517000000000004E-11, -5.337E-12, -2.5497000000000003E-11, 3.3517000000000004E-11, 5.7893868414539377E-06, 1.183378286718818E-12, 2.5497000000000003E-11
DataValue, -0.35000000000000003, 3, 0, 3.2895E-11, -4.21E-12, -2.5621000000000003E-11, 3.2895E-11, 5.7354162882915479E-06, 2.7095112551648651E-13, 2.5621000000000003E-11
DataValue, -0.3, 3, 0, 3.2917E-11, -5.55E-12, -2.684E-11, 3.2917E-11, 5.7373338755906474E-06, 3.74253369506584E-13, 2.684E-11
DataValue, -0.25, 3, 0, 3.2197E-11, -6.4670000000000006E-12, -2.6435000000000004E-11, 3.2197E-11, 5.6742400372208436E-06, 5.1004328246875655E-15, 2.6435000000000004E-11
DataValue, -0.2, 3, 0, 3.2999E-11, -7.949E-12, -2.3696E-11, 3.2999E-11, 5.7444756070506559E-06, 1.0814957408734963E-12, 2.3696E-11
DataValue, -0.15, 3, 0, 3.3388E-11, -8.563E-12, -2.2112000000000003E-11, 3.3388E-11, 5.7782350246420408E-06, 5.1091938249527333E-12, 2.2112000000000003E-11
DataValue, -0.1, 3, 0, 3.5647E-11, -1.0859000000000001E-11, -2.2473E-11, 3.5647E-11, 5.97051086591424E-06, 4.1412424383488447E-11, 2.2473E-11
DataValue, -0.05, 3, 0, 4.1239E-11, -1.6448E-11, -2.2172E-11, 4.1239E-11, 6.4217598833964516E-06, 1.621504556384838E-10, 2.2172E-11
DataValue, 0, 3, 0, 5.2474E-11, -3.008E-11, -2.1963E-11, 5.2474E-11, 7.2438939804500176E-06, 6.9499470546894065E-10, 2.1963E-11
DataValue, 0.05, 3, 0, 8.2048000000000012E-11, -5.8499000000000009E-11, -2.0835E-11, 8.2048000000000012E-11, 9.058035107019624E-06, 2.4369843824445198E-09, 2.0835E-11
DataValue, 0.1, 3, 0, 1.48364E-10, -1.2427800000000002E-10, -1.9632000000000002E-11, 1.48364E-10, 1.2180476181167959E-05, 7.3589022786954325E-09, 1.9632000000000002E-11
DataValue, 0.15, 3, 0, 3.1104400000000003E-10, -2.82002E-10, -1.8722000000000002E-11, 3.1104400000000003E-10, 1.76364395499772E-05, 1.9908343892940997E-08, 1.8722000000000002E-11
DataValue, 0.2, 3, 0, 6.91173E-10, -6.44988E-10, -1.8053E-11, 6.91173E-10, 2.6290169265335666E-05, 3.9253882078793887E-08, 1.8053E-11
DataValue, 0.25, 3, 0, 1.40243E-09, -1.33509E-09, -1.7764E-11, 1.40243E-09, 3.744903203021408E-05, 7.8903631789569016E-08, 1.7764E-11
DataValue, 0.3, 3, 0, 2.95718E-09, -2.8964E-09, -1.6652E-11, 2.95718E-09, 5.4379959543934932E-05, 1.4365525358107904E-07, 1.6652E-11
DataValue, 0.35000000000000003, 3, 0, 5.67776E-09, -5.58378E-09, -1.6081E-11, 5.67776E-09, 7.5350912403235039E-05, 2.052678843896281E-07, 1.6081E-11
DataValue, 0.4, 3, 0, 9.93739E-09, -9.8045E-09, -1.5576E-11, 9.93739E-09, 9.96864584585088E-05, 2.4173502535596851E-07, 1.5576E-11
DataValue, 0.45, 3, 0, 1.5504599999999997E-08, -1.5134599999999998E-08, -1.4104E-11, 1.5504599999999997E-08, 0.0001245174686540005, 3.0955915590215942E-07, 1.4104E-11
DataValue, 0.5, 3, 0, 2.4125699999999997E-08, -2.3916199999999998E-08, -1.4552000000000002E-11, 2.4125699999999997E-08, 0.00015532449903347506, 4.1408813703807539E-07, 1.4552000000000002E-11
DataValue, 0.55, 3, 0, 3.56708E-08, -3.5371E-08, -1.3207E-11, 3.56708E-08, 0.00018886714907574584, 4.7586991518491496E-07, 1.3207E-11
DataValue, 0.6, 3, 0, 5.0313999999999996E-08, -4.9953299999999994E-08, -1.1567E-11, 5.0313999999999996E-08, 0.00022430782420593357, 5.3099714165752974E-07, 1.1567E-11
DataValue, 0.65, 3, 0, 6.85061E-08, -6.8057099999999991E-08, -1.1559000000000001E-11, 6.85061E-08, 0.00026173669975759989, 5.8462373345020563E-07, 1.1559000000000001E-11
DataValue, 0.70000000000000007, 3, 0, 9.046169999999999E-08, -8.9871399999999993E-08, -1.0538E-11, 9.046169999999999E-08, 0.00030076851563951967, 5.68982283900333E-07, 1.0538E-11
DataValue, 0.75, 3, 0, 1.13682E-07, -1.12326E-07, -8.862E-12, 1.13682E-07, 0.00033716761410313415, 6.039462788972403E-07, 8.862E-12
DataValue, 0.8, 3, 0, 1.43249E-07, -1.42609E-07, -7.795E-12, 1.43249E-07, 0.0003784824962927612, 7.27692088119937E-07, 7.795E-12
DataValue, 0.85000000000000009, 3, 0, 1.78483E-07, -1.77669E-07, -6.544E-12, 1.78483E-07, 0.0004224724843111087, 7.8875435454213717E-07, 6.544E-12
DataValue, 0.9, 3, 0, 2.1836399999999998E-07, -2.17508E-07, -3.138E-12, 2.1836399999999998E-07, 0.00046729433979024394, 8.19840775432585E-07, 3.138E-12
DataValue, 0.95000000000000007, 3, 0, 2.63187E-07, -2.62162E-07, -1.295E-12, 2.63187E-07, 0.000513017543559672, 8.5183292211535343E-07, 1.295E-12
DataValue, 1, 3, 0, 3.1314E-07, -3.11921E-07, 7.653E-12, 3.1314E-07, 0.00055958913499102182, 8.8178436220532343E-07, 7.653E-12
DataValue, 1.05, 3, 0, 3.68353E-07, -3.67232E-07, 1.3418000000000001E-11, 3.68353E-07, 0.00060692091741840638, 9.209834005756909E-07, 1.3418000000000001E-11
DataValue, 1.1, 3, 0, 4.2975499999999997E-07, -4.28475E-07, 8.85E-12, 4.2975499999999997E-07, 0.00065555701506428866, 9.5954517690326626E-07, 8.85E-12
DataValue, 1.1500000000000001, 3, 0, 4.96852E-07, -4.95578E-07, 4.3370000000000006E-12, 4.96852E-07, 0.00070487729428603393, 9.8674482244005731E-07, 4.3370000000000006E-12
DataValue, 1.2, 3, 0, 5.6986199999999994E-07, -5.68397E-07, 2.4168E-11, 5.6986199999999994E-07, 0.00075489204526210229, 1.0223794298446449E-06, 2.4168E-11
DataValue, 1.25, 3, 0, 6.4962E-07, -6.48136E-07, 3.4499E-11, 6.4962E-07, 0.000805990074380572, 1.0525490810516793E-06, 3.4499E-11
DataValue, 1.3, 3, 0, 7.35282E-07, -7.33475E-07, 4.4960000000000006E-11, 7.35282E-07, 0.0008574858599417252, 1.0768396207189181E-06, 4.4960000000000006E-11
DataValue, 1.35, 3, 0, 8.27665E-07, -8.25693E-07, 4.8296E-11, 8.27665E-07, 0.00090976095761469123, 1.1078181716109229E-06, 4.8296E-11
DataValue, 1.4000000000000001, 3, 0, 9.26866E-07, -9.2519199999999994E-07, 7.0685E-11, 9.26866E-07, 0.00096273880154484264, 1.1332785136851915E-06, 7.0685E-11
DataValue, 1.4500000000000002, 3, 0, 1.032696E-06, -1.030741E-06, 9.1616000000000007E-11, 1.032696E-06, 0.0010162165123633841, 1.0944872818616163E-06, 9.1616000000000007E-11
DataValue, 1.5, 3, 0, 1.1392500000000002E-06, -1.137753E-06, 1.0831600000000001E-10, 1.1392500000000002E-06, 0.0010673565477383835, 1.1303163712002528E-06, 1.0831600000000001E-10
DataValue, 1.55, 3, 0, 1.26008E-06, -1.2560800000000002E-06, 1.26102E-10, 1.26008E-06, 0.0011225328502988232, 1.2174994436257102E-06, 1.26102E-10
DataValue, 1.6, 3, 0, 1.38697E-06, -1.38516E-06, 1.5481400000000002E-10, 1.38697E-06, 0.0011776969049802247, 1.2489497159977147E-06, 1.5481400000000002E-10
DataValue, 1.6500000000000001, 3, 0, 1.5234700000000001E-06, -1.5222600000000002E-06, 1.8635500000000003E-10, 1.5234700000000001E-06, 0.0012342892691747749, 1.2912201431627217E-06, 1.8635500000000003E-10
DataValue, 1.7000000000000002, 3, 0, 1.6675300000000001E-06, -1.6653000000000002E-06, 2.1889E-10, 1.6675300000000001E-06, 0.0012913287730086402, 1.3068472338551995E-06, 2.1889E-10
DataValue, 1.75, 3, 0, 1.81874E-06, -1.8165700000000001E-06, 2.6169400000000004E-10, 1.81874E-06, 0.0013486066884010326, 1.3260133353157098E-06, 2.6169400000000004E-10
DataValue, 1.8, 3, 0, 1.97819E-06, -1.97589E-06, 3.05208E-10, 1.97819E-06, 0.0014064814254017009, 1.3451030352259542E-06, 3.05208E-10
DataValue, 1.85, 3, 0, 2.14501E-06, -2.14302E-06, 3.52095E-10, 2.14501E-06, 0.0014645852655274121, 1.3667837974614483E-06, 3.52095E-10
DataValue, 1.9000000000000001, 3, 0, 2.32072E-06, -2.31823E-06, 4.0872400000000005E-10, 2.32072E-06, 0.0015233909544171516, 1.3908635100848728E-06, 4.0872400000000005E-10
DataValue, 1.9500000000000002, 3, 0, 2.50437E-06, -2.5026700000000002E-06, 4.6626700000000006E-10, 2.50437E-06, 0.0015825201420519108, 1.4094555043287572E-06, 4.6626700000000006E-10
DataValue, 2, 3, 0, 2.6965300000000003E-06, -2.6945E-06, 5.2910100000000007E-10, 2.6965300000000003E-06, 0.0016421114456698731, 1.4343324214990519E-06, 5.2910100000000007E-10
DataValue, 2.05, 3, 0, 2.8977700000000005E-06, -2.8957700000000003E-06, 6.00675E-10, 2.8977700000000005E-06, 0.0017022837601293154, 1.4546984551247602E-06, 6.00675E-10
DataValue, 2.1, 3, 0, 3.1071900000000002E-06, -3.1050900000000003E-06, 6.7954E-10, 3.1071900000000002E-06, 0.0017627223264031122, 1.4715171362892293E-06, 6.7954E-10
DataValue, 2.15, 3, 0, 3.3254800000000005E-06, -3.32286E-06, 7.66832E-10, 3.3254800000000005E-06, 0.0018235898661705708, 1.4886055428884861E-06, 7.66832E-10
DataValue, 2.2, 3, 0, 3.5522100000000003E-06, -3.5496000000000003E-06, 8.5690600000000006E-10, 3.5522100000000003E-06, 0.0018847307500011773, 1.4938605562135246E-06, 8.5690600000000006E-10
DataValue, 2.25, 3, 0, 3.7861900000000004E-06, -3.7846800000000002E-06, 9.5796600000000012E-10, 3.7861900000000004E-06, 0.0019458134545736908, 1.512883063832517E-06, 9.5796600000000012E-10
DataValue, 2.3000000000000003, 3, 0, 4.03098E-06, -4.02937E-06, 1.067023E-09, 4.03098E-06, 0.0020077300615371579, 1.5099933427239734E-06, 1.067023E-09
