
SetupTitle, Transfer lin
PrimitiveTest, I/V Sweep
TestParameter, Context.MainFrame, 4155C
TestParameter, Channel.UnitType, SMU, SMU, SMU
TestParameter, Channel.Unit, SMU3:MP, SMU1:MP, SMU4:MP
TestParameter, Channel.IName, ID, IS, IG
TestParameter, Channel.VName, VD, VS, VG
TestParameter, Channel.Mode, V, COMMON, V
TestParameter, Channel.Func, CONST, CONST, VAR1
TestParameter, Channel.Index, 
TestParameter, Channel.Time, 
TestParameter, Measurement.Port.Unit, SMU3:MP, SMU1:MP, SMU4:MP
TestParameter, Measurement.Port.SeriesResistor, NONE, NONE, NONE
TestParameter, Measurement.Port.Filter, ON, ON, ON
TestParameter, Measurement.Primary.Locus, Double
TestParameter, Measurement.Primary.Scale, LINEAR
TestParameter, Measurement.Primary.Start, -2
TestParameter, Measurement.Primary.Stop, 3
TestParameter, Measurement.Primary.Step, 0.05
TestParameter, Measurement.Primary.Compliance, 0.001
TestParameter, Measurement.Primary.PowerCompliance, 0
TestParameter, Measurement.Aborting.Condition, CONTINUE AT ANY
TestParameter, Measurement.PostOutput.Value, START
TestParameter, Measurement.PostOutput.Retention, OFF
TestParameter, Measurement.Bias.Source, 0.1, 0, -2
TestParameter, Measurement.Bias.Compliance, 0.001, 0.1, 0.001
TestParameter, Measurement.Monitor.Unit, SMU3:MP, SMU1:MP, SMU4:MP
TestParameter, Measurement.Monitor.Adc, HR ADC, HR ADC, HR ADC
TestParameter, Measurement.Monitor.RangingMode, AUTO, AUTO, AUTO
TestParameter, Measurement.Monitor.RangeBoundary, , , 
TestParameter, Measurement.Monitor.RangeRating, BY FULL RANGE, BY FULL RANGE, BY FULL RANGE
TestParameter, Measurement.Monitor.RangeRatingCoeff, 50, 50, 50
TestParameter, Measurement.Timing.Hold, 0.5
TestParameter, Measurement.Timing.Delay, 0.05
TestParameter, Measurement.Adc.HighResolution.AutoZero, OFF
TestParameter, Measurement.Adc.HighResolution.Mode, AUTO
TestParameter, Measurement.Adc.HighResolution.Coeff, 1
TestParameter, Measurement.Ag16440ASelector.SemiconductorRelay.Channel1, DEFAULT
TestParameter, Measurement.Ag16440ASelector.SemiconductorRelay.Channel3, DEFAULT
TestParameter, Function.User.Name, absID, sqrtID, gm2, absIG
TestParameter, Function.User.Unit, A, A, A/V, A
TestParameter, Function.User.Definition, abs(ID), sqrt(abs(ID)), (delta(sqrtID)/delta(VG))^2, abs(IG)
TestParameter, Output.Graph.Enabled, true
TestParameter, Output.Graph.XAxis.Data, VG
TestParameter, Output.Graph.XAxis.Scale, Linear
TestParameter, Output.Graph.XAxis.Left, -5
TestParameter, Output.Graph.XAxis.Right, 7
TestParameter, Output.Graph.YAxis.Data, ID, absIG, gm2
TestParameter, Output.Graph.YAxis.Scale, Log, Log, Linear
TestParameter, Output.Graph.YAxis.Bottom, 1E-14, 1E-14, 0
TestParameter, Output.Graph.YAxis.Top, 0.01, 0.01, 1E-05
TestParameter, Output.Graph.YAxis.Group, , , 
TestParameter, Output.List.Data, VG, IG, VD, ID, VS, IS, sqrtID, gm2, absIG
TestParameter, AutoAnalysis.Interpolation, false
TestParameter, AutoAnalysis.Line1.Enabled, false
TestParameter, AutoAnalysis.Line1.Type, 1
TestParameter, AutoAnalysis.Line1.Fix, True
TestParameter, AutoAnalysis.Line1.YAxis, 0
TestParameter, AutoAnalysis.Line1.Point1.Type, 0
TestParameter, AutoAnalysis.Line1.Point1.XY.X, 
TestParameter, AutoAnalysis.Line1.Point1.XY.Y, 
TestParameter, AutoAnalysis.Line1.Point1.Data.Var, 
TestParameter, AutoAnalysis.Line1.Point1.Data.Condition, 
TestParameter, AutoAnalysis.Line1.Point1.Data.Start, false
TestParameter, AutoAnalysis.Line1.Point1.Data.StartVar, 
TestParameter, AutoAnalysis.Line1.Point1.Data.StartCondition, 
TestParameter, AutoAnalysis.Line1.Point2.Type, 0
TestParameter, AutoAnalysis.Line1.Point2.XY.X, 
TestParameter, AutoAnalysis.Line1.Point2.XY.Y, 
TestParameter, AutoAnalysis.Line1.Point2.Data.Var, 
TestParameter, AutoAnalysis.Line1.Point2.Data.Condition, 
TestParameter, AutoAnalysis.Line1.Point2.Data.Start, false
TestParameter, AutoAnalysis.Line1.Point2.Data.StartVar, 
TestParameter, AutoAnalysis.Line1.Point2.Data.StartCondition, 
TestParameter, AutoAnalysis.Line1.GradientExpr, 0
TestParameter, AutoAnalysis.Line2.Enabled, false
TestParameter, AutoAnalysis.Line2.Type, 1
TestParameter, AutoAnalysis.Line2.Fix, True
TestParameter, AutoAnalysis.Line2.YAxis, 0
TestParameter, AutoAnalysis.Line2.Point1.Type, 0
TestParameter, AutoAnalysis.Line2.Point1.XY.X, 
TestParameter, AutoAnalysis.Line2.Point1.XY.Y, 
TestParameter, AutoAnalysis.Line2.Point1.Data.Var, 
TestParameter, AutoAnalysis.Line2.Point1.Data.Condition, 
TestParameter, AutoAnalysis.Line2.Point1.Data.Start, false
TestParameter, AutoAnalysis.Line2.Point1.Data.StartVar, 
TestParameter, AutoAnalysis.Line2.Point1.Data.StartCondition, 
TestParameter, AutoAnalysis.Line2.Point2.Type, 0
TestParameter, AutoAnalysis.Line2.Point2.XY.X, 
TestParameter, AutoAnalysis.Line2.Point2.XY.Y, 
TestParameter, AutoAnalysis.Line2.Point2.Data.Var, 
TestParameter, AutoAnalysis.Line2.Point2.Data.Condition, 
TestParameter, AutoAnalysis.Line2.Point2.Data.Start, false
TestParameter, AutoAnalysis.Line2.Point2.Data.StartVar, 
TestParameter, AutoAnalysis.Line2.Point2.Data.StartCondition, 
TestParameter, AutoAnalysis.Line2.GradientExpr, 0
TestParameter, AutoAnalysis.Marker.Enabled, false
TestParameter, AutoAnalysis.Marker.Data.Var, 
TestParameter, AutoAnalysis.Marker.Data.Condition, 
TestParameter, AutoAnalysis.Marker.Data.Start, false
TestParameter, AutoAnalysis.Marker.Data.StartVar, 
TestParameter, AutoAnalysis.Marker.Data.StartCondition, 
MetaData, TestRecord.EntryPoint, true
MetaData, TestRecord.RecordTime, 05/02/2019 18:43:27
MetaData, TestRecord.TestTarget, 350-300-50-20
MetaData, TestRecord.IterationIndex, 1
MetaData, TestRecord.Preservation, true
MetaData, TestRecord.Flag, 
MetaData, TestRecord.Remarks, bad
MetaData, TestRecord.LinkKey, e5ff236c-3fbb-4f42-acb3-65d7819357aa
Dimension1, 202, 202, 202, 202, 202, 202, 202, 202, 202, 202
Dimension2, 1, 1, 1, 1, 1, 1, 1, 1, 1, 1
DataName, VG, VD, VS, ID, IS, IG, absID, sqrtID, gm2, absIG
DataValue, -2, 0.1, 0, -8.1600000000000006E-13, -2.616E-12, 7.3350000000000014E-12, 8.1600000000000006E-13, 9.0332718325089722E-07, 2.9593986187539666E-12, 7.3350000000000014E-12
DataValue, -1.9500000000000002, 0.1, 0, -6.6800000000000008E-13, 3.7640000000000005E-12, 2.962E-12, 6.6800000000000008E-13, 8.17312669668102E-07, 3.3737147340694083E-11, 2.962E-12
DataValue, -1.9000000000000001, 0.1, 0, 1.0400000000000001E-13, 4.015E-12, -5.314E-12, 1.0400000000000001E-13, 3.22490309931942E-07, 2.4798604655690613E-11, 5.314E-12
DataValue, -1.85, 0.1, 0, 1.73E-12, -7.8500000000000009E-13, -4.63E-12, 1.73E-12, 1.3152946437965905E-06, 1.0598833821720041E-12, 4.63E-12
DataValue, -1.8, 0.1, 0, 1.81E-13, -2.485E-12, 4.94E-13, 1.81E-13, 4.2544094772365293E-07, 6.614546581052193E-11, 4.94E-13
DataValue, -1.75, 0.1, 0, -2.5200000000000004E-13, -8E-13, 3.9400000000000006E-12, 2.5200000000000004E-13, 5.0199601592044536E-07, 1.4548589343183788E-13, 3.9400000000000006E-12
DataValue, -1.7000000000000002, 0.1, 0, -1.5000000000000002E-13, 1.711E-12, 9.9100000000000012E-13, 1.5000000000000002E-13, 3.8729833462074172E-07, 1.1074462521271528E-10, 9.9100000000000012E-13
DataValue, -1.6500000000000001, 0.1, 0, -2.4160000000000002E-12, 1.667E-12, -1.638E-12, 2.4160000000000002E-12, 1.5543487382180359E-06, 3.5893194020427678E-11, 1.638E-12
DataValue, -1.6, 0.1, 0, -9.73E-13, -8.8E-14, -2.3200000000000002E-12, 9.73E-13, 9.864076236526156E-07, 1.1396038192198298E-10, 2.3200000000000002E-12
DataValue, -1.55, 0.1, 0, 2.37E-13, -1.241E-12, -2.83E-13, 2.37E-13, 4.8682645778552341E-07, 5.6855916412256548E-11, 2.83E-13
DataValue, -1.5, 0.1, 0, -5.4000000000000003E-14, -4.67E-13, 1.8000000000000002E-12, 5.4000000000000003E-14, 2.3237900077244502E-07, 6.7687137471088207E-12, 1.8000000000000002E-12
DataValue, -1.4500000000000002, 0.1, 0, -5.58E-13, 8.8000000000000009E-13, 4.1800000000000004E-13, 5.58E-13, 7.4699397587932392E-07, 1.1880604033647626E-11, 4.1800000000000004E-13
DataValue, -1.4000000000000001, 0.1, 0, -3.3300000000000005E-13, 1.028E-12, -1.2270000000000001E-12, 3.3300000000000005E-13, 5.7706152185014041E-07, 1.7903935168368878E-12, 1.2270000000000001E-12
DataValue, -1.35, 0.1, 0, 3.76E-13, 1.7400000000000002E-13, -1.042E-12, 3.76E-13, 6.1318838867023571E-07, 7.6473166328495187E-11, 1.042E-12
DataValue, -1.3, 0.1, 0, -2.1070000000000002E-12, -5.46E-13, -7.350000000000001E-13, 2.1070000000000002E-12, 1.4515508947329405E-06, 2.3310003126954617E-11, 7.350000000000001E-13
DataValue, -1.25, 0.1, 0, -1.7E-14, -1.59E-13, 1.009E-12, 1.7E-14, 1.3038404810405297E-07, 9.8231155462463711E-11, 1.009E-12
DataValue, -1.2, 0.1, 0, 2.12E-13, 2.2200000000000001E-13, 1.8000000000000002E-13, 2.12E-13, 4.6043457732885353E-07, 2.0063408596127255E-12, 1.8000000000000002E-13
DataValue, -1.1500000000000001, 0.1, 0, 7.4E-14, 6.15E-13, -2.43E-13, 7.4E-14, 2.7202941017470887E-07, 1.6591051815206627E-11, 2.43E-13
DataValue, -1.1, 0.1, 0, 7.53E-13, 8.3000000000000012E-14, -1.0850000000000001E-12, 7.53E-13, 8.6775572599666554E-07, 1.4431704298063579E-11, 1.0850000000000001E-12
DataValue, -1.05, 0.1, 0, -4.2500000000000006E-13, -1.87E-13, -6.0300000000000006E-13, 4.2500000000000006E-13, 6.519202405202649E-07, 2.3333541354958734E-11, 6.0300000000000006E-13
DataValue, -1, 0.1, 0, 1.48E-13, -6.4E-14, 7.03E-13, 1.48E-13, 3.8470768123342689E-07, 8.4088991440123378E-12, 7.03E-13
DataValue, -0.95000000000000007, 0.1, 0, -1.3100000000000002E-13, 4.3700000000000006E-13, 1.9700000000000002E-13, 1.3100000000000002E-13, 3.6193922141707717E-07, 3.8004484327476712E-12, 1.9700000000000002E-13
DataValue, -0.9, 0.1, 0, 3.3600000000000003E-13, 2.6600000000000003E-13, -2.5200000000000004E-13, 3.3600000000000003E-13, 5.7965506984757759E-07, 4.0079860414847507E-12, 2.5200000000000004E-13
DataValue, -0.85000000000000009, 0.1, 0, 3.16E-13, 9.5000000000000012E-14, -6.07E-13, 3.16E-13, 5.6213877290220785E-07, 1.2363645639600966E-13, 6.07E-13
DataValue, -0.8, 0.1, 0, 3.78E-13, -4.8000000000000004E-14, -2.6E-13, 3.78E-13, 6.14817045957576E-07, 6.49162557355296E-11, 2.6E-13
DataValue, -0.75, 0.1, 0, -1.871E-12, 1.2100000000000002E-13, 3.41E-13, 1.871E-12, 1.3678450204610171E-06, 2.2435955148817131E-13, 3.41E-13
DataValue, -0.70000000000000007, 0.1, 0, -3.2200000000000004E-13, 1.81E-13, -2.5E-14, 3.2200000000000004E-13, 5.6745043836444436E-07, 1.0643848631084853E-10, 2.5E-14
DataValue, -0.65, 0.1, 0, -1.1300000000000001E-13, 3.8400000000000003E-13, 1.8400000000000002E-13, 1.1300000000000001E-13, 3.3615472627943225E-07, 7.3561692849220023E-11, 1.8400000000000002E-13
DataValue, -0.6, 0.1, 0, -2.031E-12, -1.1E-14, -3.7900000000000005E-13, 2.031E-12, 1.4251315728731856E-06, 1.3760542703981149E-11, 3.7900000000000005E-13
DataValue, -0.55, 0.1, 0, -5E-13, 1E-13, 1.0400000000000001E-13, 5E-13, 7.0710678118654747E-07, 8.4486824457680053E-11, 1.0400000000000001E-13
DataValue, -0.5, 0.1, 0, 2.56E-13, 4.4E-14, -1.6800000000000002E-13, 2.56E-13, 5.0596442562694067E-07, 4.049999999999997E-11, 1.6800000000000002E-13
DataValue, -0.45, 0.1, 0, 5.0000000000000008E-15, 2.37E-13, 3.5800000000000004E-13, 5.0000000000000008E-15, 7.0710678118654758E-08, 2.0357437415779603E-11, 3.5800000000000004E-13
DataValue, -0.4, 0.1, 0, -3.0000000000000002E-15, 5.700000000000001E-14, -3.8400000000000003E-13, 3.0000000000000002E-15, 5.4772255750516614E-08, 3.9790053650914423E-12, 3.8400000000000003E-13
DataValue, -0.35000000000000003, 0.1, 0, -7.3E-14, 5.8E-14, 1.3E-13, 7.3E-14, 2.7018512172212592E-07, 2.035743741577958E-11, 1.3E-13
DataValue, -0.3, 0.1, 0, -2.56E-13, 6.6000000000000009E-14, 2.68E-13, 2.56E-13, 5.0596442562694067E-07, 1.9514108801485952E-12, 2.68E-13
DataValue, -0.25, 0.1, 0, -1.6800000000000002E-13, 3.0000000000000005E-14, -2.0900000000000002E-13, 1.6800000000000002E-13, 4.0987803063838397E-07, 6.4840304936412721E-13, 2.0900000000000002E-13
DataValue, -0.2, 0.1, 0, -1.81E-13, 1.1100000000000001E-13, 3.0000000000000003E-13, 1.81E-13, 4.2544094772365293E-07, 2.5717404867528718E-13, 3.0000000000000003E-13
DataValue, -0.15, 0.1, 0, 1.29E-13, 7.6E-14, -1.2000000000000001E-14, 1.29E-13, 3.5916569992135942E-07, 7.4957371384491688E-12, 1.2000000000000001E-14
DataValue, -0.1, 0.1, 0, 2.3000000000000003E-14, -5.0000000000000008E-15, 2E-13, 2.3000000000000003E-14, 1.5165750888103103E-07, 1.7195238164453839E-12, 2E-13
DataValue, -0.05, 0.1, 0, 5.2000000000000006E-14, -4.5000000000000004E-14, 2.7500000000000004E-13, 5.2000000000000006E-14, 2.2803508501982762E-07, 2.326877539000701E-11, 2.7500000000000004E-13
DataValue, 0, 0.1, 0, 4.0200000000000005E-13, -5.57E-13, -1.7900000000000002E-13, 4.0200000000000005E-13, 6.3403469936589438E-07, 1.1235717065036786E-10, 1.7900000000000002E-13
DataValue, 0.05, 0.1, 0, 1.659E-12, -1.266E-12, 2.96E-13, 1.659E-12, 1.2880217389469791E-06, 1.5687475049652474E-10, 2.96E-13
DataValue, 0.1, 0.1, 0, 3.559E-12, -3.371E-12, -1E-13, 3.559E-12, 1.8865312083291917E-06, 1.6495068097824175E-10, 1E-13
DataValue, 0.15, 0.1, 0, 6.6170000000000006E-12, -7.9190000000000013E-12, 4.1E-14, 6.6170000000000006E-12, 2.5723530084341069E-06, 7.0978711711297865E-10, 4.1E-14
DataValue, 0.2, 0.1, 0, 2.0709000000000003E-11, -1.8433E-11, -7.1E-14, 2.0709000000000003E-11, 4.5507142296567031E-06, 1.5570355466324082E-09, 7.1E-14
DataValue, 0.25, 0.1, 0, 4.2488E-11, -4.0504000000000004E-11, 4.94E-13, 4.2488E-11, 6.5182819822404125E-06, 2.5330785228123414E-09, 4.94E-13
DataValue, 0.3, 0.1, 0, 9.1847000000000011E-11, -8.778E-11, -9.0000000000000011E-15, 9.1847000000000011E-11, 9.5836840515534531E-06, 5.2721271585762582E-09, 9.0000000000000011E-15
DataValue, 0.35000000000000003, 0.1, 0, 1.89867E-10, -1.8248900000000003E-10, 3.1000000000000004E-13, 1.89867E-10, 1.377922349045838E-05, 9.48525972410787E-09, 3.1000000000000004E-13
DataValue, 0.4, 0.1, 0, 3.73375E-10, -3.56596E-10, 4.6200000000000005E-13, 3.73375E-10, 1.9322913858939598E-05, 1.5201919480586209E-08, 4.6200000000000005E-13
DataValue, 0.45, 0.1, 0, 6.816710000000001E-10, -6.5540400000000007E-10, 4.4900000000000006E-13, 6.816710000000001E-10, 2.610882992399315E-05, 1.9924838655203641E-08, 4.4900000000000006E-13
DataValue, 0.5, 0.1, 0, 1.11813E-09, -1.07541E-09, -1.5000000000000002E-14, 1.11813E-09, 3.3438450921057933E-05, 2.9946277440882483E-08, 1.5000000000000002E-14
DataValue, 0.55, 0.1, 0, 1.88476E-09, -1.86153E-09, 5.4E-13, 1.88476E-09, 4.3413822683564738E-05, 4.5013068763446468E-08, 5.4E-13
DataValue, 0.6, 0.1, 0, 2.98714E-09, -2.94767E-09, -5.6E-14, 2.98714E-09, 5.4654734470126193E-05, 5.3655472692412494E-08, 5.6E-14
DataValue, 0.65, 0.1, 0, 4.43256E-09, -4.3808E-09, 3.66E-13, 4.43256E-09, 6.6577473667900621E-05, 6.0272730830221844E-08, 3.66E-13
DataValue, 0.70000000000000007, 0.1, 0, 6.27347E-09, -6.20206E-09, 4.11E-13, 6.27347E-09, 7.920523972566461E-05, 6.5379523562804567E-08, 4.11E-13
DataValue, 0.75, 0.1, 0, 8.49105E-09, -8.41793E-09, -7.3E-14, 8.49105E-09, 9.2146893599296116E-05, 6.2830641521901015E-08, 7.3E-14
DataValue, 0.8, 0.1, 0, 1.0872499999999999E-08, -1.081064E-08, 5.34E-13, 1.0872499999999999E-08, 0.00010427128080157067, 6.5944564972159082E-08, 5.34E-13
DataValue, 0.85000000000000009, 0.1, 0, 1.3883099999999998E-08, -1.3642899999999998E-08, 2.5100000000000004E-13, 1.3883099999999998E-08, 0.00011782656746252094, 7.3659514703617838E-08, 2.5100000000000004E-13
DataValue, 0.9, 0.1, 0, 1.7268999999999997E-08, -1.71825E-08, -3.2E-14, 1.7268999999999997E-08, 0.00013141156722298078, 7.65448023716769E-08, 3.2E-14
DataValue, 0.95000000000000007, 0.1, 0, 2.1168299999999998E-08, -2.1063599999999997E-08, 5.0700000000000006E-13, 2.1168299999999998E-08, 0.0001454932988147564, 7.8590710638155071E-08, 5.0700000000000006E-13
DataValue, 1, 0.1, 0, 2.5422899999999997E-08, -2.5314799999999998E-08, 2.43E-13, 2.5422899999999997E-08, 0.00015944560200896102, 7.7933768134581882E-08, 2.43E-13
DataValue, 1.05, 0.1, 0, 3.0071E-08, -2.9956E-08, 1.3000000000000001E-14, 3.0071E-08, 0.00017340991897812536, 7.7473908693065459E-08, 1.3000000000000001E-14
DataValue, 1.1, 0.1, 0, 3.50737E-08, -3.49539E-08, 2.85E-13, 3.50737E-08, 0.0001872797372915714, 7.7540733643211055E-08, 2.85E-13
DataValue, 1.1500000000000001, 0.1, 0, 4.0503999999999997E-08, -4.03256E-08, 5.5400000000000006E-13, 4.0503999999999997E-08, 0.00020125605580950849, 7.74767789814701E-08, 5.5400000000000006E-13
DataValue, 1.2, 0.1, 0, 4.6274199999999992E-08, -4.6138299999999996E-08, 7.1E-14, 4.6274199999999992E-08, 0.00021511438817522178, 7.6689376315065532E-08, 7.1E-14
DataValue, 1.25, 0.1, 0, 5.24176E-08, -5.2240799999999994E-08, 5.91E-13, 5.24176E-08, 0.00022894890259619066, 7.6582731603812646E-08, 5.91E-13
DataValue, 1.3, 0.1, 0, 5.8946E-08, -5.8822699999999994E-08, 3.5900000000000004E-13, 5.8946E-08, 0.00024278797334299735, 7.594872972303325E-08, 3.5900000000000004E-13
DataValue, 1.35, 0.1, 0, 6.57962E-08, -6.5638199999999993E-08, 2.48E-13, 6.57962E-08, 0.00025650769968950252, 7.5884762190211669E-08, 2.48E-13
DataValue, 1.4000000000000001, 0.1, 0, 7.30811E-08, -7.2945199999999993E-08, 9.28E-13, 7.30811E-08, 0.00027033516234481963, 7.6467836148376714E-08, 9.28E-13
DataValue, 1.4500000000000002, 0.1, 0, 8.0747199999999986E-08, -8.0557999999999986E-08, 2.4000000000000004E-13, 8.0747199999999986E-08, 0.00028416051801754584, 7.5145708514617835E-08, 2.4000000000000004E-13
DataValue, 1.5, 0.1, 0, 8.86538E-08, -8.8489399999999988E-08, 8.1200000000000007E-13, 8.86538E-08, 0.00029774787992528173, 7.3941442932825171E-08, 8.1200000000000007E-13
DataValue, 1.55, 0.1, 0, 9.69405E-08, -9.676909999999999E-08, 7.24E-13, 9.69405E-08, 0.00031135269390194777, 7.45539945883438E-08, 7.24E-13
DataValue, 1.6, 0.1, 0, 1.0565909999999999E-07, -1.0556149999999999E-07, 5.66E-13, 1.0565909999999999E-07, 0.000325052457304971, 7.2036193343367618E-08, 5.66E-13
DataValue, 1.6500000000000001, 0.1, 0, 1.14374E-07, -1.1418E-07, 6.4900000000000006E-13, 1.14374E-07, 0.00033819225301594361, 7.1822844443387334E-08, 6.4900000000000006E-13
DataValue, 1.7000000000000002, 0.1, 0, 1.238E-07, -1.23699E-07, 1.27E-12, 1.238E-07, 0.00035185224171518361, 7.39951771622407E-08, 1.27E-12
DataValue, 1.75, 0.1, 0, 1.3351299999999999E-07, -1.33346E-07, 1.604E-12, 1.3351299999999999E-07, 0.00036539430756376049, 7.2295242589189055E-08, 1.604E-12
DataValue, 1.8, 0.1, 0, 1.43444E-07, -1.43272E-07, 1.4430000000000002E-12, 1.43444E-07, 0.00037874001637006884, 7.1221286683950125E-08, 1.4430000000000002E-12
DataValue, 1.85, 0.1, 0, 1.5372799999999999E-07, -1.53572E-07, 2.152E-12, 1.5372799999999999E-07, 0.00039208162415497105, 7.0025872921278992E-08, 2.152E-12
DataValue, 1.9000000000000001, 0.1, 0, 1.64189E-07, -1.64008E-07, 2.9610000000000004E-12, 1.64189E-07, 0.00040520241855151849, 6.8891518666616945E-08, 2.9610000000000004E-12
DataValue, 1.9500000000000002, 0.1, 0, 1.74999E-07, -1.74858E-07, 2.9930000000000003E-12, 1.74999E-07, 0.000418328818036721, 6.8692309893357192E-08, 2.9930000000000003E-12
DataValue, 2, 0.1, 0, 1.86116E-07, -1.85864E-07, 4.188E-12, 1.86116E-07, 0.00043141163637528367, 6.6887315547483822E-08, 4.188E-12
DataValue, 2.05, 0.1, 0, 1.97306E-07, -1.97269E-07, 4.935E-12, 1.97306E-07, 0.00044419140018690144, 6.591947754579131E-08, 4.935E-12
DataValue, 2.1, 0.1, 0, 2.08928E-07, -2.08801E-07, 5.792E-12, 2.08928E-07, 0.00045708642508829773, 6.6388905922882444E-08, 5.792E-12
DataValue, 2.15, 0.1, 0, 2.2086E-07, -2.20708E-07, 7.473000000000001E-12, 2.2086E-07, 0.00046995744488198077, 6.4478362687789926E-08, 7.473000000000001E-12
DataValue, 2.2, 0.1, 0, 2.32786E-07, -2.32691E-07, 8.8710000000000013E-12, 2.32786E-07, 0.00048247901508770307, 6.2814177470635635E-08, 8.8710000000000013E-12
DataValue, 2.25, 0.1, 0, 2.45045E-07, -2.44935E-07, 1.0474000000000001E-11, 2.45045E-07, 0.00049502020160797477, 6.20674411683134E-08, 1.0474000000000001E-11
DataValue, 2.3000000000000003, 0.1, 0, 2.57447E-07, -2.5733E-07, 1.3132000000000002E-11, 2.57447E-07, 0.000507392353115417, 6.1013334598312772E-08, 1.3132000000000002E-11
DataValue, 2.35, 0.1, 0, 2.7011E-07, -2.70043E-07, 1.5012000000000003E-11, 2.7011E-07, 0.00051972107904144115, 6.0170292679715289E-08, 1.5012000000000003E-11
