
SetupTitle, Transfer lin
PrimitiveTest, I/V Sweep
TestParameter, Context.MainFrame, 4155C
TestParameter, Channel.UnitType, SMU, SMU, SMU
TestParameter, Channel.Unit, SMU3:MP, SMU1:MP, SMU4:MP
TestParameter, Channel.IName, ID, IS, IG
TestParameter, Channel.VName, VD, VS, VG
TestParameter, Channel.Mode, V, COMMON, V
TestParameter, Channel.Func, CONST, CONST, VAR1
TestParameter, Channel.Index, 
TestParameter, Channel.Time, 
TestParameter, Measurement.Port.Unit, SMU3:MP, SMU1:MP, SMU4:MP
TestParameter, Measurement.Port.SeriesResistor, NONE, NONE, NONE
TestParameter, Measurement.Port.Filter, ON, ON, ON
TestParameter, Measurement.Primary.Locus, Double
TestParameter, Measurement.Primary.Scale, LINEAR
TestParameter, Measurement.Primary.Start, -2
TestParameter, Measurement.Primary.Stop, 3
TestParameter, Measurement.Primary.Step, 0.05
TestParameter, Measurement.Primary.Compliance, 0.001
TestParameter, Measurement.Primary.PowerCompliance, 0
TestParameter, Measurement.Aborting.Condition, CONTINUE AT ANY
TestParameter, Measurement.PostOutput.Value, START
TestParameter, Measurement.PostOutput.Retention, OFF
TestParameter, Measurement.Bias.Source, 0.1, 0, -2
TestParameter, Measurement.Bias.Compliance, 0.001, 0.1, 0.001
TestParameter, Measurement.Monitor.Unit, SMU3:MP, SMU1:MP, SMU4:MP
TestParameter, Measurement.Monitor.Adc, HR ADC, HR ADC, HR ADC
TestParameter, Measurement.Monitor.RangingMode, AUTO, AUTO, AUTO
TestParameter, Measurement.Monitor.RangeBoundary, , , 
TestParameter, Measurement.Monitor.RangeRating, BY FULL RANGE, BY FULL RANGE, BY FULL RANGE
TestParameter, Measurement.Monitor.RangeRatingCoeff, 50, 50, 50
TestParameter, Measurement.Timing.Hold, 0.5
TestParameter, Measurement.Timing.Delay, 0.05
TestParameter, Measurement.Adc.HighResolution.AutoZero, OFF
TestParameter, Measurement.Adc.HighResolution.Mode, AUTO
TestParameter, Measurement.Adc.HighResolution.Coeff, 1
TestParameter, Measurement.Ag16440ASelector.SemiconductorRelay.Channel1, DEFAULT
TestParameter, Measurement.Ag16440ASelector.SemiconductorRelay.Channel3, DEFAULT
TestParameter, Function.User.Name, absID, sqrtID, gm2, absIG
TestParameter, Function.User.Unit, A, A, A/V, A
TestParameter, Function.User.Definition, abs(ID), sqrt(abs(ID)), (delta(sqrtID)/delta(VG))^2, abs(IG)
TestParameter, Output.Graph.Enabled, true
TestParameter, Output.Graph.XAxis.Data, VG
TestParameter, Output.Graph.XAxis.Scale, Linear
TestParameter, Output.Graph.XAxis.Left, -5
TestParameter, Output.Graph.XAxis.Right, 7
TestParameter, Output.Graph.YAxis.Data, ID, absIG, gm2
TestParameter, Output.Graph.YAxis.Scale, Log, Log, Linear
TestParameter, Output.Graph.YAxis.Bottom, 1E-14, 1E-14, 0
TestParameter, Output.Graph.YAxis.Top, 0.01, 0.01, 1E-05
TestParameter, Output.Graph.YAxis.Group, , , 
TestParameter, Output.List.Data, VG, IG, VD, ID, VS, IS, sqrtID, gm2, absIG
TestParameter, AutoAnalysis.Interpolation, false
TestParameter, AutoAnalysis.Line1.Enabled, false
TestParameter, AutoAnalysis.Line1.Type, 1
TestParameter, AutoAnalysis.Line1.Fix, True
TestParameter, AutoAnalysis.Line1.YAxis, 0
TestParameter, AutoAnalysis.Line1.Point1.Type, 0
TestParameter, AutoAnalysis.Line1.Point1.XY.X, 
TestParameter, AutoAnalysis.Line1.Point1.XY.Y, 
TestParameter, AutoAnalysis.Line1.Point1.Data.Var, 
TestParameter, AutoAnalysis.Line1.Point1.Data.Condition, 
TestParameter, AutoAnalysis.Line1.Point1.Data.Start, false
TestParameter, AutoAnalysis.Line1.Point1.Data.StartVar, 
TestParameter, AutoAnalysis.Line1.Point1.Data.StartCondition, 
TestParameter, AutoAnalysis.Line1.Point2.Type, 0
TestParameter, AutoAnalysis.Line1.Point2.XY.X, 
TestParameter, AutoAnalysis.Line1.Point2.XY.Y, 
TestParameter, AutoAnalysis.Line1.Point2.Data.Var, 
TestParameter, AutoAnalysis.Line1.Point2.Data.Condition, 
TestParameter, AutoAnalysis.Line1.Point2.Data.Start, false
TestParameter, AutoAnalysis.Line1.Point2.Data.StartVar, 
TestParameter, AutoAnalysis.Line1.Point2.Data.StartCondition, 
TestParameter, AutoAnalysis.Line1.GradientExpr, 0
TestParameter, AutoAnalysis.Line2.Enabled, false
TestParameter, AutoAnalysis.Line2.Type, 1
TestParameter, AutoAnalysis.Line2.Fix, True
TestParameter, AutoAnalysis.Line2.YAxis, 0
TestParameter, AutoAnalysis.Line2.Point1.Type, 0
TestParameter, AutoAnalysis.Line2.Point1.XY.X, 
TestParameter, AutoAnalysis.Line2.Point1.XY.Y, 
TestParameter, AutoAnalysis.Line2.Point1.Data.Var, 
TestParameter, AutoAnalysis.Line2.Point1.Data.Condition, 
TestParameter, AutoAnalysis.Line2.Point1.Data.Start, false
TestParameter, AutoAnalysis.Line2.Point1.Data.StartVar, 
TestParameter, AutoAnalysis.Line2.Point1.Data.StartCondition, 
TestParameter, AutoAnalysis.Line2.Point2.Type, 0
TestParameter, AutoAnalysis.Line2.Point2.XY.X, 
TestParameter, AutoAnalysis.Line2.Point2.XY.Y, 
TestParameter, AutoAnalysis.Line2.Point2.Data.Var, 
TestParameter, AutoAnalysis.Line2.Point2.Data.Condition, 
TestParameter, AutoAnalysis.Line2.Point2.Data.Start, false
TestParameter, AutoAnalysis.Line2.Point2.Data.StartVar, 
TestParameter, AutoAnalysis.Line2.Point2.Data.StartCondition, 
TestParameter, AutoAnalysis.Line2.GradientExpr, 0
TestParameter, AutoAnalysis.Marker.Enabled, false
TestParameter, AutoAnalysis.Marker.Data.Var, 
TestParameter, AutoAnalysis.Marker.Data.Condition, 
TestParameter, AutoAnalysis.Marker.Data.Start, false
TestParameter, AutoAnalysis.Marker.Data.StartVar, 
TestParameter, AutoAnalysis.Marker.Data.StartCondition, 
MetaData, TestRecord.EntryPoint, true
MetaData, TestRecord.RecordTime, 05/02/2019 13:05:54
MetaData, TestRecord.TestTarget, 150-300-01-10
MetaData, TestRecord.IterationIndex, 1
MetaData, TestRecord.Preservation, true
MetaData, TestRecord.Flag, 
MetaData, TestRecord.Remarks, bad
MetaData, TestRecord.LinkKey, 7777cc56-b2e6-4f4d-aa78-03056fa2cf8d
Dimension1, 202, 202, 202, 202, 202, 202, 202, 202, 202, 202
Dimension2, 1, 1, 1, 1, 1, 1, 1, 1, 1, 1
DataName, VG, VD, VS, ID, IS, IG, absID, sqrtID, gm2, absIG
DataValue, -2, 0.1, 0, 2.08719E-07, 1.5490000000000002E-12, -2.0582999999999998E-07, 2.08719E-07, 0.00045685774591222594, 3.3015429778462081E-07, 2.0582999999999998E-07
DataValue, -1.9500000000000002, 0.1, 0, 2.35795E-07, 1.1E-14, -1.87639E-07, 2.35795E-07, 0.00048558727330934033, 9.084926830129142E-08, 1.87639E-07
DataValue, -1.9000000000000001, 0.1, 0, 1.82087E-07, 2.4670000000000003E-12, -2.00678E-07, 1.82087E-07, 0.00042671653354422535, 8.1579412127311293E-08, 2.00678E-07
DataValue, -1.85, 0.1, 0, 2.08872E-07, 1.3970000000000002E-12, -2.19869E-07, 2.08872E-07, 0.000457025163421009, 1.189899140793329E-07, 2.19869E-07
DataValue, -1.8, 0.1, 0, 2.1271599999999998E-07, -6.2500000000000006E-13, -2.1540099999999998E-07, 2.1271599999999998E-07, 0.00046121144825340141, 2.1191437189111737E-08, 2.1540099999999998E-07
DataValue, -1.75, 0.1, 0, 2.2239E-07, 1.4700000000000002E-12, -2.2513399999999998E-07, 2.2239E-07, 0.00047158244242125893, 3.7227908318242122E-08, 2.2513399999999998E-07
DataValue, -1.7000000000000002, 0.1, 0, 2.30886E-07, 1.6280000000000001E-12, -2.2128499999999999E-07, 2.30886E-07, 0.00048050598331342346, 4.5521842529280862E-09, 2.2128499999999999E-07
DataValue, -1.6500000000000001, 0.1, 0, 2.16072E-07, -9.8100000000000016E-13, -2.18615E-07, 2.16072E-07, 0.00046483545475791755, 6.7558183530283207E-08, 2.18615E-07
DataValue, -1.6, 0.1, 0, 2.06583E-07, 4.2000000000000004E-14, -2.08622E-07, 2.06583E-07, 0.00045451402618621134, 2.7648172357839176E-09, 2.08622E-07
DataValue, -1.55, 0.1, 0, 2.20988E-07, 2.7890000000000003E-12, -2.07257E-07, 2.20988E-07, 0.00047009360769957294, 5.2166387493399846E-10, 2.07257E-07
DataValue, -1.5, 0.1, 0, 2.04512E-07, 8.050000000000001E-13, -1.91458E-07, 2.04512E-07, 0.00045223002996262865, 1.1478785971183478E-07, 1.91458E-07
DataValue, -1.4500000000000002, 0.1, 0, 1.9028199999999998E-07, -7.1900000000000007E-13, -1.69478E-07, 1.9028199999999998E-07, 0.0004362132506011251, 1.3471731555077042E-07, 1.69478E-07
DataValue, -1.4000000000000001, 0.1, 0, 1.72662E-07, 7.01E-13, -1.8291E-07, 1.72662E-07, 0.00041552617246089321, 2.1788710477519497E-08, 1.8291E-07
DataValue, -1.35, 0.1, 0, 1.77622E-07, 6.84E-13, -1.67424E-07, 1.77622E-07, 0.00042145225115070863, 4.5750848220511928E-10, 1.67424E-07
DataValue, -1.3, 0.1, 0, 1.70889E-07, -3.6000000000000004E-14, -1.63657E-07, 1.70889E-07, 0.00041338722766916735, 5.8877265973649543E-08, 1.63657E-07
DataValue, -1.25, 0.1, 0, 1.57758E-07, 2.7E-13, -1.53624E-07, 1.57758E-07, 0.00039718761309990523, 3.8691001632679534E-07, 1.53624E-07
DataValue, -1.2, 0.1, 0, 1.23331E-07, 5.0100000000000009E-13, -1.44067E-07, 1.23331E-07, 0.00035118513635972696, 1.5082217406525025E-07, 1.44067E-07
DataValue, -1.1500000000000001, 0.1, 0, 1.28416E-07, 4.3000000000000004E-13, -1.22384E-07, 1.28416E-07, 0.00035835178247080064, 4.8372295811835184E-08, 1.22384E-07
DataValue, -1.1, 0.1, 0, 1.08367E-07, 9.52E-13, -1.15272E-07, 1.08367E-07, 0.00032919143366740272, 7.0118082528084173E-08, 1.15272E-07
DataValue, -1.05, 0.1, 0, 1.1013899999999999E-07, 5.58E-13, -1.0752379999999999E-07, 1.1013899999999999E-07, 0.00033187196326294268, 7.83068674763893E-09, 1.0752379999999999E-07
DataValue, -1, 0.1, 0, 1.0261919999999999E-07, -3.04E-13, -1.1135709999999999E-07, 1.0261919999999999E-07, 0.00032034231690490097, 4.488989525742804E-08, 1.1135709999999999E-07
DataValue, -0.95000000000000007, 0.1, 0, 9.6525E-08, -5.15E-13, -1.08966E-07, 9.6525E-08, 0.00031068472765811967, 4.7600887395112417E-09, 1.08966E-07
DataValue, -0.9, 0.1, 0, 9.8246499999999992E-08, -1.53E-13, -9.0447799999999993E-08, 9.8246499999999992E-08, 0.00031344297727018864, 4.1787824873611888E-08, 9.0447799999999993E-08
DataValue, -0.85000000000000009, 0.1, 0, 8.42408E-08, 7.9100000000000006E-13, -9.4516799999999988E-08, 8.42408E-08, 0.00029024265709919343, 5.3406714029033263E-08, 9.4516799999999988E-08
DataValue, -0.8, 0.1, 0, 8.4293299999999989E-08, 5.14E-13, -8.2220399999999986E-08, 8.4293299999999989E-08, 0.00029033308457700782, 7.0585104646498267E-08, 8.2220399999999986E-08
DataValue, -0.75, 0.1, 0, 6.952439999999999E-08, -4.92E-13, -6.86405E-08, 6.952439999999999E-08, 0.00026367479970600149, 1.6549866717443937E-07, 6.86405E-08
DataValue, -0.70000000000000007, 0.1, 0, 6.2325899999999993E-08, 8.9000000000000012E-14, -6.1835899999999993E-08, 6.2325899999999993E-08, 0.00024965155717519567, 1.1392181573883086E-08, 6.1835899999999993E-08
DataValue, -0.65, 0.1, 0, 6.40097E-08, 6.870000000000001E-13, -6.30066E-08, 6.40097E-08, 0.00025300138339542732, 3.16452005717836E-08, 6.30066E-08
DataValue, -0.6, 0.1, 0, 5.37602E-08, -1.4E-13, -5.4993199999999992E-08, 5.37602E-08, 0.00023186245922960448, 7.2348336797631056E-08, 5.4993199999999992E-08
DataValue, -0.55, 0.1, 0, 5.1122899999999995E-08, -1.47E-13, -4.83293E-08, 5.1122899999999995E-08, 0.0002261037372535005, 8.2365960550351953E-08, 4.83293E-08
DataValue, -0.5, 0.1, 0, 4.1275199999999995E-08, 3.66E-13, -4.2072499999999995E-08, 4.1275199999999995E-08, 0.00020316298875533407, 9.799464637385137E-08, 4.2072499999999995E-08
DataValue, -0.45, 0.1, 0, 3.79469E-08, 2.5200000000000004E-13, -3.58409E-08, 3.79469E-08, 0.00019479964065675275, 1.4979757512832966E-08, 3.58409E-08
DataValue, -0.4, 0.1, 0, 3.6451899999999996E-08, 4.8000000000000004E-14, -3.7516099999999995E-08, 3.6451899999999996E-08, 0.00019092380679213369, 1.8721221438789706E-08, 3.7516099999999995E-08
DataValue, -0.35000000000000003, 0.1, 0, 3.2803399999999994E-08, 1.28E-13, -3.7378199999999997E-08, 3.2803399999999994E-08, 0.00018111708919922492, 9.8872686602559771E-08, 3.7378199999999997E-08
DataValue, -0.3, 0.1, 0, 2.5433799999999997E-08, -4.8000000000000004E-14, -2.9326199999999998E-08, 2.5433799999999997E-08, 0.00015947977928251593, 1.5088104438814982E-07, 2.9326199999999998E-08
DataValue, -0.25, 0.1, 0, 2.02418E-08, -2.2700000000000002E-13, -2.0367399999999998E-08, 2.02418E-08, 0.00014227367992710388, 6.680905611495254E-08, 2.0367399999999998E-08
DataValue, -0.2, 0.1, 0, 1.78576E-08, 2.9E-14, -1.8806799999999997E-08, 1.78576E-08, 0.00013363233141721354, 4.0366592075672391E-08, 1.8806799999999997E-08
DataValue, -0.15, 0.1, 0, 1.4928499999999997E-08, -6.3000000000000009E-14, -1.55276E-08, 1.4928499999999997E-08, 0.0001221822409354158, 7.964646763909431E-08, 1.55276E-08
DataValue, -0.1, 0.1, 0, 1.11114E-08, -4.22E-13, -1.04042E-08, 1.11114E-08, 0.00010541062565035842, 1.4168811321492972E-07, 1.04042E-08
DataValue, -0.05, 0.1, 0, 7.14714E-09, -3.43E-13, -7.03667E-09, 7.14714E-09, 8.4540759400421764E-05, 1.6080823432313592E-07, 7.03667E-09
DataValue, 0, 0.1, 0, 4.26536E-09, -8.290000000000001E-13, -4.72387E-09, 4.26536E-09, 6.5309723625199943E-05, 1.5048862409900646E-07, 4.72387E-09
DataValue, 0.05, 0.1, 0, 2.09287E-09, -3.2390000000000002E-12, -1.93851E-09, 2.09287E-09, 4.57478961264887E-05, 3.8390350958482168E-07, 1.93851E-09
DataValue, 0.1, 0.1, 0, -1.1221000000000002E-11, -1.3900000000000002E-11, 2.4349000000000003E-11, 1.1221000000000002E-11, 3.3497761119215121E-06, 1.4687617191828469E-09, 2.4349000000000003E-11
DataValue, 0.15, 0.1, 0, -2.45821E-09, -5.2784000000000006E-11, 2.58698E-09, 2.45821E-09, 4.9580338845151105E-05, 4.080433203335761E-07, 2.58698E-09
DataValue, 0.2, 0.1, 0, -4.51961E-09, -1.88047E-10, 4.8573E-09, 4.51961E-09, 6.7228044743246842E-05, 2.3747354694614085E-07, 4.8573E-09
DataValue, 0.25, 0.1, 0, -9.66517E-09, -5.7471000000000008E-10, 8.94787E-09, 9.66517E-09, 9.83115964675582E-05, 2.0457079237597826E-07, 8.94787E-09
DataValue, 0.3, 0.1, 0, -1.26467E-08, -1.3598E-09, 1.82663E-08, 1.26467E-08, 0.00011245754754572944, 1.4198615586808761E-07, 1.82663E-08
DataValue, 0.35000000000000003, 0.1, 0, -1.8493999999999997E-08, -3.13634E-09, 2.03643E-08, 1.8493999999999997E-08, 0.00013599264686004164, 6.7757954090822071E-08, 2.03643E-08
DataValue, 0.4, 0.1, 0, -1.9178899999999997E-08, -6.08766E-09, 2.3836199999999997E-08, 1.9178899999999997E-08, 0.00013848790560911807, 1.6787324385629848E-09, 2.3836199999999997E-08
DataValue, 0.45, 0.1, 0, -1.7396399999999998E-08, -1.069678E-08, 2.3722099999999998E-08, 1.7396399999999998E-08, 0.00013189541311205632, 2.2168105226630647E-08, 2.3722099999999998E-08
DataValue, 0.5, 0.1, 0, -1.52767E-08, -1.64526E-08, 3.6368699999999997E-08, 1.52767E-08, 0.00012359894821558959, 1.0359468400064141E-09, 3.6368699999999997E-08
DataValue, 0.55, 0.1, 0, -1.8255799999999997E-08, -2.4197699999999996E-08, 4.3292599999999994E-08, 1.8255799999999997E-08, 0.00013511402591885122, 3.8356238662465084E-09, 4.3292599999999994E-08
DataValue, 0.6, 0.1, 0, -1.3784099999999998E-08, -3.17388E-08, 4.4525299999999993E-08, 1.3784099999999998E-08, 0.00011740570684596212, 1.3417209566352021E-07, 4.4525299999999993E-08
DataValue, 0.65, 0.1, 0, -9.6991999999999989E-09, -4.1063699999999993E-08, 5.4026899999999993E-08, 9.6991999999999989E-09, 9.8484516549557157E-05, 1.3705569079509584E-08, 5.4026899999999993E-08
DataValue, 0.70000000000000007, 0.1, 0, -1.1172199999999998E-08, -5.2044899999999995E-08, 6.19743E-08, 1.1172199999999998E-08, 0.00010569862818409707, 6.8952971503654455E-08, 6.19743E-08
DataValue, 0.75, 0.1, 0, -5.21654E-09, -6.3941699999999988E-08, 7.79508E-08, 5.21654E-09, 7.2225618723552651E-05, 1.2810911560428124E-07, 7.79508E-08
DataValue, 0.8, 0.1, 0, -4.88689E-09, -7.41732E-08, 8.08507E-08, 4.88689E-09, 6.99062944233207E-05, 5.8689733365860952E-09, 8.08507E-08
DataValue, 0.85000000000000009, 0.1, 0, -4.1686E-09, -8.1665899999999993E-08, 8.2233399999999988E-08, 4.1686E-09, 6.4564696235636391E-05, 9.1798919691421369E-09, 8.2233399999999988E-08
DataValue, 0.9, 0.1, 0, -3.63912E-09, -9.29642E-08, 1.0010579999999999E-07, 3.63912E-09, 6.0325119146173263E-05, 9.7561458946495476E-08, 1.0010579999999999E-07
DataValue, 0.95000000000000007, 0.1, 0, -1.11088E-09, -7.3922399999999987E-08, 7.21341E-08, 1.11088E-09, 3.3329866486381248E-05, 1.7885039488789709E-07, 7.21341E-08
DataValue, 1, 0.1, 0, 3.2524E-10, -8.7541999999999991E-08, 9.9679899999999985E-08, 3.2524E-10, 1.80344115512539E-05, 2.6139648240859117E-14, 9.9679899999999985E-08
DataValue, 1.05, 0.1, 0, -1.1119580000000001E-09, -1.16195E-07, 1.25814E-07, 1.1119580000000001E-09, 3.3346034246968558E-05, 1.4816100924304616E-07, 1.25814E-07
DataValue, 1.1, 0.1, 0, -3.1952E-09, -1.4191499999999998E-07, 1.31619E-07, 3.1952E-09, 5.6526100166206405E-05, 8.406259143572848E-09, 1.31619E-07
DataValue, 1.1500000000000001, 0.1, 0, 5.8455E-10, -1.0477159999999999E-07, 1.02466E-07, 5.8455E-10, 2.4177468850150546E-05, 1.704248451548762E-07, 1.02466E-07
DataValue, 1.2, 0.1, 0, -2.32366E-10, -1.17765E-07, 1.21528E-07, 2.32366E-10, 1.5243556015575893E-05, 2.6146598686096608E-08, 1.21528E-07
DataValue, 1.25, 0.1, 0, 6.4121E-11, -1.32163E-07, 1.40162E-07, 6.4121E-11, 8.0075589289121066E-06, 1.168073306183505E-07, 1.40162E-07
DataValue, 1.3, 0.1, 0, -2.4424E-09, -1.8787999999999999E-07, 2.06239E-07, 2.4424E-09, 4.9420643459995543E-05, 3.194365121471345E-07, 2.06239E-07
DataValue, 1.35, 0.1, 0, -4.16364E-09, -2.1994E-07, 2.2499599999999999E-07, 4.16364E-09, 6.4526273718540426E-05, 9.6580286009781616E-08, 2.2499599999999999E-07
DataValue, 1.4000000000000001, 0.1, 0, -6.47993E-09, -2.68281E-07, 2.63032E-07, 6.47993E-09, 8.04980123978226E-05, 3.0155110603970974E-09, 2.63032E-07
DataValue, 1.4500000000000002, 0.1, 0, -4.90247E-09, -2.62311E-07, 2.60809E-07, 4.90247E-09, 7.0017640634343E-05, 6.1894450821234437E-09, 2.60809E-07
DataValue, 1.5, 0.1, 0, -5.27522E-09, -2.92329E-07, 3.04569E-07, 5.27522E-09, 7.2630709758338447E-05, 6.5524400283739636E-09, 3.04569E-07
DataValue, 1.55, 0.1, 0, -6.10154E-09, -3.29133E-07, 3.45105E-07, 6.10154E-09, 7.8112354976661658E-05, 2.3533726223046208E-08, 3.45105E-07
DataValue, 1.6, 0.1, 0, -7.73897E-09, -3.70822E-07, 3.95913E-07, 7.73897E-09, 8.7971415812182987E-05, 3.94323856542618E-08, 3.95913E-07
DataValue, 1.6500000000000001, 0.1, 0, -9.59811E-09, -4.0115E-07, 3.63397E-07, 9.59811E-09, 9.7969944370709938E-05, 2.3009059097393724E-08, 3.63397E-07
DataValue, 1.7000000000000002, 0.1, 0, -5.30023E-09, -3.2925599999999997E-07, 3.39712E-07, 5.30023E-09, 7.2802678522153284E-05, 4.867859106617214E-08, 3.39712E-07
DataValue, 1.75, 0.1, 0, -5.76183E-09, -4.16536E-07, 3.91136E-07, 5.76183E-09, 7.5906719070185084E-05, 4.2568325907878006E-08, 3.91136E-07
DataValue, 1.8, 0.1, 0, -2.72177E-09, -3.30943E-07, 3.59522E-07, 2.72177E-09, 5.2170585582299146E-05, 1.7483658223077565E-07, 3.59522E-07
DataValue, 1.85, 0.1, 0, -1.16235E-09, -3.34328E-07, 3.31936E-07, 1.16235E-09, 3.409325446477646E-05, 1.5240747727737584E-08, 3.31936E-07
DataValue, 1.9000000000000001, 0.1, 0, -1.58605E-09, -3.30622E-07, 3.25404E-07, 1.58605E-09, 3.9825243250983415E-05, 2.7535502005468437E-08, 3.25404E-07
DataValue, 1.9500000000000002, 0.1, 0, -2.56918E-09, -3.81253E-07, 3.7365E-07, 2.56918E-09, 5.0687079221434728E-05, 1.4963871725738577E-07, 3.7365E-07
DataValue, 2, 0.1, 0, -6.16357E-09, -4.97394E-07, 5.4135E-07, 6.16357E-09, 7.8508407193115314E-05, 2.7664438892536216E-07, 5.4135E-07
DataValue, 2.05, 0.1, 0, -1.0667599999999998E-08, -5.70489E-07, 5.94511E-07, 1.0667599999999998E-08, 0.00010328407428059758, 4.4828194890108376E-09, 5.94511E-07
DataValue, 2.1, 0.1, 0, -5.15711E-09, -5.07397E-07, 5.58208E-07, 5.15711E-09, 7.1813021103418287E-05, 5.1827104498649194E-08, 5.58208E-07
DataValue, 2.15, 0.1, 0, -6.48323E-09, -5.82271E-07, 6.21814E-07, 6.48323E-09, 8.0518507189341257E-05, 4.1433669049503854E-09, 6.21814E-07
DataValue, 2.2, 0.1, 0, -6.12305E-09, -5.58357E-07, 5.92234E-07, 6.12305E-09, 7.8249920127754767E-05, 5.1538365474691551E-09, 5.92234E-07
DataValue, 2.25, 0.1, 0, -5.37868E-09, -6.03532E-07, 6.08298E-07, 5.37868E-09, 7.3339484590498734E-05, 7.439427979959708E-09, 6.08298E-07
DataValue, 2.3000000000000003, 0.1, 0, -4.8476E-09, -6.42668E-07, 6.0243E-07, 4.8476E-09, 6.96247082579166E-05, 4.0600017778123232E-10, 6.0243E-07
