
SetupTitle, Transfer stab
PrimitiveTest, I/V Sweep
TestParameter, Context.MainFrame, 4155C
TestParameter, Channel.UnitType, SMU, SMU, SMU
TestParameter, Channel.Unit, SMU3:MP, SMU1:MP, SMU4:MP
TestParameter, Channel.IName, ID, IS, IG
TestParameter, Channel.VName, VD, VS, VG
TestParameter, Channel.Mode, V, COMMON, V
TestParameter, Channel.Func, CONST, CONST, VAR1
TestParameter, Channel.Index, 
TestParameter, Channel.Time, 
TestParameter, Measurement.Port.Unit, SMU3:MP, SMU1:MP, SMU4:MP
TestParameter, Measurement.Port.SeriesResistor, NONE, NONE, NONE
TestParameter, Measurement.Port.Filter, ON, ON, ON
TestParameter, Measurement.Primary.Locus, Single
TestParameter, Measurement.Primary.Scale, LINEAR
TestParameter, Measurement.Primary.Start, -2
TestParameter, Measurement.Primary.Stop, 3
TestParameter, Measurement.Primary.Step, 0.05
TestParameter, Measurement.Primary.Compliance, 0.1
TestParameter, Measurement.Primary.PowerCompliance, 0
TestParameter, Measurement.Aborting.Condition, CONTINUE AT ANY
TestParameter, Measurement.PostOutput.Value, START
TestParameter, Measurement.PostOutput.Retention, OFF
TestParameter, Measurement.Bias.Source, 3, 0, -2
TestParameter, Measurement.Bias.Compliance, 0.1, 0.1, 0.1
TestParameter, Measurement.Monitor.Unit, SMU3:MP, SMU1:MP, SMU4:MP
TestParameter, Measurement.Monitor.Adc, HR ADC, HR ADC, HR ADC
TestParameter, Measurement.Monitor.RangingMode, AUTO, AUTO, AUTO
TestParameter, Measurement.Monitor.RangeBoundary, , , 
TestParameter, Measurement.Monitor.RangeRating, BY FULL RANGE, BY FULL RANGE, BY FULL RANGE
TestParameter, Measurement.Monitor.RangeRatingCoeff, 50, 50, 50
TestParameter, Measurement.Timing.Hold, 0.5
TestParameter, Measurement.Timing.Delay, 0.05
TestParameter, Measurement.Adc.HighResolution.AutoZero, OFF
TestParameter, Measurement.Adc.HighResolution.Mode, AUTO
TestParameter, Measurement.Adc.HighResolution.Coeff, 1
TestParameter, Measurement.Ag16440ASelector.SemiconductorRelay.Channel1, DEFAULT
TestParameter, Measurement.Ag16440ASelector.SemiconductorRelay.Channel3, DEFAULT
TestParameter, Function.User.Name, absID, sqrtID, gm2, absIG
TestParameter, Function.User.Unit, A, A, A/V, A
TestParameter, Function.User.Definition, abs(ID), sqrt(abs(ID)), (delta(sqrtID)/delta(VG))^2, abs(IG)
TestParameter, Output.Graph.Enabled, true
TestParameter, Output.Graph.XAxis.Data, VG
TestParameter, Output.Graph.XAxis.Scale, Linear
TestParameter, Output.Graph.XAxis.Left, -5
TestParameter, Output.Graph.XAxis.Right, 7
TestParameter, Output.Graph.YAxis.Data, ID, absIG, gm2
TestParameter, Output.Graph.YAxis.Scale, Log, Log, Linear
TestParameter, Output.Graph.YAxis.Bottom, 1E-14, 1E-14, 0
TestParameter, Output.Graph.YAxis.Top, 0.01, 0.01, 1E-05
TestParameter, Output.Graph.YAxis.Group, , , 
TestParameter, Output.List.Data, VG, IG, VD, ID, VS, IS, sqrtID, gm2, absIG
TestParameter, AutoAnalysis.Interpolation, false
TestParameter, AutoAnalysis.Line1.Enabled, false
TestParameter, AutoAnalysis.Line1.Type, 1
TestParameter, AutoAnalysis.Line1.Fix, True
TestParameter, AutoAnalysis.Line1.YAxis, 0
TestParameter, AutoAnalysis.Line1.Point1.Type, 0
TestParameter, AutoAnalysis.Line1.Point1.XY.X, 
TestParameter, AutoAnalysis.Line1.Point1.XY.Y, 
TestParameter, AutoAnalysis.Line1.Point1.Data.Var, 
TestParameter, AutoAnalysis.Line1.Point1.Data.Condition, 
TestParameter, AutoAnalysis.Line1.Point1.Data.Start, false
TestParameter, AutoAnalysis.Line1.Point1.Data.StartVar, 
TestParameter, AutoAnalysis.Line1.Point1.Data.StartCondition, 
TestParameter, AutoAnalysis.Line1.Point2.Type, 0
TestParameter, AutoAnalysis.Line1.Point2.XY.X, 
TestParameter, AutoAnalysis.Line1.Point2.XY.Y, 
TestParameter, AutoAnalysis.Line1.Point2.Data.Var, 
TestParameter, AutoAnalysis.Line1.Point2.Data.Condition, 
TestParameter, AutoAnalysis.Line1.Point2.Data.Start, false
TestParameter, AutoAnalysis.Line1.Point2.Data.StartVar, 
TestParameter, AutoAnalysis.Line1.Point2.Data.StartCondition, 
TestParameter, AutoAnalysis.Line1.GradientExpr, 0
TestParameter, AutoAnalysis.Line2.Enabled, false
TestParameter, AutoAnalysis.Line2.Type, 1
TestParameter, AutoAnalysis.Line2.Fix, True
TestParameter, AutoAnalysis.Line2.YAxis, 0
TestParameter, AutoAnalysis.Line2.Point1.Type, 0
TestParameter, AutoAnalysis.Line2.Point1.XY.X, 
TestParameter, AutoAnalysis.Line2.Point1.XY.Y, 
TestParameter, AutoAnalysis.Line2.Point1.Data.Var, 
TestParameter, AutoAnalysis.Line2.Point1.Data.Condition, 
TestParameter, AutoAnalysis.Line2.Point1.Data.Start, false
TestParameter, AutoAnalysis.Line2.Point1.Data.StartVar, 
TestParameter, AutoAnalysis.Line2.Point1.Data.StartCondition, 
TestParameter, AutoAnalysis.Line2.Point2.Type, 0
TestParameter, AutoAnalysis.Line2.Point2.XY.X, 
TestParameter, AutoAnalysis.Line2.Point2.XY.Y, 
TestParameter, AutoAnalysis.Line2.Point2.Data.Var, 
TestParameter, AutoAnalysis.Line2.Point2.Data.Condition, 
TestParameter, AutoAnalysis.Line2.Point2.Data.Start, false
TestParameter, AutoAnalysis.Line2.Point2.Data.StartVar, 
TestParameter, AutoAnalysis.Line2.Point2.Data.StartCondition, 
TestParameter, AutoAnalysis.Line2.GradientExpr, 0
TestParameter, AutoAnalysis.Marker.Enabled, false
TestParameter, AutoAnalysis.Marker.Data.Var, 
TestParameter, AutoAnalysis.Marker.Data.Condition, 
TestParameter, AutoAnalysis.Marker.Data.Start, false
TestParameter, AutoAnalysis.Marker.Data.StartVar, 
TestParameter, AutoAnalysis.Marker.Data.StartCondition, 
MetaData, TestRecord.EntryPoint, true
MetaData, TestRecord.RecordTime, 05/02/2019 15:10:58
MetaData, TestRecord.TestTarget, 350-300-20-5
MetaData, TestRecord.IterationIndex, 3
MetaData, TestRecord.Preservation, true
MetaData, TestRecord.Flag, 
MetaData, TestRecord.Remarks, bad
MetaData, TestRecord.LinkKey, b9b15fd9-b55d-4719-9621-e47adeb0a813
Dimension1, 101, 101, 101, 101, 101, 101, 101, 101, 101, 101
Dimension2, 1, 1, 1, 1, 1, 1, 1, 1, 1, 1
DataName, VG, VD, VS, ID, IS, IG, absID, sqrtID, gm2, absIG
DataValue, -2, 3, 0, 9.1716200000000008E-10, -9.866020000000001E-10, -3.7380000000000004E-12, 9.1716200000000008E-10, 3.0284682596982918E-05, 1.1044883954292018E-08, 3.7380000000000004E-12
DataValue, -1.9500000000000002, 3, 0, 1.26305E-09, -1.29376E-09, -3.48E-12, 1.26305E-09, 3.553941473913154E-05, 5.5649413218386328E-09, 3.48E-12
DataValue, -1.9000000000000001, 3, 0, 1.42465E-09, -1.44705E-09, -2.6600000000000004E-12, 1.42465E-09, 3.7744536028410789E-05, 1.9117557952039459E-09, 2.6600000000000004E-12
DataValue, -1.85, 3, 0, 1.59295E-09, -1.61468E-09, -3.4860000000000003E-12, 1.59295E-09, 3.99117777103451E-05, 1.5253352105548523E-09, 3.4860000000000003E-12
DataValue, -1.8, 3, 0, 1.73473E-09, -1.75977E-09, -2.87E-12, 1.73473E-09, 4.1650090035917093E-05, 1.2053810180436412E-09, 2.87E-12
DataValue, -1.75, 3, 0, 1.88214E-09, -1.91391E-09, -4.0290000000000007E-12, 1.88214E-09, 4.3383637468520314E-05, 1.2602646142681391E-09, 4.0290000000000007E-12
DataValue, -1.7000000000000002, 3, 0, 2.04305E-09, -2.04348E-09, -3.5330000000000004E-12, 2.04305E-09, 4.5200110619333667E-05, 1.0703283587661341E-09, 3.5330000000000004E-12
DataValue, -1.6500000000000001, 3, 0, 2.17671E-09, -2.18478E-09, -3.0510000000000002E-12, 2.17671E-09, 4.6655224787798421E-05, 1.1079183268824574E-09, 3.0510000000000002E-12
DataValue, -1.6, 3, 0, 2.35503E-09, -2.33703E-09, -2.394E-12, 2.35503E-09, 4.8528651330940571E-05, 1.2086064025205324E-09, 2.394E-12
DataValue, -1.55, 3, 0, 2.51319E-09, -2.5054899999999998E-09, -2.8760000000000003E-12, 2.51319E-09, 5.0131726481341134E-05, 7.6890193285415456E-10, 2.8760000000000003E-12
DataValue, -1.5, 3, 0, 2.63185E-09, -2.62585E-09, -3.4910000000000004E-12, 2.63185E-09, 5.130155943048905E-05, 7.9878345971739727E-10, 3.4910000000000004E-12
DataValue, -1.4500000000000002, 3, 0, 2.8045499999999998E-09, -2.84498E-09, -3.355E-12, 2.8045499999999998E-09, 5.2958002228180771E-05, 1.2015335272029674E-09, 3.355E-12
DataValue, -1.4000000000000001, 3, 0, 2.99952E-09, -3.00847E-09, -2.854E-12, 2.99952E-09, 5.4767873794771327E-05, 1.015405862470151E-09, 2.854E-12
DataValue, -1.35, 3, 0, 3.15221E-09, -3.12186E-09, -3.7850000000000005E-12, 3.15221E-09, 5.6144545594385212E-05, 7.0681589367186729E-10, 3.7850000000000005E-12
DataValue, -1.3, 3, 0, 3.2978E-09, -3.31644E-09, -3.1650000000000003E-12, 3.2978E-09, 5.7426474730737213E-05, 1.1993560486805947E-09, 3.1650000000000003E-12
DataValue, -1.25, 3, 0, 3.55308E-09, -3.5157999999999998E-09, -1.8610000000000002E-12, 3.55308E-09, 5.9607717621126877E-05, 8.82954896150743E-10, 1.8610000000000002E-12
DataValue, -1.2, 3, 0, 3.64791E-09, -3.61655E-09, -2.456E-12, 3.64791E-09, 6.03979304281198E-05, 4.1437133488951192E-10, 2.456E-12
DataValue, -1.1500000000000001, 3, 0, 3.7999E-09, -3.86507E-09, -1.7450000000000001E-12, 3.7999E-09, 6.16433289172478E-05, 7.5711634200305094E-10, 1.7450000000000001E-12
DataValue, -1.1, 3, 0, 3.98786E-09, -3.98918E-09, -2.4790000000000002E-12, 3.98786E-09, 6.3149505144537746E-05, 9.926609819164842E-10, 2.4790000000000002E-12
DataValue, -1.05, 3, 0, 4.19826E-09, -4.13873E-09, -2.272E-12, 4.19826E-09, 6.4793981201960422E-05, 5.977312885944905E-10, 2.272E-12
DataValue, -1, 3, 0, 4.30262E-09, -4.27705E-09, -2.2160000000000003E-12, 4.30262E-09, 6.5594359513604524E-05, 5.7471090300394109E-10, 2.2160000000000003E-12
DataValue, -0.95000000000000007, 3, 0, 4.51467E-09, -4.49432E-09, -1.3780000000000002E-12, 4.51467E-09, 6.7191294078920667E-05, 5.9269431756951326E-10, 1.3780000000000002E-12
DataValue, -0.9, 3, 0, 4.62793E-09, -4.72788E-09, -1.843E-12, 4.62793E-09, 6.8028890921431322E-05, 7.2147409998869767E-10, 1.843E-12
DataValue, -0.85000000000000009, 3, 0, 4.88284E-09, -4.79946E-09, -3.342E-12, 4.88284E-09, 6.9877321070573389E-05, 4.5405446176370893E-10, 3.342E-12
DataValue, -0.8, 3, 0, 4.9223899999999996E-09, -5.00154E-09, -2.549E-12, 4.9223899999999996E-09, 7.0159746293726E-05, 1.2171377221146492E-10, 2.549E-12
DataValue, -0.75, 3, 0, 5.03824E-09, -5.10641E-09, -1.2060000000000001E-12, 5.03824E-09, 7.09805607191152E-05, 5.292068712726155E-10, 1.2060000000000001E-12
DataValue, -0.70000000000000007, 3, 0, 5.25048E-09, -5.21734E-09, -1.464E-12, 5.25048E-09, 7.2460195969925448E-05, 2.4799870291766105E-10, 1.464E-12
DataValue, -0.65, 3, 0, 5.26428E-09, -5.25729E-09, -2.336E-12, 5.26428E-09, 7.255535817567163E-05, 4.3478895212157318E-10, 2.336E-12
DataValue, -0.6, 3, 0, 5.55701E-09, -5.47047E-09, -1.6370000000000002E-12, 5.55701E-09, 7.4545355321441715E-05, 8.8756531971866761E-10, 1.6370000000000002E-12
DataValue, -0.55, 3, 0, 5.70547E-09, -5.73915E-09, -1.867E-12, 5.70547E-09, 7.5534561625788233E-05, 3.3177050271162139E-10, 1.867E-12
DataValue, -0.5, 3, 0, 5.83189E-09, -5.77319E-09, -2.4290000000000003E-12, 5.83189E-09, 7.6366812163399881E-05, 4.3642622639826543E-10, 2.4290000000000003E-12
DataValue, -0.45, 3, 0, 6.02543E-09, -5.97865E-09, -2.6590000000000003E-12, 6.02543E-09, 7.7623643305374423E-05, 8.9305459517738809E-10, 2.6590000000000003E-12
DataValue, -0.4, 3, 0, 6.29725E-09, -6.26756E-09, -1.7970000000000001E-12, 6.29725E-09, 7.9355214069398115E-05, 9.2761771376733153E-10, 1.7970000000000001E-12
DataValue, -0.35000000000000003, 3, 0, 6.50754E-09, -6.45622E-09, -2.439E-12, 6.50754E-09, 8.066932502506762E-05, 6.3202508946804892E-10, 2.439E-12
DataValue, -0.3, 3, 0, 6.70257E-09, -6.6605E-09, -1.308E-12, 6.70257E-09, 8.1869224987170846E-05, 6.1369779559653728E-10, 1.308E-12
DataValue, -0.25, 3, 0, 6.91336E-09, -6.85414E-09, -1.084E-12, 6.91336E-09, 8.3146617489829376E-05, 3.09823569104532E-09, 1.084E-12
DataValue, -0.2, 3, 0, 7.64495E-09, -7.50024E-09, -2.0120000000000003E-12, 7.64495E-09, 8.7435404728290709E-05, 5.2285461357141633E-09, 2.0120000000000003E-12
DataValue, -0.15, 3, 0, 8.16809E-09, -8.15812E-09, -1.969E-12, 8.16809E-09, 9.03774861345457E-05, 5.2507699605463688E-09, 1.969E-12
DataValue, -0.1, 3, 0, 8.96461E-09, -8.99331E-09, -1.7430000000000002E-12, 8.96461E-09, 9.46816244051611E-05, 1.017763892626326E-08, 1.7430000000000002E-12
DataValue, -0.05, 3, 0, 1.00934E-08, -1.007281E-08, -2.0830000000000003E-12, 1.00934E-08, 0.0001004659146178444, 1.3977944151462282E-08, 2.0830000000000003E-12
DataValue, 0, 3, 0, 1.1343199999999999E-08, -1.1298899999999999E-08, -1.1210000000000002E-12, 1.1343199999999999E-08, 0.0001065044600005089, 2.2313562338051961E-08, 1.1210000000000002E-12
DataValue, 0.05, 3, 0, 1.3317999999999999E-08, -1.3358199999999999E-08, -2.1120000000000003E-12, 1.3317999999999999E-08, 0.0001154036394573412, 3.871748403068904E-08, 2.1120000000000003E-12
DataValue, 0.1, 3, 0, 1.59217E-08, -1.57918E-08, -2.118E-12, 1.59217E-08, 0.00012618121888775683, 4.79531941809013E-08, 2.118E-12
DataValue, 0.15, 3, 0, 1.8851799999999998E-08, -1.87339E-08, -1.046E-12, 1.8851799999999998E-08, 0.00013730185723434334, 5.5519434144796122E-08, 1.046E-12
DataValue, 0.2, 3, 0, 2.24232E-08, -2.2278999999999997E-08, -7.1300000000000009E-13, 2.24232E-08, 0.00014974378117304238, 6.3312548394476671E-08, 7.1300000000000009E-13
DataValue, 0.25, 3, 0, 2.63945E-08, -2.6167499999999996E-08, -1.14E-12, 2.63945E-08, 0.00016246384213110311, 7.1713118355643293E-08, 1.14E-12
DataValue, 0.3, 3, 0, 3.11604E-08, -3.08924E-08, -1.3E-13, 3.11604E-08, 0.00017652308630884515, 8.4022725037409017E-08, 1.3E-13
DataValue, 0.35000000000000003, 3, 0, 3.6653299999999994E-08, -3.5926999999999995E-08, -8.8600000000000006E-13, 3.6653299999999994E-08, 0.00019145051579977525, 8.5353608278976289E-08, 8.8600000000000006E-13
DataValue, 0.4, 3, 0, 4.2328299999999997E-08, -4.19967E-08, -1.6080000000000002E-12, 4.2328299999999997E-08, 0.00020573842616293146, 8.392472594659283E-08, 1.6080000000000002E-12
DataValue, 0.45, 3, 0, 4.8585099999999993E-08, -4.7574399999999995E-08, -4.63E-13, 4.8585099999999993E-08, 0.00022042028037365345, 9.425640943478382E-08, 4.63E-13
DataValue, 0.5, 3, 0, 5.5903699999999993E-08, -5.4724499999999995E-08, -1.063E-12, 5.5903699999999993E-08, 0.00023643963288755122, 8.8261792270913681E-08, 1.063E-12
DataValue, 0.55, 3, 0, 6.25646E-08, -6.10929E-08, -1.665E-12, 6.25646E-08, 0.00025012916663196238, 9.07662149560635E-08, 1.665E-12
DataValue, 0.6, 3, 0, 7.1057999999999987E-08, -7.05878E-08, -1.1900000000000002E-12, 7.1057999999999987E-08, 0.00026656706473231082, 1.1602654865403098E-07, 1.1900000000000002E-12
DataValue, 0.65, 3, 0, 8.0765E-08, -8.0252899999999992E-08, -2.3040000000000003E-12, 8.0765E-08, 0.00028419183661745103, 1.2178836871762751E-07, 2.3040000000000003E-12
DataValue, 0.70000000000000007, 3, 0, 9.08813E-08, -8.996679999999999E-08, -1.0290000000000002E-12, 9.08813E-08, 0.00030146525504608321, 1.1076247523935452E-07, 1.0290000000000002E-12
DataValue, 0.75, 3, 0, 1.0078899999999999E-07, -9.9814399999999991E-08, -3.6900000000000004E-13, 1.0078899999999999E-07, 0.00031747283348343365, 9.7304876019125922E-08, 3.6900000000000004E-13
DataValue, 0.8, 3, 0, 1.10662E-07, -1.09198E-07, -1.2730000000000001E-12, 1.10662E-07, 0.00033265898454723871, 1.0902990781361129E-07, 1.2730000000000001E-12
DataValue, 0.85000000000000009, 3, 0, 1.2284499999999999E-07, -1.20825E-07, -9.27E-13, 1.2284499999999999E-07, 0.00035049251061898594, 1.5150867422418068E-07, 9.27E-13
DataValue, 0.9, 3, 0, 1.38074E-07, -1.3627E-07, -6.37E-13, 1.38074E-07, 0.00037158309972333238, 2.0530387526518174E-07, 6.37E-13
DataValue, 0.95000000000000007, 3, 0, 1.5666E-07, -1.54906E-07, -1.051E-12, 1.5666E-07, 0.0003958029812924607, 2.0744724194479E-07, 1.051E-12
DataValue, 1, 3, 0, 1.73997E-07, -1.71659E-07, -4.35E-13, 1.73997E-07, 0.000417129476302023, 1.7942924360902071E-07, 4.35E-13
DataValue, 1.05, 3, 0, 1.91986E-07, -1.91281E-07, 4.89E-13, 1.91986E-07, 0.00043816207047164639, 2.06002973236452E-07, 4.89E-13
DataValue, 1.1, 3, 0, 2.13922E-07, -2.13288E-07, -7.98E-13, 2.13922E-07, 0.00046251702671361192, 2.042956665905542E-07, 7.98E-13
DataValue, 1.1500000000000001, 3, 0, 2.33638E-07, -2.3274599999999999E-07, -7.8600000000000008E-13, 2.33638E-07, 0.0004833611486249179, 2.2378095188498491E-07, 7.8600000000000008E-13
DataValue, 1.2, 3, 0, 2.59919E-07, -2.5677899999999997E-07, -4.5000000000000005E-13, 2.59919E-07, 0.00050982251813743969, 2.3494893979592151E-07, 4.5000000000000005E-13
DataValue, 1.25, 3, 0, 2.82846E-07, -2.81402E-07, -1.191E-12, 2.82846E-07, 0.0005318326804550469, 2.5040874747378882E-07, 1.191E-12
DataValue, 1.3, 3, 0, 3.13447E-07, -3.13263E-07, -7.1E-14, 3.13447E-07, 0.0005598633761910132, 3.543537044155427E-07, 7.1E-14
DataValue, 1.35, 3, 0, 3.49707E-07, -3.44855E-07, 9.1000000000000016E-13, 3.49707E-07, 0.00059136029626615958, 3.3510427727987036E-07, 9.1000000000000016E-13
DataValue, 1.4000000000000001, 3, 0, 3.8161699999999997E-07, -3.78579E-07, 3.39E-13, 3.8161699999999997E-07, 0.00061775156818902528, 3.3768914818020582E-07, 3.39E-13
DataValue, 1.4500000000000002, 3, 0, 4.2181299999999997E-07, -4.2132199999999997E-07, 2.6200000000000004E-13, 4.2181299999999997E-07, 0.00064947132346239889, 3.6224126249382361E-07, 2.6200000000000004E-13
DataValue, 1.5, 3, 0, 4.596E-07, -4.5638E-07, 2.8600000000000004E-13, 4.596E-07, 0.00067793805026713171, 3.883704638935329E-07, 2.8600000000000004E-13
DataValue, 1.55, 3, 0, 5.0664599999999994E-07, -4.9882E-07, 8.6100000000000007E-13, 5.0664599999999994E-07, 0.00071179069957396886, 4.1146455525668117E-07, 8.6100000000000007E-13
DataValue, 1.6, 3, 0, 5.50688E-07, -5.52227E-07, 1.529E-12, 5.50688E-07, 0.00074208355324720677, 4.2763704187043165E-07, 1.529E-12
DataValue, 1.6500000000000001, 3, 0, 6.04016E-07, -5.97794E-07, 7.4600000000000005E-13, 6.04016E-07, 0.00077718466274110168, 5.24509757260102E-07, 7.4600000000000005E-13
DataValue, 1.7000000000000002, 3, 0, 6.63421E-07, -6.60863E-07, 2.49E-12, 6.63421E-07, 0.00081450659911384393, 5.2301677557049721E-07, 2.49E-12
DataValue, 1.75, 3, 0, 7.21658E-07, -7.19167E-07, 2.1080000000000003E-12, 7.21658E-07, 0.00084950456149452194, 5.3165072896898221E-07, 2.1080000000000003E-12
DataValue, 1.8, 3, 0, 7.87516E-07, -7.81942E-07, 2.194E-12, 7.87516E-07, 0.00088742098239786963, 4.6410147245682374E-07, 2.194E-12
DataValue, 1.85, 3, 0, 8.42044E-07, -8.37164E-07, 3.0600000000000003E-12, 8.42044E-07, 0.0009176295548858482, 5.3407520475467316E-07, 3.0600000000000003E-12
DataValue, 1.9000000000000001, 3, 0, 9.22563E-07, -9.19077E-07, 3.9430000000000005E-12, 9.22563E-07, 0.000960501431545003, 7.4326921043989677E-07, 3.9430000000000005E-12
DataValue, 1.9500000000000002, 3, 0, 1.0077E-06, -1.005603E-06, 4.365E-12, 1.0077E-06, 0.0010038426171467317, 6.6860397204982941E-07, 4.365E-12
DataValue, 2, 3, 0, 1.086326E-06, -1.079691E-06, 6.3120000000000006E-12, 1.086326E-06, 0.0010422696388171346, 6.3385182329756492E-07, 6.3120000000000006E-12
DataValue, 2.05, 3, 0, 1.1738800000000002E-06, -1.1681400000000001E-06, 4.422E-12, 1.1738800000000002E-06, 0.0010834574287898902, 7.2539183862438844E-07, 4.422E-12
DataValue, 2.1, 3, 0, 1.2711200000000001E-06, -1.2630200000000002E-06, 6.7250000000000005E-12, 1.2711200000000001E-06, 0.0011274395770949324, 7.9023045487722365E-07, 6.7250000000000005E-12
DataValue, 2.15, 3, 0, 1.3744100000000002E-06, -1.37169E-06, 8.9260000000000013E-12, 1.3744100000000002E-06, 0.0011723523361174321, 8.6381244532721511E-07, 8.9260000000000013E-12
DataValue, 2.2, 3, 0, 1.48933E-06, -1.48274E-06, 9.786E-12, 1.48933E-06, 0.0012203810880212788, 8.16618597199084E-07, 9.786E-12
DataValue, 2.25, 3, 0, 1.59446E-06, -1.5961E-06, 1.453E-11, 1.59446E-06, 0.0012627192878862665, 7.9401219123030435E-07, 1.453E-11
DataValue, 2.3000000000000003, 3, 0, 1.7147600000000003E-06, -1.71434E-06, 1.2268E-11, 1.7147600000000003E-06, 0.0013094884497390576, 8.845894633621777E-07, 1.2268E-11
DataValue, 2.35, 3, 0, 1.8408300000000002E-06, -1.8376300000000002E-06, 1.6546E-11, 1.8408300000000002E-06, 0.0013567719041902365, 9.83056187134796E-07, 1.6546E-11
DataValue, 2.4, 3, 0, 1.9842600000000004E-06, -1.97675E-06, 2.1153000000000002E-11, 1.9842600000000004E-06, 0.0014086376397072459, 1.096351376552296E-06, 2.1153000000000002E-11
