
SetupTitle, Transfer stab
PrimitiveTest, I/V Sweep
TestParameter, Context.MainFrame, 4155C
TestParameter, Channel.UnitType, SMU, SMU, SMU
TestParameter, Channel.Unit, SMU3:MP, SMU1:MP, SMU4:MP
TestParameter, Channel.IName, ID, IS, IG
TestParameter, Channel.VName, VD, VS, VG
TestParameter, Channel.Mode, V, COMMON, V
TestParameter, Channel.Func, CONST, CONST, VAR1
TestParameter, Channel.Index, 
TestParameter, Channel.Time, 
TestParameter, Measurement.Port.Unit, SMU3:MP, SMU1:MP, SMU4:MP
TestParameter, Measurement.Port.SeriesResistor, NONE, NONE, NONE
TestParameter, Measurement.Port.Filter, ON, ON, ON
TestParameter, Measurement.Primary.Locus, Single
TestParameter, Measurement.Primary.Scale, LINEAR
TestParameter, Measurement.Primary.Start, -2
TestParameter, Measurement.Primary.Stop, 3
TestParameter, Measurement.Primary.Step, 0.05
TestParameter, Measurement.Primary.Compliance, 0.1
TestParameter, Measurement.Primary.PowerCompliance, 0
TestParameter, Measurement.Aborting.Condition, CONTINUE AT ANY
TestParameter, Measurement.PostOutput.Value, START
TestParameter, Measurement.PostOutput.Retention, OFF
TestParameter, Measurement.Bias.Source, 3, 0, -2
TestParameter, Measurement.Bias.Compliance, 0.1, 0.1, 0.1
TestParameter, Measurement.Monitor.Unit, SMU3:MP, SMU1:MP, SMU4:MP
TestParameter, Measurement.Monitor.Adc, HR ADC, HR ADC, HR ADC
TestParameter, Measurement.Monitor.RangingMode, AUTO, AUTO, AUTO
TestParameter, Measurement.Monitor.RangeBoundary, , , 
TestParameter, Measurement.Monitor.RangeRating, BY FULL RANGE, BY FULL RANGE, BY FULL RANGE
TestParameter, Measurement.Monitor.RangeRatingCoeff, 50, 50, 50
TestParameter, Measurement.Timing.Hold, 0.5
TestParameter, Measurement.Timing.Delay, 0.05
TestParameter, Measurement.Adc.HighResolution.AutoZero, OFF
TestParameter, Measurement.Adc.HighResolution.Mode, AUTO
TestParameter, Measurement.Adc.HighResolution.Coeff, 1
TestParameter, Measurement.Ag16440ASelector.SemiconductorRelay.Channel1, DEFAULT
TestParameter, Measurement.Ag16440ASelector.SemiconductorRelay.Channel3, DEFAULT
TestParameter, Function.User.Name, absID, sqrtID, gm2, absIG
TestParameter, Function.User.Unit, A, A, A/V, A
TestParameter, Function.User.Definition, abs(ID), sqrt(abs(ID)), (delta(sqrtID)/delta(VG))^2, abs(IG)
TestParameter, Output.Graph.Enabled, true
TestParameter, Output.Graph.XAxis.Data, VG
TestParameter, Output.Graph.XAxis.Scale, Linear
TestParameter, Output.Graph.XAxis.Left, -5
TestParameter, Output.Graph.XAxis.Right, 7
TestParameter, Output.Graph.YAxis.Data, ID, absIG, gm2
TestParameter, Output.Graph.YAxis.Scale, Log, Log, Linear
TestParameter, Output.Graph.YAxis.Bottom, 1E-14, 1E-14, 0
TestParameter, Output.Graph.YAxis.Top, 0.01, 0.01, 1E-05
TestParameter, Output.Graph.YAxis.Group, , , 
TestParameter, Output.List.Data, VG, IG, VD, ID, VS, IS, sqrtID, gm2, absIG
TestParameter, AutoAnalysis.Interpolation, false
TestParameter, AutoAnalysis.Line1.Enabled, false
TestParameter, AutoAnalysis.Line1.Type, 1
TestParameter, AutoAnalysis.Line1.Fix, True
TestParameter, AutoAnalysis.Line1.YAxis, 0
TestParameter, AutoAnalysis.Line1.Point1.Type, 0
TestParameter, AutoAnalysis.Line1.Point1.XY.X, 
TestParameter, AutoAnalysis.Line1.Point1.XY.Y, 
TestParameter, AutoAnalysis.Line1.Point1.Data.Var, 
TestParameter, AutoAnalysis.Line1.Point1.Data.Condition, 
TestParameter, AutoAnalysis.Line1.Point1.Data.Start, false
TestParameter, AutoAnalysis.Line1.Point1.Data.StartVar, 
TestParameter, AutoAnalysis.Line1.Point1.Data.StartCondition, 
TestParameter, AutoAnalysis.Line1.Point2.Type, 0
TestParameter, AutoAnalysis.Line1.Point2.XY.X, 
TestParameter, AutoAnalysis.Line1.Point2.XY.Y, 
TestParameter, AutoAnalysis.Line1.Point2.Data.Var, 
TestParameter, AutoAnalysis.Line1.Point2.Data.Condition, 
TestParameter, AutoAnalysis.Line1.Point2.Data.Start, false
TestParameter, AutoAnalysis.Line1.Point2.Data.StartVar, 
TestParameter, AutoAnalysis.Line1.Point2.Data.StartCondition, 
TestParameter, AutoAnalysis.Line1.GradientExpr, 0
TestParameter, AutoAnalysis.Line2.Enabled, false
TestParameter, AutoAnalysis.Line2.Type, 1
TestParameter, AutoAnalysis.Line2.Fix, True
TestParameter, AutoAnalysis.Line2.YAxis, 0
TestParameter, AutoAnalysis.Line2.Point1.Type, 0
TestParameter, AutoAnalysis.Line2.Point1.XY.X, 
TestParameter, AutoAnalysis.Line2.Point1.XY.Y, 
TestParameter, AutoAnalysis.Line2.Point1.Data.Var, 
TestParameter, AutoAnalysis.Line2.Point1.Data.Condition, 
TestParameter, AutoAnalysis.Line2.Point1.Data.Start, false
TestParameter, AutoAnalysis.Line2.Point1.Data.StartVar, 
TestParameter, AutoAnalysis.Line2.Point1.Data.StartCondition, 
TestParameter, AutoAnalysis.Line2.Point2.Type, 0
TestParameter, AutoAnalysis.Line2.Point2.XY.X, 
TestParameter, AutoAnalysis.Line2.Point2.XY.Y, 
TestParameter, AutoAnalysis.Line2.Point2.Data.Var, 
TestParameter, AutoAnalysis.Line2.Point2.Data.Condition, 
TestParameter, AutoAnalysis.Line2.Point2.Data.Start, false
TestParameter, AutoAnalysis.Line2.Point2.Data.StartVar, 
TestParameter, AutoAnalysis.Line2.Point2.Data.StartCondition, 
TestParameter, AutoAnalysis.Line2.GradientExpr, 0
TestParameter, AutoAnalysis.Marker.Enabled, false
TestParameter, AutoAnalysis.Marker.Data.Var, 
TestParameter, AutoAnalysis.Marker.Data.Condition, 
TestParameter, AutoAnalysis.Marker.Data.Start, false
TestParameter, AutoAnalysis.Marker.Data.StartVar, 
TestParameter, AutoAnalysis.Marker.Data.StartCondition, 
MetaData, TestRecord.EntryPoint, true
MetaData, TestRecord.RecordTime, 05/02/2019 19:03:48
MetaData, TestRecord.TestTarget, 350-300-2-5
MetaData, TestRecord.IterationIndex, 3
MetaData, TestRecord.Preservation, true
MetaData, TestRecord.Flag, 
MetaData, TestRecord.Remarks, good
MetaData, TestRecord.LinkKey, 24b3bb3d-2fee-45c4-963d-c6233cd6bd26
Dimension1, 101, 101, 101, 101, 101, 101, 101, 101, 101, 101
Dimension2, 1, 1, 1, 1, 1, 1, 1, 1, 1, 1
DataName, VG, VD, VS, ID, IS, IG, absID, sqrtID, gm2, absIG
DataValue, -2, 3, 0, 2.9642400000000003E-10, 1.22E-12, -2.97923E-10, 2.9642400000000003E-10, 1.7216968374252187E-05, 3.365305896585476E-12, 2.97923E-10
DataValue, -1.9500000000000002, 3, 0, 2.9327400000000005E-10, -6.63E-13, -2.9605700000000004E-10, 2.9327400000000005E-10, 1.71252445238017E-05, 2.8991128393467358E-12, 2.9605700000000004E-10
DataValue, -1.9000000000000001, 3, 0, 2.9059000000000003E-10, 2.49E-13, -2.89611E-10, 2.9059000000000003E-10, 1.7046700560519036E-05, 6.2809683679452657E-12, 2.89611E-10
DataValue, -1.85, 3, 0, 2.84753E-10, 5.61E-13, -2.7917000000000003E-10, 2.84753E-10, 1.6874625921779716E-05, 2.0946003392255372E-11, 2.7917000000000003E-10
DataValue, -1.8, 3, 0, 2.75196E-10, -1.5050000000000002E-12, -2.82327E-10, 2.75196E-10, 1.6589032521518546E-05, 2.1063010091930812E-12, 2.82327E-10
DataValue, -1.75, 3, 0, 2.7987600000000004E-10, 1.6550000000000001E-12, -2.77431E-10, 2.7987600000000004E-10, 1.6729494911682181E-05, 1.891888890418339E-13, 2.77431E-10
DataValue, -1.7000000000000002, 3, 0, 2.76641E-10, 1.3200000000000002E-13, -2.77409E-10, 2.76641E-10, 1.6632528370635655E-05, 6.1664727916036984E-12, 2.77409E-10
DataValue, -1.6500000000000001, 3, 0, 2.71629E-10, 1.6450000000000002E-12, -2.7203600000000004E-10, 2.71629E-10, 1.6481171074896349E-05, 4.5796962666111844E-12, 2.7203600000000004E-10
DataValue, -1.6, 3, 0, 2.69568E-10, 2.373E-12, -2.69539E-10, 2.69568E-10, 1.6418526121427587E-05, 2.4750680264128753E-12, 2.69539E-10
DataValue, -1.55, 3, 0, 2.6646800000000005E-10, -1.855E-12, -2.6856900000000003E-10, 2.6646800000000005E-10, 1.6323847585664356E-05, 3.331236750512774E-12, 2.6856900000000003E-10
DataValue, -1.5, 3, 0, 2.63608E-10, -5.3100000000000006E-13, -2.6339900000000003E-10, 2.63608E-10, 1.6236009361909104E-05, 5.3817638155458721E-12, 2.6339900000000003E-10
DataValue, -1.4500000000000002, 3, 0, 2.58948E-10, -6.2700000000000005E-13, -2.59496E-10, 2.58948E-10, 1.6091861296941383E-05, 3.5304233319476504E-12, 2.59496E-10
DataValue, -1.4000000000000001, 3, 0, 2.5754200000000004E-10, -2.9590000000000002E-12, -2.5819900000000004E-10, 2.5754200000000004E-10, 1.6048115154123243E-05, 2.618790378876381E-12, 2.5819900000000004E-10
DataValue, -1.35, 3, 0, 2.53766E-10, -2.12E-13, -2.58188E-10, 2.53766E-10, 1.5930034526014062E-05, 3.5703524905650251E-12, 2.58188E-10
DataValue, -1.3, 3, 0, 2.51513E-10, -1.149E-12, -2.5420900000000004E-10, 2.51513E-10, 1.5859161390187061E-05, 3.5567095813558287E-12, 2.5420900000000004E-10
DataValue, -1.25, 3, 0, 2.47793E-10, 1.964E-12, -2.5086400000000003E-10, 2.47793E-10, 1.5741442119450175E-05, 3.6399143980396915E-12, 2.5086400000000003E-10
DataValue, -1.2, 3, 0, 2.45498E-10, 8.5E-14, -2.44984E-10, 2.45498E-10, 1.5668375793297786E-05, 2.756023361801659E-12, 2.44984E-10
DataValue, -1.1500000000000001, 3, 0, 2.42594E-10, 1.439E-12, -2.41219E-10, 2.42594E-10, 1.5575429368078431E-05, 3.7140029961015283E-12, 2.41219E-10
DataValue, -1.1, 3, 0, 2.39496E-10, 9.9E-13, -2.3570100000000003E-10, 2.39496E-10, 1.5475658305868608E-05, 4.3642266365811937E-12, 2.3570100000000003E-10
DataValue, -1.05, 3, 0, 2.3613000000000004E-10, -2.9010000000000003E-12, -2.3600300000000004E-10, 2.3613000000000004E-10, 1.53665220528264E-05, 9.3990016038343149E-12, 2.3600300000000004E-10
DataValue, -1, 3, 0, 2.3010100000000002E-10, -1.938E-12, -2.32305E-10, 2.3010100000000002E-10, 1.5169080394012025E-05, 3.7004829011835727E-12, 2.32305E-10
DataValue, -0.95000000000000007, 3, 0, 2.3025500000000002E-10, -2.2590000000000004E-12, -2.3425500000000004E-10, 2.3025500000000002E-10, 1.5174155660200671E-05, 7.8963773270051276E-13, 2.3425500000000004E-10
DataValue, -0.9, 3, 0, 2.2741300000000002E-10, -2.577E-12, -2.26722E-10, 2.2741300000000002E-10, 1.5080218831303477E-05, 7.0152544271546578E-12, 2.26722E-10
DataValue, -0.85000000000000009, 3, 0, 2.2228700000000002E-10, -4.13E-12, -2.2408300000000002E-10, 2.2228700000000002E-10, 1.490929240440337E-05, 3.5586570850392031E-12, 2.2408300000000002E-10
DataValue, -0.8, 3, 0, 2.21759E-10, -1.6790000000000002E-12, -2.2352700000000003E-10, 2.21759E-10, 1.4891574799194343E-05, 2.7473541762476117E-12, 2.2352700000000003E-10
DataValue, -0.75, 3, 0, 2.17372E-10, -5.9700000000000008E-13, -2.1401400000000003E-10, 2.17372E-10, 1.4743540958670682E-05, 4.9457049415642282E-12, 2.1401400000000003E-10
DataValue, -0.70000000000000007, 3, 0, 2.1518500000000002E-10, 1.205E-12, -2.1078600000000002E-10, 2.1518500000000002E-10, 1.4669185389789034E-05, 3.46343255932562E-12, 2.1078600000000002E-10
DataValue, -0.65, 3, 0, 2.1191900000000002E-10, 1.843E-12, -2.0912900000000002E-10, 2.1191900000000002E-10, 1.4557437961399665E-05, 5.1163730107577069E-12, 2.0912900000000002E-10
DataValue, -0.6, 3, 0, 2.086E-10, 3.39E-13, -2.0626700000000003E-10, 2.086E-10, 1.4442991379904649E-05, 3.4250400361692386E-12, 2.0626700000000003E-10
DataValue, -0.55, 3, 0, 2.0656500000000003E-10, 1.375E-12, -2.06503E-10, 2.0656500000000003E-10, 1.4372369324505964E-05, 3.2084310222058805E-12, 2.06503E-10
DataValue, -0.5, 3, 0, 2.0345800000000002E-10, -1.6780000000000001E-12, -2.04894E-10, 2.0345800000000002E-10, 1.4263870442485098E-05, 9.2892352049227414E-12, 2.04894E-10
DataValue, -0.45, 3, 0, 1.97897E-10, 4.91E-13, -2.04884E-10, 1.97897E-10, 1.4067586857737898E-05, 2.8040325610828453E-12, 2.04884E-10
DataValue, -0.4, 3, 0, 1.9870900000000002E-10, 1.2480000000000001E-12, -1.97653E-10, 1.9870900000000002E-10, 1.409641798472222E-05, 1.2172859036237527E-12, 1.97653E-10
DataValue, -0.35000000000000003, 3, 0, 1.94805E-10, -3.86E-13, -1.9040800000000003E-10, 1.94805E-10, 1.3957256177343741E-05, 8.2286410640344384E-12, 1.9040800000000003E-10
DataValue, -0.3, 3, 0, 1.90704E-10, 1.145E-12, -1.85687E-10, 1.90704E-10, 1.3809561904709359E-05, 4.798782904620382E-12, 1.85687E-10
DataValue, -0.25, 3, 0, 1.8873800000000002E-10, -2.503E-12, -1.9054900000000002E-10, 1.8873800000000002E-10, 1.3738194932377399E-05, 5.4043726356262609E-13, 1.9054900000000002E-10
DataValue, -0.2, 3, 0, 1.88679E-10, -4.1790000000000007E-12, -1.8763500000000002E-10, 1.88679E-10, 1.3736047466429344E-05, 6.2630463237716184E-14, 1.8763500000000002E-10
DataValue, -0.15, 3, 0, 1.8805100000000002E-10, -4.643E-12, -1.8607800000000003E-10, 1.8805100000000002E-10, 1.3713168853332188E-05, 8.6533429517047413E-14, 1.8607800000000003E-10
DataValue, -0.1, 3, 0, 1.8948800000000002E-10, -1.2222E-11, -1.8158100000000002E-10, 1.8948800000000002E-10, 1.3765464031408458E-05, 1.7656433666237145E-12, 1.8158100000000002E-10
DataValue, -0.05, 3, 0, 1.91713E-10, -1.7219E-11, -1.7381300000000002E-10, 1.91713E-10, 1.3846046367104222E-05, 2.1053978495306358E-11, 1.7381300000000002E-10
DataValue, 0, 3, 0, 2.0233100000000002E-10, -2.8070000000000003E-11, -1.70847E-10, 2.0233100000000002E-10, 1.4224310176595561E-05, 1.3032853219947578E-10, 1.70847E-10
DataValue, 0.05, 3, 0, 2.2463000000000003E-10, -5.0154000000000005E-11, -1.65902E-10, 2.2463000000000003E-10, 1.4987661592123036E-05, 3.2501710100112246E-10, 1.65902E-10
DataValue, 0.1, 3, 0, 2.56869E-10, -8.8415000000000012E-11, -1.67403E-10, 2.56869E-10, 1.6027133243347044E-05, 8.1338199538778282E-10, 1.67403E-10
DataValue, 0.15, 3, 0, 3.1825300000000004E-10, -1.4783600000000002E-10, -1.61442E-10, 3.1825300000000004E-10, 1.7839646857491324E-05, 1.9637829609574061E-09, 1.61442E-10
DataValue, 0.2, 3, 0, 4.1855400000000005E-10, -2.46523E-10, -1.6011800000000002E-10, 4.1855400000000005E-10, 2.0458592326941754E-05, 3.6210947881130505E-09, 1.6011800000000002E-10
DataValue, 0.25, 3, 0, 5.6916600000000008E-10, -3.9789E-10, -1.65251E-10, 5.6916600000000008E-10, 2.3857200171017554E-05, 5.8589475175356238E-09, 1.65251E-10
DataValue, 0.3, 3, 0, 7.9033900000000008E-10, -6.2028200000000007E-10, -1.599E-10, 7.9033900000000008E-10, 2.8112968537669589E-05, 8.1338372880557383E-09, 1.599E-10
DataValue, 0.35000000000000003, 3, 0, 1.08083E-09, -9.11106E-10, -1.52673E-10, 1.08083E-09, 3.2875979072873251E-05, 1.1960395345773478E-08, 1.52673E-10
DataValue, 0.4, 3, 0, 1.52485E-09, -1.34168E-09, -1.51911E-10, 1.52485E-09, 3.9049327779105234E-05, 1.6479237248615626E-08, 1.51911E-10
DataValue, 0.45, 3, 0, 2.08969E-09, -1.922E-09, -1.4584400000000002E-10, 2.08969E-09, 4.5713127217463473E-05, 1.9616597537566909E-08, 1.4584400000000002E-10
DataValue, 0.5, 3, 0, 2.81486E-09, -2.666E-09, -1.40615E-10, 2.81486E-09, 5.30552542167126E-05, 2.3648393501698049E-08, 1.40615E-10
DataValue, 0.55, 3, 0, 3.73213E-09, -3.46223E-09, -1.1731100000000002E-10, 3.73213E-09, 6.1091161390171655E-05, 2.3972277143947118E-08, 1.1731100000000002E-10
DataValue, 0.6, 3, 0, 4.69749E-09, -4.52062E-09, -1.3301300000000001E-10, 4.69749E-09, 6.8538237502871347E-05, 2.4381698906588988E-08, 1.3301300000000001E-10
DataValue, 0.65, 3, 0, 5.88378E-09, -5.73892E-09, -1.23119E-10, 5.88378E-09, 7.6705801605875948E-05, 2.658270911017485E-08, 1.23119E-10
DataValue, 0.70000000000000007, 3, 0, 7.19824E-09, -7.03343E-09, -1.26543E-10, 7.19824E-09, 8.4842442209073638E-05, 3.1392483888329224E-08, 1.26543E-10
DataValue, 0.75, 3, 0, 8.91584E-09, -8.67882E-09, -1.2048100000000002E-10, 8.91584E-09, 9.4423725832017456E-05, 2.0919717862859335E-08, 1.2048100000000002E-10
DataValue, 0.8, 3, 0, 9.8617E-09, -9.91327E-09, -1.19789E-10, 9.8617E-09, 9.9306092461641046E-05, 2.6811732684905891E-08, 1.19789E-10
DataValue, 0.85000000000000009, 3, 0, 1.22762E-08, -1.14652E-08, -1.25808E-10, 1.22762E-08, 0.00011079801442264207, 3.7410157798256068E-08, 1.25808E-10
DataValue, 0.9, 3, 0, 1.4077299999999999E-08, -1.3826E-08, -1.25792E-10, 1.4077299999999999E-08, 0.0001186477981253761, 4.1646807593258631E-08, 1.25792E-10
DataValue, 0.95000000000000007, 3, 0, 1.7214899999999997E-08, -1.6743999999999998E-08, -1.22965E-10, 1.7214899999999997E-08, 0.00013120556390641366, 4.7746429198935578E-08, 1.22965E-10
DataValue, 1, 3, 0, 1.9739899999999998E-08, -1.9807799999999997E-08, -1.0416100000000001E-10, 1.9739899999999998E-08, 0.00014049875444287752, 3.8423563134601824E-08, 1.0416100000000001E-10
DataValue, 1.05, 3, 0, 2.27429E-08, -2.24183E-08, -1.07202E-10, 2.27429E-08, 0.00015080749318253386, 4.445890082978276E-08, 1.07202E-10
DataValue, 1.1, 3, 0, 2.6109399999999998E-08, -2.5333099999999998E-08, -1.2369000000000001E-10, 2.6109399999999998E-08, 0.00016158403386473552, 3.8141383916505733E-08, 1.2369000000000001E-10
DataValue, 1.1500000000000001, 3, 0, 2.9014799999999998E-08, -2.9317599999999996E-08, -1.0843600000000001E-10, 2.9014799999999998E-08, 0.00017033731241275352, 4.9325426645934445E-08, 1.0843600000000001E-10
DataValue, 1.2, 3, 0, 3.3779999999999995E-08, -3.3018899999999994E-08, -1.0142600000000001E-10, 3.3779999999999995E-08, 0.00018379336223052235, 7.8613445093100267E-08, 1.0142600000000001E-10
DataValue, 1.25, 3, 0, 3.93528E-08, -3.9232799999999994E-08, -1.0800400000000001E-10, 3.93528E-08, 0.00019837540170091652, 8.1092521726666051E-08, 1.0800400000000001E-10
DataValue, 1.3, 3, 0, 4.50586E-08, -4.3954699999999996E-08, -1.0440800000000001E-10, 4.50586E-08, 0.00021227011094358055, 9.0898830031597192E-08, 1.0440800000000001E-10
DataValue, 1.35, 3, 0, 5.2223599999999997E-08, -5.2299899999999993E-08, -1.0010000000000001E-10, 5.2223599999999997E-08, 0.00022852483453664286, 8.4128050866671836E-08, 1.0010000000000001E-10
DataValue, 1.4000000000000001, 3, 0, 5.8213599999999993E-08, -5.72617E-08, -9.3558000000000007E-11, 5.8213599999999993E-08, 0.00024127494689668878, 8.3863211084451685E-08, 9.3558000000000007E-11
DataValue, 1.4500000000000002, 3, 0, 6.6297999999999989E-08, -6.4917299999999988E-08, -8.6315E-11, 6.6297999999999989E-08, 0.00025748398008419861, 1.0125182234308666E-07, 8.6315E-11
DataValue, 1.5, 3, 0, 7.4580899999999993E-08, -7.2283099999999992E-08, -8.3398000000000013E-11, 7.4580899999999993E-08, 0.00027309503840238473, 9.414668888335856E-08, 8.3398000000000013E-11
DataValue, 1.55, 3, 0, 8.304039999999999E-08, -8.2075299999999988E-08, -7.893500000000001E-11, 8.304039999999999E-08, 0.00028816731251132561, 1.0173408539937108E-07, 7.893500000000001E-11
DataValue, 1.6, 3, 0, 9.3019399999999989E-08, -9.3091799999999987E-08, -7.9928000000000011E-11, 9.3019399999999989E-08, 0.00030499081953396564, 1.2451513922024636E-07, 7.9928000000000011E-11
DataValue, 1.6500000000000001, 3, 0, 1.046225E-07, -1.02893E-07, -7.3616E-11, 1.046225E-07, 0.00032345401527883374, 1.0678292626771238E-07, 7.3616E-11
DataValue, 1.7000000000000002, 3, 0, 1.1402E-07, -1.11754E-07, -7.030500000000001E-11, 1.1402E-07, 0.00033766847646767381, 1.0199024383157326E-07, 7.030500000000001E-11
DataValue, 1.75, 3, 0, 1.26302E-07, -1.26414E-07, -7.1653E-11, 1.26302E-07, 0.00035538992670023723, 1.9499916311827105E-07, 7.1653E-11
DataValue, 1.8, 3, 0, 1.4579199999999999E-07, -1.45343E-07, -6.829E-11, 1.4579199999999999E-07, 0.00038182718604101511, 1.76889076738938E-07, 6.829E-11
DataValue, 1.85, 3, 0, 1.57965E-07, -1.60153E-07, -6.483600000000001E-11, 1.57965E-07, 0.0003974481098206406, 1.4055088163835666E-07, 6.483600000000001E-11
DataValue, 1.9000000000000001, 3, 0, 1.75827E-07, -1.7498E-07, -6.041E-11, 1.75827E-07, 0.00041931730229028232, 2.1654012243015104E-07, 6.041E-11
DataValue, 1.9500000000000002, 3, 0, 1.9712E-07, -1.9566E-07, -6.0505E-11, 1.9712E-07, 0.00044398198161637144, 2.1053166349257726E-07, 6.0505E-11
DataValue, 2, 3, 0, 2.16412E-07, -2.1521E-07, -5.831E-11, 2.16412E-07, 0.00046520103181312916, 2.0334397191149641E-07, 5.831E-11
DataValue, 2.05, 3, 0, 2.39195E-07, -2.36637E-07, -5.27E-11, 2.39195E-07, 0.00048907565876866131, 2.1004144165940002E-07, 5.27E-11
DataValue, 2.1, 3, 0, 2.61153E-07, -2.5934499999999997E-07, -5.1589000000000004E-11, 2.61153E-07, 0.00051103131019537341, 2.3566194869348764E-07, 5.1589000000000004E-11
DataValue, 2.15, 3, 0, 2.89036E-07, -2.8630599999999997E-07, -4.5581E-11, 2.89036E-07, 0.00053762068412589932, 2.3762912080009883E-07, 4.5581E-11
DataValue, 2.2, 3, 0, 3.13352E-07, -3.13929E-07, -4.3493E-11, 3.13352E-07, 0.00055977852763392053, 2.2996917016168485E-07, 4.3493E-11
DataValue, 2.25, 3, 0, 3.42899E-07, -3.42619E-07, -4.0518E-11, 3.42899E-07, 0.00058557578501847228, 2.8430393947263551E-07, 4.0518E-11
