
SetupTitle, Transfer sat
PrimitiveTest, I/V Sweep
TestParameter, Context.MainFrame, 4155C
TestParameter, Channel.UnitType, SMU, SMU, SMU
TestParameter, Channel.Unit, SMU1:MP, SMU3:MP, SMU4:MP
TestParameter, Channel.IName, IS, ID, IG
TestParameter, Channel.VName, VS, VD, VG
TestParameter, Channel.Mode, COMMON, V, V
TestParameter, Channel.Func, CONST, CONST, VAR1
TestParameter, Channel.Index, 
TestParameter, Channel.Time, 
TestParameter, Measurement.Port.Unit, SMU1:MP, SMU3:MP, SMU4:MP
TestParameter, Measurement.Port.SeriesResistor, NONE, NONE, NONE
TestParameter, Measurement.Port.Filter, ON, ON, ON
TestParameter, Measurement.Primary.Locus, Double
TestParameter, Measurement.Primary.Scale, LINEAR
TestParameter, Measurement.Primary.Start, -2
TestParameter, Measurement.Primary.Stop, 3
TestParameter, Measurement.Primary.Step, 0.05
TestParameter, Measurement.Primary.Compliance, 0.001
TestParameter, Measurement.Primary.PowerCompliance, 0
TestParameter, Measurement.Aborting.Condition, CONTINUE AT ANY
TestParameter, Measurement.PostOutput.Value, START
TestParameter, Measurement.PostOutput.Retention, OFF
TestParameter, Measurement.Bias.Source, 0, 5, -2
TestParameter, Measurement.Bias.Compliance, 0.1, 0.001, 0.001
TestParameter, Measurement.Monitor.Unit, SMU3:MP, SMU1:MP, SMU4:MP
TestParameter, Measurement.Monitor.Adc, HR ADC, HR ADC, HR ADC
TestParameter, Measurement.Monitor.RangingMode, AUTO, AUTO, AUTO
TestParameter, Measurement.Monitor.RangeBoundary, , , 
TestParameter, Measurement.Monitor.RangeRating, BY FULL RANGE, BY FULL RANGE, BY FULL RANGE
TestParameter, Measurement.Monitor.RangeRatingCoeff, 50, 50, 50
TestParameter, Measurement.Timing.Hold, 0.5
TestParameter, Measurement.Timing.Delay, 0.05
TestParameter, Measurement.Adc.HighResolution.AutoZero, OFF
TestParameter, Measurement.Adc.HighResolution.Mode, AUTO
TestParameter, Measurement.Adc.HighResolution.Coeff, 1
TestParameter, Measurement.Ag16440ASelector.SemiconductorRelay.Channel1, DEFAULT
TestParameter, Measurement.Ag16440ASelector.SemiconductorRelay.Channel3, DEFAULT
TestParameter, Function.User.Name, absID, sqrtID, gm2, absIG
TestParameter, Function.User.Unit, A, A, A/V, A
TestParameter, Function.User.Definition, abs(ID), sqrt(abs(ID)), (delta(sqrtID)/delta(VG))^2, abs(IG)
TestParameter, Output.Graph.Enabled, true
TestParameter, Output.Graph.XAxis.Data, VG
TestParameter, Output.Graph.XAxis.Scale, Linear
TestParameter, Output.Graph.XAxis.Left, -5
TestParameter, Output.Graph.XAxis.Right, 7
TestParameter, Output.Graph.YAxis.Data, ID, absIG, gm2
TestParameter, Output.Graph.YAxis.Scale, Log, Log, Linear
TestParameter, Output.Graph.YAxis.Bottom, 1E-14, 1E-14, 0
TestParameter, Output.Graph.YAxis.Top, 0.01, 0.01, 1E-05
TestParameter, Output.Graph.YAxis.Group, , , 
TestParameter, Output.List.Data, VG, IG, VD, ID, VS, IS, sqrtID, gm2, absIG
TestParameter, AutoAnalysis.Interpolation, false
TestParameter, AutoAnalysis.Line1.Enabled, false
TestParameter, AutoAnalysis.Line1.Type, 1
TestParameter, AutoAnalysis.Line1.Fix, True
TestParameter, AutoAnalysis.Line1.YAxis, 0
TestParameter, AutoAnalysis.Line1.Point1.Type, 0
TestParameter, AutoAnalysis.Line1.Point1.XY.X, 
TestParameter, AutoAnalysis.Line1.Point1.XY.Y, 
TestParameter, AutoAnalysis.Line1.Point1.Data.Var, 
TestParameter, AutoAnalysis.Line1.Point1.Data.Condition, 
TestParameter, AutoAnalysis.Line1.Point1.Data.Start, false
TestParameter, AutoAnalysis.Line1.Point1.Data.StartVar, 
TestParameter, AutoAnalysis.Line1.Point1.Data.StartCondition, 
TestParameter, AutoAnalysis.Line1.Point2.Type, 0
TestParameter, AutoAnalysis.Line1.Point2.XY.X, 
TestParameter, AutoAnalysis.Line1.Point2.XY.Y, 
TestParameter, AutoAnalysis.Line1.Point2.Data.Var, 
TestParameter, AutoAnalysis.Line1.Point2.Data.Condition, 
TestParameter, AutoAnalysis.Line1.Point2.Data.Start, false
TestParameter, AutoAnalysis.Line1.Point2.Data.StartVar, 
TestParameter, AutoAnalysis.Line1.Point2.Data.StartCondition, 
TestParameter, AutoAnalysis.Line1.GradientExpr, 0
TestParameter, AutoAnalysis.Line2.Enabled, false
TestParameter, AutoAnalysis.Line2.Type, 1
TestParameter, AutoAnalysis.Line2.Fix, True
TestParameter, AutoAnalysis.Line2.YAxis, 0
TestParameter, AutoAnalysis.Line2.Point1.Type, 0
TestParameter, AutoAnalysis.Line2.Point1.XY.X, 
TestParameter, AutoAnalysis.Line2.Point1.XY.Y, 
TestParameter, AutoAnalysis.Line2.Point1.Data.Var, 
TestParameter, AutoAnalysis.Line2.Point1.Data.Condition, 
TestParameter, AutoAnalysis.Line2.Point1.Data.Start, false
TestParameter, AutoAnalysis.Line2.Point1.Data.StartVar, 
TestParameter, AutoAnalysis.Line2.Point1.Data.StartCondition, 
TestParameter, AutoAnalysis.Line2.Point2.Type, 0
TestParameter, AutoAnalysis.Line2.Point2.XY.X, 
TestParameter, AutoAnalysis.Line2.Point2.XY.Y, 
TestParameter, AutoAnalysis.Line2.Point2.Data.Var, 
TestParameter, AutoAnalysis.Line2.Point2.Data.Condition, 
TestParameter, AutoAnalysis.Line2.Point2.Data.Start, false
TestParameter, AutoAnalysis.Line2.Point2.Data.StartVar, 
TestParameter, AutoAnalysis.Line2.Point2.Data.StartCondition, 
TestParameter, AutoAnalysis.Line2.GradientExpr, 0
TestParameter, AutoAnalysis.Marker.Enabled, false
TestParameter, AutoAnalysis.Marker.Data.Var, 
TestParameter, AutoAnalysis.Marker.Data.Condition, 
TestParameter, AutoAnalysis.Marker.Data.Start, false
TestParameter, AutoAnalysis.Marker.Data.StartVar, 
TestParameter, AutoAnalysis.Marker.Data.StartCondition, 
MetaData, TestRecord.EntryPoint, true
MetaData, TestRecord.RecordTime, 05/02/2019 18:11:31
MetaData, TestRecord.TestTarget, 150-180-5-2
MetaData, TestRecord.IterationIndex, 1
MetaData, TestRecord.Preservation, true
MetaData, TestRecord.Flag, 
MetaData, TestRecord.Remarks, good
MetaData, TestRecord.LinkKey, eb078f9e-6242-4bd7-9ae6-5bacf4be9c1a
Dimension1, 202, 202, 202, 202, 202, 202, 202, 202, 202, 202
Dimension2, 1, 1, 1, 1, 1, 1, 1, 1, 1, 1
DataName, VG, VS, VD, ID, IS, IG, absID, sqrtID, gm2, absIG
DataValue, -2, 0, 5, 5.1520000000000007E-12, 6.6640000000000007E-12, -1.6315E-11, 5.1520000000000007E-12, 2.2698017534577774E-06, 4.3141382536594948E-11, 1.6315E-11
DataValue, -1.9500000000000002, 0, 5, 3.7690000000000006E-12, 1.1869000000000001E-11, -1.9314E-11, 3.7690000000000006E-12, 1.9413912537147172E-06, 2.8478745773232862E-10, 1.9314E-11
DataValue, -1.9000000000000001, 0, 5, 3.39E-13, 7.279E-12, -7.3760000000000009E-12, 3.39E-13, 5.8223706512038551E-07, 3.4439350588990053E-12, 7.3760000000000009E-12
DataValue, -1.85, 0, 5, 4.5240000000000005E-12, 1.1281000000000001E-11, -5.7120000000000007E-12, 4.5240000000000005E-12, 2.1269696753832671E-06, 2.1862225103147536E-10, 5.7120000000000007E-12
DataValue, -1.8, 0, 5, 4.247E-12, 1.0576E-11, -1.6943000000000002E-11, 4.247E-12, 2.0608250774871698E-06, 1.4832632297480973E-11, 1.6943000000000002E-11
DataValue, -1.75, 0, 5, 3.034E-12, 5.167E-12, -1.2384E-11, 3.034E-12, 1.7418381095842404E-06, 1.3585924418240981E-12, 1.2384E-11
DataValue, -1.7000000000000002, 0, 5, 4.741E-12, 3.0570000000000004E-12, -8.634E-12, 4.741E-12, 2.1773837512023461E-06, 3.9355417416458811E-11, 8.634E-12
DataValue, -1.6500000000000001, 0, 5, 5.6130000000000004E-12, 3.649E-12, -5.2600000000000006E-12, 5.6130000000000004E-12, 2.369177072318572E-06, 2.2373295173212907E-12, 5.2600000000000006E-12
DataValue, -1.6, 0, 5, 4.112E-12, 3.4230000000000003E-12, -5.63E-12, 4.112E-12, 2.0278066969018521E-06, 1.0288893531502993E-11, 5.63E-12
DataValue, -1.55, 0, 5, 4.196E-12, 4.418E-12, -7.8930000000000012E-12, 4.196E-12, 2.0484140206510987E-06, 2.6299261965645389E-12, 7.8930000000000012E-12
DataValue, -1.5, 0, 5, 4.796E-12, 3.0980000000000003E-12, -9.059E-12, 4.796E-12, 2.1899771688307623E-06, 9.74029139871619E-12, 9.059E-12
DataValue, -1.4500000000000002, 0, 5, 5.572E-12, 1.0080000000000002E-12, -6.597E-12, 5.572E-12, 2.3605084198112914E-06, 2.9403664967044574E-11, 6.597E-12
DataValue, -1.4000000000000001, 0, 5, 2.715E-12, 9.32E-13, -3.981E-12, 2.715E-12, 1.6477257053284081E-06, 7.1515900938766221E-12, 3.981E-12
DataValue, -1.35, 0, 5, 4.381E-12, 8.8500000000000007E-13, -3.2910000000000004E-12, 4.381E-12, 2.0930838492521029E-06, 3.5699601297579982E-11, 3.2910000000000004E-12
DataValue, -1.3, 0, 5, 5.041E-12, -6.36E-13, -3.928E-12, 5.041E-12, 2.2452171387195492E-06, 4.8741682386573036E-11, 3.928E-12
DataValue, -1.25, 0, 5, 7.791E-12, -1.207E-12, -5.0180000000000006E-12, 7.791E-12, 2.7912362852327641E-06, 5.4707154408845788E-12, 5.0180000000000006E-12
DataValue, -1.2, 0, 5, 6.1460000000000007E-12, -1.902E-12, -3.2610000000000003E-12, 6.1460000000000007E-12, 2.4791127445116331E-06, 5.5907609062015358E-13, 3.2610000000000003E-12
DataValue, -1.1500000000000001, 0, 5, 8.214E-12, -4.507E-12, -2.8310000000000004E-12, 8.214E-12, 2.8660076761934886E-06, 7.7213817704045173E-11, 2.8310000000000004E-12
DataValue, -1.1, 0, 5, 1.1275000000000001E-11, -5.1050000000000006E-12, -1.7100000000000002E-12, 1.1275000000000001E-11, 3.3578266780761634E-06, 2.3000315482113802E-11, 1.7100000000000002E-12
DataValue, -1.05, 0, 5, 1.1193E-11, -7.488E-12, -2.3660000000000002E-12, 1.1193E-11, 3.3455941176418874E-06, 2.4601856574986763E-11, 2.3660000000000002E-12
DataValue, -1, 0, 5, 1.4852E-11, -1.1386E-11, -3.997E-12, 1.4852E-11, 3.853829264510819E-06, 9.6657810002070971E-11, 3.997E-12
DataValue, -0.95000000000000007, 0, 5, 1.8738E-11, -1.4711000000000002E-11, -1.7890000000000002E-12, 1.8738E-11, 4.3287411565026619E-06, 1.2854011284356602E-10, 1.7890000000000002E-12
DataValue, -0.9, 0, 5, 2.4876000000000003E-11, -2.0865E-11, -2.896E-12, 2.4876000000000003E-11, 4.987584585748898E-06, 1.14977853513812E-10, 2.896E-12
DataValue, -0.85000000000000009, 0, 5, 2.9171000000000003E-11, -2.6603000000000004E-11, -2.7510000000000003E-12, 2.9171000000000003E-11, 5.4010184224829305E-06, 1.7714533247037333E-10, 2.7510000000000003E-12
DataValue, -0.8, 0, 5, 3.9924000000000005E-11, -3.7788E-11, -1.477E-12, 3.9924000000000005E-11, 6.3185441361123688E-06, 3.2756515439417448E-10, 1.477E-12
DataValue, -0.75, 0, 5, 5.1997E-11, -4.9359E-11, -2.557E-12, 5.1997E-11, 7.2108945353541267E-06, 2.73894071179371E-10, 2.557E-12
DataValue, -0.70000000000000007, 0, 5, 6.3577E-11, -6.2493000000000008E-11, -3.229E-12, 6.3577E-11, 7.9735186712015672E-06, 4.4643136558623775E-10, 3.229E-12
DataValue, -0.65, 0, 5, 8.6933E-11, -8.1617000000000011E-11, -2.535E-12, 8.6933E-11, 9.3237867843489436E-06, 7.0864298674126565E-10, 2.535E-12
DataValue, -0.6, 0, 5, 1.1311500000000002E-10, -1.08044E-10, -2.234E-12, 1.1311500000000002E-10, 1.0635553582207182E-05, 7.996205847920257E-10, 2.234E-12
DataValue, -0.55, 0, 5, 1.4766E-10, -1.41382E-10, -1.4900000000000001E-12, 1.4766E-10, 1.2151543111885009E-05, 1.0139915561101247E-09, 1.4900000000000001E-12
DataValue, -0.5, 0, 5, 1.9098900000000002E-10, -1.8298600000000002E-10, -2.644E-12, 1.9098900000000002E-10, 1.3819876989322301E-05, 1.3321861383688545E-09, 2.644E-12
DataValue, -0.45, 0, 5, 2.49686E-10, -2.37351E-10, -1.931E-12, 2.49686E-10, 1.5801455629150121E-05, 1.5587714415388984E-09, 1.931E-12
DataValue, -0.4, 0, 5, 3.15702E-10, -3.1741000000000004E-10, -5.5500000000000006E-13, 3.15702E-10, 1.7768004952723307E-05, 2.2380809363854902E-09, 5.5500000000000006E-13
DataValue, -0.35000000000000003, 0, 5, 4.21575E-10, -4.04718E-10, -1.5500000000000002E-13, 4.21575E-10, 2.0532291640243181E-05, 2.8901848642540457E-09, 1.5500000000000002E-13
DataValue, -0.3, 0, 5, 5.3564700000000008E-10, -5.16039E-10, -3.3270000000000003E-12, 5.3564700000000008E-10, 2.31440489111132E-05, 2.5651387706741735E-09, 3.3270000000000003E-12
DataValue, -0.25, 0, 5, 6.55207E-10, -6.569510000000001E-10, -2.591E-12, 6.55207E-10, 2.5597011544318997E-05, 2.8615961923396207E-09, 2.591E-12
DataValue, -0.2, 0, 5, 8.1187600000000006E-10, -8.0609300000000008E-10, -1.9410000000000003E-12, 8.1187600000000006E-10, 2.8493437841018764E-05, 3.0425460444492281E-09, 1.9410000000000003E-12
DataValue, -0.15, 0, 5, 9.68015E-10, -9.31787E-10, -2.866E-12, 9.68015E-10, 3.1112939430404191E-05, 2.684618223885971E-09, 2.866E-12
DataValue, -0.1, 0, 5, 1.13399E-09, -1.135E-09, -1.387E-12, 1.13399E-09, 3.3674768002170407E-05, 5.1621942841359853E-09, 1.387E-12
DataValue, -0.05, 0, 5, 1.46672E-09, -1.38156E-09, -2.715E-12, 1.46672E-09, 3.8297780614547363E-05, 5.9379091411578487E-09, 2.715E-12
DataValue, 0, 0, 5, 1.71235E-09, -1.64089E-09, -7.01E-13, 1.71235E-09, 4.1380550987148539E-05, 5.7459579872252324E-09, 7.01E-13
DataValue, 0.05, 0, 5, 2.10479E-09, -1.96998E-09, -2.1070000000000002E-12, 2.10479E-09, 4.5877990365751635E-05, 8.2126859435728948E-09, 2.1070000000000002E-12
DataValue, 0.1, 0, 5, 2.54449E-09, -2.57984E-09, -4.74E-13, 2.54449E-09, 5.0442938058761015E-05, 8.3116544976510347E-09, 4.74E-13
DataValue, 0.15, 0, 5, 3.02443E-09, -2.91814E-09, -5.43E-13, 3.02443E-09, 5.4994817937693E-05, 1.0544738437920645E-08, 5.43E-13
DataValue, 0.2, 0, 5, 3.68591E-09, -3.56368E-09, -1.9320000000000002E-12, 3.68591E-09, 6.0711695743077383E-05, 1.221480159670241E-08, 1.9320000000000002E-12
DataValue, 0.25, 0, 5, 4.36219E-09, -4.36187E-09, -2.96E-13, 4.36219E-09, 6.6046877291814482E-05, 1.5755456907425607E-08, 2.96E-13
DataValue, 0.3, 0, 5, 5.36758E-09, -5.18856E-09, -2.228E-12, 5.36758E-09, 7.32637700367651E-05, 1.4585389760221223E-08, 2.228E-12
DataValue, 0.35000000000000003, 0, 5, 6.10334E-09, -6.1034E-09, -9.9E-13, 6.10334E-09, 7.8123875991914285E-05, 1.2533679514715148E-08, 9.9E-13
DataValue, 0.4, 0, 5, 7.13335E-09, -7.10234E-09, -1.143E-12, 7.13335E-09, 8.4459161729204965E-05, 2.2756457850126774E-08, 1.143E-12
DataValue, 0.45, 0, 5, 8.68794E-09, -8.19431E-09, -2.75E-12, 8.68794E-09, 9.32091197254861E-05, 1.6564672191187087E-08, 2.75E-12
DataValue, 0.5, 0, 5, 9.47304E-09, -9.4638999999999991E-09, -1.498E-12, 9.47304E-09, 9.7329543305206152E-05, 1.1075862115511417E-08, 1.498E-12
DataValue, 0.55, 0, 5, 1.07606E-08, -1.0555199999999999E-08, 2.0370000000000003E-12, 1.07606E-08, 0.00010373331191088039, 2.4391535055188238E-08, 2.0370000000000003E-12
DataValue, 0.6, 0, 5, 1.2757099999999999E-08, -1.2607499999999999E-08, -1.5774E-11, 1.2757099999999999E-08, 0.00011294733285916936, 3.2509509637089952E-08, 1.5774E-11
DataValue, 0.65, 0, 5, 1.4826399999999998E-08, -1.4525199999999999E-08, -7.497E-12, 1.4826399999999998E-08, 0.00012176370559407265, 3.26643312844858E-08, 7.497E-12
DataValue, 0.70000000000000007, 0, 5, 1.7166399999999998E-08, -1.6315599999999997E-08, -6.9770000000000007E-12, 1.7166399999999998E-08, 0.00013102060906590229, 3.531651516568323E-08, 6.9770000000000007E-12
DataValue, 0.75, 0, 5, 1.9756099999999997E-08, -1.9788299999999998E-08, -1.0553000000000002E-11, 1.9756099999999997E-08, 0.00014055639437606529, 6.168137352866333E-08, 1.0553000000000002E-11
DataValue, 0.8, 0, 5, 2.4291199999999997E-08, -2.45048E-08, -3.842E-12, 2.4291199999999997E-08, 0.00015585634411213422, 7.3591930536563316E-08, 3.842E-12
DataValue, 0.85000000000000009, 0, 5, 2.8117999999999997E-08, -2.7268799999999997E-08, 3.0050000000000002E-12, 2.8117999999999997E-08, 0.00016768422704595683, 6.0944809162699309E-08, 3.0050000000000002E-12
DataValue, 0.9, 0, 5, 3.25959E-08, -3.24209E-08, 1.3280000000000002E-11, 3.25959E-08, 0.00018054334659576906, 1.2269526636157228E-07, 1.3280000000000002E-11
DataValue, 0.95000000000000007, 0, 5, 4.10922E-08, -4.04541E-08, -4.1600000000000004E-13, 4.10922E-08, 0.00020271211113300557, 1.1713278848249815E-07, 4.1600000000000004E-13
DataValue, 1, 0, 5, 4.6125299999999994E-08, -4.6287599999999996E-08, -3.654E-12, 4.6125299999999994E-08, 0.00021476801437830541, 9.6168309254348324E-08, 3.654E-12
DataValue, 1.05, 0, 5, 5.4626499999999996E-08, -5.56085E-08, 2.6300000000000003E-12, 5.4626499999999996E-08, 0.00023372312679749942, 1.7975806849431109E-07, 2.6300000000000003E-12
DataValue, 1.1, 0, 5, 6.6134299999999992E-08, -6.4147E-08, -2.2800000000000004E-13, 6.6134299999999992E-08, 0.00025716589976122414, 1.8073555155719743E-07, 2.2800000000000004E-13
DataValue, 1.1500000000000001, 0, 5, 7.630639999999999E-08, -7.4505999999999992E-08, -4.015E-12, 7.630639999999999E-08, 0.00027623613087356981, 1.734730591203815E-07, 4.015E-12
DataValue, 1.2, 0, 5, 8.9290999999999989E-08, -8.8079399999999986E-08, 5.9700000000000006E-12, 8.9290999999999989E-08, 0.00029881599689440992, 2.3469423839439131E-07, 5.9700000000000006E-12
DataValue, 1.25, 0, 5, 1.05418E-07, -1.00385E-07, 1.7370000000000002E-12, 1.05418E-07, 0.00032468138228115265, 2.5998000134893176E-07, 1.7370000000000002E-12
DataValue, 1.3, 0, 5, 1.22363E-07, -1.22582E-07, 2.932E-12, 1.22363E-07, 0.00034980423096354907, 3.3325316971901483E-07, 2.932E-12
DataValue, 1.35, 0, 5, 1.46237E-07, -1.43393E-07, -1.7080000000000002E-12, 1.46237E-07, 0.00038240946641002492, 3.8423854747400845E-07, 1.7080000000000002E-12
DataValue, 1.4000000000000001, 0, 5, 1.69572E-07, -1.69069E-07, -3.1650000000000003E-12, 1.69572E-07, 0.00041179120923108596, 5.1428784125606466E-07, 3.1650000000000003E-12
DataValue, 1.4500000000000002, 0, 5, 2.0622799999999999E-07, -2.01864E-07, 6.8110000000000008E-12, 2.0622799999999999E-07, 0.00045412333126585775, 7.2185840519619254E-07, 6.8110000000000008E-12
DataValue, 1.5, 0, 5, 2.4676399999999997E-07, -2.39727E-07, 7.863E-12, 2.4676399999999997E-07, 0.00049675345997788473, 5.8916477301824225E-07, 7.863E-12
DataValue, 1.55, 0, 5, 2.81834E-07, -2.7784E-07, 7.6E-14, 2.81834E-07, 0.00053088040084373056, 7.0023421892407961E-07, 7.6E-14
DataValue, 1.6, 0, 5, 3.36903E-07, -3.3009999999999997E-07, -6.8410000000000004E-12, 3.36903E-07, 0.00058043345871856833, 9.4023892403588441E-07, 6.8410000000000004E-12
DataValue, 1.6500000000000001, 0, 5, 3.94191E-07, -3.90812E-07, -2.8900000000000004E-12, 3.94191E-07, 0.00062784631877554236, 8.5995358677543432E-07, 2.8900000000000004E-12
DataValue, 1.7000000000000002, 0, 5, 4.53154E-07, -4.52099E-07, 8.436E-12, 4.53154E-07, 0.00067316714120640205, 1.0319783960927004E-06, 8.436E-12
DataValue, 1.75, 0, 5, 5.32072E-07, -5.27744E-07, 7.2090000000000005E-12, 5.32072E-07, 0.00072943265624730565, 1.2017005347776297E-06, 7.2090000000000005E-12
DataValue, 1.8, 0, 5, 6.12759E-07, -6.11651E-07, 2.1870000000000003E-12, 6.12759E-07, 0.00078278924366651848, 1.2557724517106941E-06, 2.1870000000000003E-12
DataValue, 1.85, 0, 5, 7.08112E-07, -7.05581E-07, 5.63E-13, 7.08112E-07, 0.00084149390966304684, 1.4501251337141935E-06, 5.63E-13
DataValue, 1.9000000000000001, 0, 5, 8.15789E-07, -8.06544E-07, -1.4990000000000002E-12, 8.15789E-07, 0.00090321038523701665, 1.6305862480785983E-06, 1.4990000000000002E-12
DataValue, 1.9500000000000002, 0, 5, 9.39326E-07, -9.31837E-07, 8.794E-12, 9.39326E-07, 0.00096918832019375883, 1.5051448803690071E-06, 8.794E-12
DataValue, 2, 0, 5, 1.05246E-06, -1.052367E-06, 1.1116E-11, 1.05246E-06, 0.0010258947314417792, 1.6683595345694975E-06, 1.1116E-11
DataValue, 2.05, 0, 5, 1.20638E-06, -1.2063000000000002E-06, 1.2605000000000001E-11, 1.20638E-06, 0.0010983533129189352, 1.9422574315338555E-06, 1.2605000000000001E-11
DataValue, 2.1, 0, 5, 1.3578300000000001E-06, -1.3653900000000002E-06, 1.2297E-11, 1.3578300000000001E-06, 0.001165259627722509, 2.2357691612735981E-06, 1.2297E-11
DataValue, 2.15, 0, 5, 1.5572E-06, -1.5536900000000002E-06, 3.201E-12, 1.5572E-06, 0.0012478781991845198, 2.4682193848532137E-06, 3.201E-12
DataValue, 2.2, 0, 5, 1.7486500000000002E-06, -1.7439600000000001E-06, 1.6166000000000002E-11, 1.7486500000000002E-06, 0.0013223653050500079, 2.4696766693537906E-06, 1.6166000000000002E-11
DataValue, 2.25, 0, 5, 1.97411E-06, -1.9652600000000002E-06, 7.4600000000000009E-12, 1.97411E-06, 0.0014050302487847014, 2.2870192391582375E-06, 7.4600000000000009E-12
DataValue, 2.3000000000000003, 0, 5, 2.17148E-06, -2.1650100000000003E-06, 7.3990000000000011E-12, 2.17148E-06, 0.0014735942453742144, 2.1667958990449705E-06, 7.3990000000000011E-12
DataValue, 2.35, 0, 5, 2.4094200000000003E-06, -2.4193600000000002E-06, 1.6695E-11, 2.4094200000000003E-06, 0.0015522306529636633, 2.836419050791869E-06, 1.6695E-11
DataValue, 2.4, 0, 5, 2.6962E-06, -2.6881400000000004E-06, 1.73E-11, 2.6962E-06, 0.0016420109622045768, 2.8404591526590973E-06, 1.73E-11
