
SetupTitle, Transfer sat
PrimitiveTest, I/V Sweep
TestParameter, Context.MainFrame, 4155C
TestParameter, Channel.UnitType, SMU, SMU, SMU
TestParameter, Channel.Unit, SMU3:MP, SMU1:MP, SMU4:MP
TestParameter, Channel.IName, ID, IS, IG
TestParameter, Channel.VName, VD, VS, VG
TestParameter, Channel.Mode, V, COMMON, V
TestParameter, Channel.Func, CONST, CONST, VAR1
TestParameter, Channel.Index, 
TestParameter, Channel.Time, 
TestParameter, Measurement.Port.Unit, SMU3:MP, SMU1:MP, SMU4:MP
TestParameter, Measurement.Port.SeriesResistor, NONE, NONE, NONE
TestParameter, Measurement.Port.Filter, ON, ON, ON
TestParameter, Measurement.Primary.Locus, Double
TestParameter, Measurement.Primary.Scale, LINEAR
TestParameter, Measurement.Primary.Start, -2
TestParameter, Measurement.Primary.Stop, 3
TestParameter, Measurement.Primary.Step, 0.05
TestParameter, Measurement.Primary.Compliance, 0.001
TestParameter, Measurement.Primary.PowerCompliance, 0
TestParameter, Measurement.Aborting.Condition, CONTINUE AT ANY
TestParameter, Measurement.PostOutput.Value, START
TestParameter, Measurement.PostOutput.Retention, OFF
TestParameter, Measurement.Bias.Source, 5, 0, -2
TestParameter, Measurement.Bias.Compliance, 0.001, 0.1, 0.001
TestParameter, Measurement.Monitor.Unit, SMU3:MP, SMU1:MP, SMU4:MP
TestParameter, Measurement.Monitor.Adc, HR ADC, HR ADC, HR ADC
TestParameter, Measurement.Monitor.RangingMode, AUTO, AUTO, AUTO
TestParameter, Measurement.Monitor.RangeBoundary, , , 
TestParameter, Measurement.Monitor.RangeRating, BY FULL RANGE, BY FULL RANGE, BY FULL RANGE
TestParameter, Measurement.Monitor.RangeRatingCoeff, 50, 50, 50
TestParameter, Measurement.Timing.Hold, 0.5
TestParameter, Measurement.Timing.Delay, 0.05
TestParameter, Measurement.Adc.HighResolution.AutoZero, OFF
TestParameter, Measurement.Adc.HighResolution.Mode, AUTO
TestParameter, Measurement.Adc.HighResolution.Coeff, 1
TestParameter, Measurement.Ag16440ASelector.SemiconductorRelay.Channel1, DEFAULT
TestParameter, Measurement.Ag16440ASelector.SemiconductorRelay.Channel3, DEFAULT
TestParameter, Function.User.Name, absID, sqrtID, gm2, absIG
TestParameter, Function.User.Unit, A, A, A/V, A
TestParameter, Function.User.Definition, abs(ID), sqrt(abs(ID)), (delta(sqrtID)/delta(VG))^2, abs(IG)
TestParameter, Output.Graph.Enabled, true
TestParameter, Output.Graph.XAxis.Data, VG
TestParameter, Output.Graph.XAxis.Scale, Linear
TestParameter, Output.Graph.XAxis.Left, -5
TestParameter, Output.Graph.XAxis.Right, 7
TestParameter, Output.Graph.YAxis.Data, ID, absIG, gm2
TestParameter, Output.Graph.YAxis.Scale, Log, Log, Linear
TestParameter, Output.Graph.YAxis.Bottom, 1E-14, 1E-14, 0
TestParameter, Output.Graph.YAxis.Top, 0.01, 0.01, 1E-05
TestParameter, Output.Graph.YAxis.Group, , , 
TestParameter, Output.List.Data, VG, IG, VD, ID, VS, IS, sqrtID, gm2, absIG
TestParameter, AutoAnalysis.Interpolation, false
TestParameter, AutoAnalysis.Line1.Enabled, false
TestParameter, AutoAnalysis.Line1.Type, 1
TestParameter, AutoAnalysis.Line1.Fix, True
TestParameter, AutoAnalysis.Line1.YAxis, 0
TestParameter, AutoAnalysis.Line1.Point1.Type, 0
TestParameter, AutoAnalysis.Line1.Point1.XY.X, 
TestParameter, AutoAnalysis.Line1.Point1.XY.Y, 
TestParameter, AutoAnalysis.Line1.Point1.Data.Var, 
TestParameter, AutoAnalysis.Line1.Point1.Data.Condition, 
TestParameter, AutoAnalysis.Line1.Point1.Data.Start, false
TestParameter, AutoAnalysis.Line1.Point1.Data.StartVar, 
TestParameter, AutoAnalysis.Line1.Point1.Data.StartCondition, 
TestParameter, AutoAnalysis.Line1.Point2.Type, 0
TestParameter, AutoAnalysis.Line1.Point2.XY.X, 
TestParameter, AutoAnalysis.Line1.Point2.XY.Y, 
TestParameter, AutoAnalysis.Line1.Point2.Data.Var, 
TestParameter, AutoAnalysis.Line1.Point2.Data.Condition, 
TestParameter, AutoAnalysis.Line1.Point2.Data.Start, false
TestParameter, AutoAnalysis.Line1.Point2.Data.StartVar, 
TestParameter, AutoAnalysis.Line1.Point2.Data.StartCondition, 
TestParameter, AutoAnalysis.Line1.GradientExpr, 0
TestParameter, AutoAnalysis.Line2.Enabled, false
TestParameter, AutoAnalysis.Line2.Type, 1
TestParameter, AutoAnalysis.Line2.Fix, True
TestParameter, AutoAnalysis.Line2.YAxis, 0
TestParameter, AutoAnalysis.Line2.Point1.Type, 0
TestParameter, AutoAnalysis.Line2.Point1.XY.X, 
TestParameter, AutoAnalysis.Line2.Point1.XY.Y, 
TestParameter, AutoAnalysis.Line2.Point1.Data.Var, 
TestParameter, AutoAnalysis.Line2.Point1.Data.Condition, 
TestParameter, AutoAnalysis.Line2.Point1.Data.Start, false
TestParameter, AutoAnalysis.Line2.Point1.Data.StartVar, 
TestParameter, AutoAnalysis.Line2.Point1.Data.StartCondition, 
TestParameter, AutoAnalysis.Line2.Point2.Type, 0
TestParameter, AutoAnalysis.Line2.Point2.XY.X, 
TestParameter, AutoAnalysis.Line2.Point2.XY.Y, 
TestParameter, AutoAnalysis.Line2.Point2.Data.Var, 
TestParameter, AutoAnalysis.Line2.Point2.Data.Condition, 
TestParameter, AutoAnalysis.Line2.Point2.Data.Start, false
TestParameter, AutoAnalysis.Line2.Point2.Data.StartVar, 
TestParameter, AutoAnalysis.Line2.Point2.Data.StartCondition, 
TestParameter, AutoAnalysis.Line2.GradientExpr, 0
TestParameter, AutoAnalysis.Marker.Enabled, false
TestParameter, AutoAnalysis.Marker.Data.Var, 
TestParameter, AutoAnalysis.Marker.Data.Condition, 
TestParameter, AutoAnalysis.Marker.Data.Start, false
TestParameter, AutoAnalysis.Marker.Data.StartVar, 
TestParameter, AutoAnalysis.Marker.Data.StartCondition, 
MetaData, TestRecord.EntryPoint, true
MetaData, TestRecord.RecordTime, 05/02/2019 14:41:00
MetaData, TestRecord.TestTarget, 350-300-10-10
MetaData, TestRecord.IterationIndex, 1
MetaData, TestRecord.Preservation, true
MetaData, TestRecord.Flag, 
MetaData, TestRecord.Remarks, good
MetaData, TestRecord.LinkKey, 3e55ced6-cb3d-4a1b-ab11-0b533985152d
Dimension1, 202, 202, 202, 202, 202, 202, 202, 202, 202, 202
Dimension2, 1, 1, 1, 1, 1, 1, 1, 1, 1, 1
DataName, VG, VD, VS, ID, IS, IG, absID, sqrtID, gm2, absIG
DataValue, -2, 5, 0, 2.1643000000000002E-11, -9.724E-12, -9.674000000000001E-12, 2.1643000000000002E-11, 4.65220377885578E-06, 3.6108862824427967E-12, 9.674000000000001E-12
DataValue, -1.9500000000000002, 5, 0, 2.0768000000000002E-11, -8.6970000000000014E-12, -1.4244000000000001E-11, 2.0768000000000002E-11, 4.5571921179603569E-06, 5.1724784680857222E-13, 1.4244000000000001E-11
DataValue, -1.9000000000000001, 5, 0, 2.0979000000000003E-11, -1.0201000000000002E-11, -2.8390000000000003E-12, 2.0979000000000003E-11, 4.5802838339998107E-06, 3.210506742649877E-12, 2.8390000000000003E-12
DataValue, -1.85, 5, 0, 1.9167E-11, 1.4150000000000001E-12, 4.0060000000000005E-12, 1.9167E-11, 4.37801324803843E-06, 3.9766876658275513E-12, 4.0060000000000005E-12
DataValue, -1.8, 5, 0, 1.9192E-11, -5.9360000000000006E-12, -8.0570000000000009E-12, 1.9192E-11, 4.380867494001616E-06, 2.4391350435278813E-13, 8.0570000000000009E-12
DataValue, -1.75, 5, 0, 1.8737E-11, -4.028E-12, -1.5284E-11, 1.8737E-11, 4.32862564793954E-06, 2.5618410315320697E-12, 1.5284E-11
DataValue, -1.7000000000000002, 5, 0, 2.0620000000000002E-11, -8.7830000000000008E-12, -1.6250000000000002E-11, 2.0620000000000002E-11, 4.5409250158970915E-06, 4.8380085387282449E-13, 1.6250000000000002E-11
DataValue, -1.6500000000000001, 5, 0, 1.9344E-11, -1.1071E-11, -8.743E-12, 1.9344E-11, 4.3981814423691072E-06, 1.3904416454681525E-12, 8.743E-12
DataValue, -1.6, 5, 0, 1.9563E-11, -1.1819E-11, -5.388E-12, 1.9563E-11, 4.4230080262192612E-06, 2.1186019756277514E-13, 5.388E-12
DataValue, -1.55, 5, 0, 1.9751000000000002E-11, -7.669E-12, -9.498E-12, 1.9751000000000002E-11, 4.4442097160237616E-06, 8.9977149909298926E-15, 9.498E-12
DataValue, -1.5, 5, 0, 1.9647E-11, -7.998E-12, -1.0395E-11, 1.9647E-11, 4.4324936548177938E-06, 2.89714161448183E-14, 1.0395E-11
DataValue, -1.4500000000000002, 5, 0, 1.9600000000000002E-11, -8.405E-12, -1.1095000000000002E-11, 1.9600000000000002E-11, 4.4271887242357317E-06, 1.888070282130778E-14, 1.1095000000000002E-11
DataValue, -1.4000000000000001, 5, 0, 1.9769E-11, -1.0166E-11, -7.573000000000001E-12, 1.9769E-11, 4.4462343617942589E-06, 1.6221860147698641E-13, 7.573000000000001E-12
DataValue, -1.35, 5, 0, 1.9245E-11, -1.0356000000000002E-11, -7.6600000000000009E-12, 1.9245E-11, 4.38691235380877E-06, 2.0786657204404433E-14, 7.6600000000000009E-12
DataValue, -1.3, 5, 0, 1.9641000000000002E-11, -1.0361E-11, -7.4800000000000012E-12, 1.9641000000000002E-11, 4.4318167832165627E-06, 1.8775572538139896E-12, 7.4800000000000012E-12
DataValue, -1.25, 5, 0, 2.0466000000000003E-11, -9.212E-12, -8.4060000000000011E-12, 2.0466000000000003E-11, 4.5239363390746344E-06, 9.00046954033946E-15, 8.4060000000000011E-12
DataValue, -1.2, 5, 0, 1.9557E-11, -8.7900000000000011E-12, -8.798E-12, 1.9557E-11, 4.4223297027697975E-06, 2.9518821031734572E-12, 8.798E-12
DataValue, -1.1500000000000001, 5, 0, 1.8941E-11, -9.5100000000000013E-12, -8.059E-12, 1.8941E-11, 4.3521259172960517E-06, 1.953838831325756E-13, 8.059E-12
DataValue, -1.1, 5, 0, 1.9168000000000002E-11, -1.0862000000000001E-11, -9.101E-12, 1.9168000000000002E-11, 4.3781274536038811E-06, 1.0003713458081552E-11, 9.101E-12
DataValue, -1.05, 5, 0, 1.6288000000000002E-11, -6.1020000000000005E-12, -9.356E-12, 1.6288000000000002E-11, 4.0358394418014209E-06, 9.4782871192852571E-13, 9.356E-12
DataValue, -1, 5, 0, 1.8325000000000002E-11, -1.1873000000000002E-11, -2.9970000000000003E-12, 1.8325000000000002E-11, 4.2807709586007984E-06, 2.5441163010665013E-14, 2.9970000000000003E-12
DataValue, -0.95000000000000007, 5, 0, 1.6417E-11, -8.594E-12, -7.4760000000000009E-12, 1.6417E-11, 4.0517897280090928E-06, 9.87094914468266E-14, 7.4760000000000009E-12
DataValue, -0.9, 5, 0, 1.8057E-11, -8.74E-12, -5.2100000000000006E-12, 1.8057E-11, 4.2493528919118969E-06, 2.8558360305318594E-12, 5.2100000000000006E-12
DataValue, -0.85000000000000009, 5, 0, 1.7815000000000002E-11, -1.0847E-11, -5.624E-12, 1.7815000000000002E-11, 4.2207819180810561E-06, 5.4012787640470235E-13, 5.624E-12
DataValue, -0.8, 5, 0, 1.8687000000000002E-11, -1.2166000000000001E-11, -7.943E-12, 1.8687000000000002E-11, 4.3228462845676113E-06, 2.4470910418616931E-12, 7.943E-12
DataValue, -0.75, 5, 0, 1.916E-11, -1.4085E-11, -6.1100000000000004E-12, 1.916E-11, 4.3772137256478581E-06, 2.8450776265487608E-13, 6.1100000000000004E-12
DataValue, -0.70000000000000007, 5, 0, 1.9151000000000002E-11, -8.0160000000000014E-12, -4.9970000000000006E-12, 1.9151000000000002E-11, 4.3761855536528618E-06, 3.9317069267949114E-13, 4.9970000000000006E-12
DataValue, -0.65, 5, 0, 1.8615000000000002E-11, -5.813E-12, -1.0838E-11, 1.8615000000000002E-11, 4.3145104009609254E-06, 2.1021189765851218E-12, 1.0838E-11
DataValue, -0.6, 5, 0, 2.0441E-11, -7.847E-12, -3.0320000000000004E-12, 2.0441E-11, 4.5211724143191E-06, 4.9308650718059068E-13, 3.0320000000000004E-12
DataValue, -0.55, 5, 0, 1.8014000000000003E-11, -8.64E-12, -8.417E-12, 1.8014000000000003E-11, 4.24429028224979E-06, 5.0787355128435062E-12, 8.417E-12
DataValue, -0.5, 5, 0, 1.8454E-11, -1.4007E-11, -7.839E-12, 1.8454E-11, 4.2958119139459536E-06, 4.9453727383384394E-13, 7.839E-12
DataValue, -0.45, 5, 0, 1.7422E-11, -1.2960000000000001E-11, -4.6420000000000006E-12, 1.7422E-11, 4.1739669380578476E-06, 7.4065520927396265E-13, 4.6420000000000006E-12
DataValue, -0.4, 5, 0, 1.7722000000000002E-11, -4.8940000000000008E-12, -3.97E-12, 1.7722000000000002E-11, 4.2097505864362084E-06, 2.9606617347710857E-12, 3.97E-12
DataValue, -0.35000000000000003, 5, 0, 1.8888E-11, -6.111E-12, -1.821E-12, 1.8888E-11, 4.3460326736001421E-06, 5.1200235641930173E-14, 1.821E-12
DataValue, -0.3, 5, 0, 1.7532E-11, -9.996E-12, -2.912E-12, 1.7532E-11, 4.1871231173682967E-06, 2.4098891342807756E-11, 2.912E-12
DataValue, -0.25, 5, 0, 1.4862000000000002E-11, -1.7518E-11, -5.6990000000000007E-12, 1.4862000000000002E-11, 3.8551264570698585E-06, 3.5571994421700888E-12, 5.6990000000000007E-12
DataValue, -0.2, 5, 0, 1.9147E-11, -1.046E-11, -9.573E-12, 1.9147E-11, 4.375728510773949E-06, 1.8637686657835042E-11, 9.573E-12
DataValue, -0.15, 5, 0, 1.8377000000000002E-11, -1.2209E-11, -1.0776E-11, 1.8377000000000002E-11, 4.2868403282604312E-06, 1.0074512987046356E-11, 1.0776E-11
DataValue, -0.1, 5, 0, 1.6470000000000002E-11, -8.753E-12, -4.286E-12, 1.6470000000000002E-11, 4.0583247775406054E-06, 3.4875127305347345E-12, 4.286E-12
DataValue, -0.05, 5, 0, 2.0013E-11, -9.079E-12, -3.493E-12, 2.0013E-11, 4.4735891630770033E-06, 7.8977868324150354E-12, 3.493E-12
DataValue, 0, 5, 0, 1.883E-11, -1.1611000000000001E-11, -9.099E-12, 1.883E-11, 4.3393547907494268E-06, 5.3992529054415524E-12, 9.099E-12
DataValue, 0.05, 5, 0, 1.7988000000000003E-11, -1.0898000000000001E-11, -1.2559000000000001E-11, 1.7988000000000003E-11, 4.2412262377760519E-06, 2.1730782255256674E-11, 1.2559000000000001E-11
DataValue, 0.1, 5, 0, 2.3093E-11, -1.1724000000000001E-11, -1.2954000000000002E-11, 2.3093E-11, 4.8055176620214391E-06, 3.9394691393803486E-12, 1.2954000000000002E-11
DataValue, 0.15, 5, 0, 1.9711E-11, -1.3383000000000001E-11, -2.16E-12, 1.9711E-11, 4.4397071975525592E-06, 3.5328061775829051E-14, 2.16E-12
DataValue, 0.2, 5, 0, 2.3274000000000003E-11, -1.7957000000000002E-11, -8.757E-12, 2.3274000000000003E-11, 4.824313422654047E-06, 2.3520832956913497E-10, 8.757E-12
DataValue, 0.25, 5, 0, 3.5681E-11, -3.0223E-11, -5.416E-12, 3.5681E-11, 5.9733575148320067E-06, 1.1073047301520805E-09, 5.416E-12
DataValue, 0.3, 5, 0, 6.6454000000000009E-11, -5.6609000000000003E-11, -5.293E-12, 6.6454000000000009E-11, 8.1519322862742187E-06, 3.0356501458801819E-09, 5.293E-12
DataValue, 0.35000000000000003, 5, 0, 1.3186E-10, -1.1728400000000002E-10, -5.903E-12, 1.3186E-10, 1.1483030958766941E-05, 6.8361749378175589E-09, 5.903E-12
DataValue, 0.4, 5, 0, 2.6961800000000003E-10, -2.49715E-10, -9.585E-12, 2.6961800000000003E-10, 1.6420048720999581E-05, 1.2947593732442362E-08, 9.585E-12
DataValue, 0.45, 5, 0, 5.22661E-10, -4.9165100000000006E-10, -1.331E-12, 5.22661E-10, 2.2861780333123666E-05, 1.8494580887038756E-08, 1.331E-12
DataValue, 0.5, 5, 0, 9.01172E-10, -8.69679E-10, -7.469E-12, 9.01172E-10, 3.0019526978285318E-05, 2.746004931531872E-08, 7.469E-12
DataValue, 0.55, 5, 0, 1.55495E-09, -1.48675E-09, -6.4010000000000007E-12, 1.55495E-09, 3.9432854322252655E-05, 4.5727854032634906E-08, 6.4010000000000007E-12
DataValue, 0.6, 5, 0, 2.64233E-09, -2.58982E-09, -2.507E-12, 2.64233E-09, 5.1403599095783164E-05, 6.51905702076349E-08, 2.507E-12
DataValue, 0.65, 5, 0, 4.22049E-09, -4.15125E-09, -4.38E-12, 4.22049E-09, 6.4965298429238351E-05, 7.7939850465996784E-08, 4.38E-12
DataValue, 0.70000000000000007, 5, 0, 6.29187E-09, -6.21495E-09, -4.4710000000000006E-12, 6.29187E-09, 7.9321308612503359E-05, 8.7142989409466819E-08, 4.4710000000000006E-12
DataValue, 0.75, 5, 0, 8.92747E-09, -8.84631E-09, -4.509E-12, 8.92747E-09, 9.4485289860379853E-05, 8.4440100306976412E-08, 4.509E-12
DataValue, 0.8, 5, 0, 1.1746199999999999E-08, -1.1510499999999999E-08, -3.2770000000000003E-12, 1.1746199999999999E-08, 0.00010837988743304728, 9.8715600524953037E-08, 3.2770000000000003E-12
DataValue, 0.85000000000000009, 5, 0, 1.58519E-08, -1.5698399999999998E-08, -3.766E-12, 1.58519E-08, 0.00012590432875798989, 1.2629103490905277E-07, 3.766E-12
DataValue, 0.9, 5, 0, 2.0712199999999998E-08, -2.0556E-08, -6.9400000000000007E-12, 2.0712199999999998E-08, 0.00014391733738504197, 1.38353848409769E-07, 6.9400000000000007E-12
DataValue, 0.95000000000000007, 5, 0, 2.6601699999999996E-08, -2.6273999999999998E-08, -1.2150000000000002E-12, 2.6601699999999996E-08, 0.00016310027590411979, 1.3772552393089087E-07, 1.2150000000000002E-12
DataValue, 1, 5, 0, 3.27714E-08, -3.23388E-08, -2.2370000000000003E-12, 3.27714E-08, 0.00018102872700209764, 1.3428972583230069E-07, 2.2370000000000003E-12
DataValue, 1.05, 5, 0, 3.98984E-08, -3.97612E-08, -1.759E-12, 3.98984E-08, 0.00019974583850483594, 1.4525144167315177E-07, 1.759E-12
DataValue, 1.1, 5, 0, 4.80226E-08, -4.75922E-08, -5.4760000000000005E-12, 4.80226E-08, 0.00021914059413992651, 1.360775437334927E-07, 5.4760000000000005E-12
DataValue, 1.1500000000000001, 5, 0, 5.5995899999999995E-08, -5.5927699999999993E-08, -1.581E-12, 5.5995899999999995E-08, 0.0002366345283343071, 1.5481047705972835E-07, 1.581E-12
DataValue, 1.2, 5, 0, 6.68153E-08, -6.6363E-08, -1.414E-12, 6.68153E-08, 0.00025848655671040227, 1.6176731172581648E-07, 1.414E-12
DataValue, 1.25, 5, 0, 7.6648599999999992E-08, -7.5875E-08, -1.3670000000000001E-12, 7.6648599999999992E-08, 0.00027685483560884393, 1.4724229620524321E-07, 1.3670000000000001E-12
DataValue, 1.3, 5, 0, 8.81251E-08, -8.76322E-08, -5.072E-12, 8.81251E-08, 0.00029685872060628433, 1.565325159458507E-07, 5.072E-12
DataValue, 1.35, 5, 0, 1.0012099999999999E-07, -9.98791E-08, -1.6930000000000002E-12, 1.0012099999999999E-07, 0.00031641902597663119, 1.2025012283159937E-07, 1.6930000000000002E-12
DataValue, 1.4000000000000001, 5, 0, 1.09916E-07, -1.0897E-07, -3.4960000000000005E-12, 1.09916E-07, 0.00033153582008585436, 1.3019134555207406E-07, 3.4960000000000005E-12
DataValue, 1.4500000000000002, 5, 0, 1.24257E-07, -1.24179E-07, -4.593E-12, 1.24257E-07, 0.00035250106382818196, 1.9679668461427867E-07, 4.593E-12
DataValue, 1.5, 5, 0, 1.41299E-07, -1.41331E-07, -2.8010000000000003E-12, 1.41299E-07, 0.00037589759243708917, 2.2679184155417111E-07, 2.8010000000000003E-12
DataValue, 1.55, 5, 0, 1.60099E-07, -1.6026E-07, -1.1980000000000002E-12, 1.60099E-07, 0.00040012373086334186, 2.2307890452309902E-07, 1.1980000000000002E-12
DataValue, 1.6, 5, 0, 1.79038E-07, -1.76436E-07, -2.7020000000000004E-12, 1.79038E-07, 0.000423128821991601, 2.1959166671423063E-07, 2.7020000000000004E-12
DataValue, 1.6500000000000001, 5, 0, 1.99795E-07, -1.99407E-07, -2.059E-12, 1.99795E-07, 0.00044698433977042191, 2.53053099272171E-07, 2.059E-12
DataValue, 1.7000000000000002, 5, 0, 2.24139E-07, -2.2296499999999999E-07, -1.544E-12, 2.24139E-07, 0.00047343320542606639, 2.5356848626641481E-07, 1.544E-12
DataValue, 1.75, 5, 0, 2.4734699999999997E-07, -2.4789E-07, 1.8240000000000003E-12, 2.4734699999999997E-07, 0.000497339923995651, 3.0480774022443149E-07, 1.8240000000000003E-12
DataValue, 1.8, 5, 0, 2.79463E-07, -2.76361E-07, -1.6620000000000002E-12, 2.79463E-07, 0.00052864260138585123, 3.4576921607268911E-07, 1.6620000000000002E-12
DataValue, 1.85, 5, 0, 3.09294E-07, -3.05736E-07, -1.917E-12, 3.09294E-07, 0.00055614206818042455, 3.0197544350321427E-07, 1.917E-12
DataValue, 1.9000000000000001, 5, 0, 3.4058299999999997E-07, -3.37356E-07, -2.5E-13, 3.4058299999999997E-07, 0.00058359489374051237, 3.5257512894221008E-07, 2.5E-13
DataValue, 1.9500000000000002, 5, 0, 3.7886499999999997E-07, -3.75348E-07, -1.222E-12, 3.7886499999999997E-07, 0.00061552010527683, 3.94662307114472E-07, 1.222E-12
DataValue, 2, 5, 0, 4.17855E-07, -4.15438E-07, 1.782E-12, 4.17855E-07, 0.00064641704804251565, 3.9798205158017368E-07, 1.782E-12
DataValue, 2.05, 5, 0, 4.60506E-07, -4.5655299999999997E-07, -1.663E-12, 4.60506E-07, 0.00067860592393523939, 4.8083115248893086E-07, 1.663E-12
DataValue, 2.1, 5, 0, 5.12311E-07, -5.07538E-07, 3.0550000000000002E-12, 5.12311E-07, 0.00071575903766560995, 4.8306705327409626E-07, 3.0550000000000002E-12
DataValue, 2.15, 5, 0, 5.59667E-07, -5.58103E-07, 3.004E-12, 5.59667E-07, 0.000748108949284795, 4.7158389570407966E-07, 3.004E-12
DataValue, 2.2, 5, 0, 6.15332E-07, -6.09999E-07, 5.2790000000000004E-12, 6.15332E-07, 0.00078443100397676785, 5.2103078707503415E-07, 5.2790000000000004E-12
DataValue, 2.25, 5, 0, 6.72878E-07, -6.712E-07, 7.0690000000000007E-12, 6.72878E-07, 0.00082029141163369491, 5.3318161465788027E-07, 7.0690000000000007E-12
DataValue, 2.3000000000000003, 5, 0, 7.35221E-07, -7.35582E-07, 1.0871000000000001E-11, 7.35221E-07, 0.00085745029010433015, 5.6801013559301531E-07, 1.0871000000000001E-11
DataValue, 2.35, 5, 0, 8.02203E-07, -7.96548E-07, 1.4146E-11, 8.02203E-07, 0.00089565785878314042, 5.6638670665256026E-07, 1.4146E-11
DataValue, 2.4, 5, 0, 8.69946E-07, -8.66847E-07, 1.7464000000000002E-11, 8.69946E-07, 0.00093270895782124872, 6.21582029223545E-07, 1.7464000000000002E-11
