
SetupTitle, Transfer stab
PrimitiveTest, I/V Sweep
TestParameter, Context.MainFrame, 4155C
TestParameter, Channel.UnitType, SMU, SMU, SMU
TestParameter, Channel.Unit, SMU3:MP, SMU1:MP, SMU4:MP
TestParameter, Channel.IName, ID, IS, IG
TestParameter, Channel.VName, VD, VS, VG
TestParameter, Channel.Mode, V, COMMON, V
TestParameter, Channel.Func, CONST, CONST, VAR1
TestParameter, Channel.Index, 
TestParameter, Channel.Time, 
TestParameter, Measurement.Port.Unit, SMU3:MP, SMU1:MP, SMU4:MP
TestParameter, Measurement.Port.SeriesResistor, NONE, NONE, NONE
TestParameter, Measurement.Port.Filter, ON, ON, ON
TestParameter, Measurement.Primary.Locus, Single
TestParameter, Measurement.Primary.Scale, LINEAR
TestParameter, Measurement.Primary.Start, -2
TestParameter, Measurement.Primary.Stop, 3
TestParameter, Measurement.Primary.Step, 0.05
TestParameter, Measurement.Primary.Compliance, 0.1
TestParameter, Measurement.Primary.PowerCompliance, 0
TestParameter, Measurement.Aborting.Condition, CONTINUE AT ANY
TestParameter, Measurement.PostOutput.Value, START
TestParameter, Measurement.PostOutput.Retention, OFF
TestParameter, Measurement.Bias.Source, 3, 0, -2
TestParameter, Measurement.Bias.Compliance, 0.1, 0.1, 0.1
TestParameter, Measurement.Monitor.Unit, SMU3:MP, SMU1:MP, SMU4:MP
TestParameter, Measurement.Monitor.Adc, HR ADC, HR ADC, HR ADC
TestParameter, Measurement.Monitor.RangingMode, AUTO, AUTO, AUTO
TestParameter, Measurement.Monitor.RangeBoundary, , , 
TestParameter, Measurement.Monitor.RangeRating, BY FULL RANGE, BY FULL RANGE, BY FULL RANGE
TestParameter, Measurement.Monitor.RangeRatingCoeff, 50, 50, 50
TestParameter, Measurement.Timing.Hold, 0.5
TestParameter, Measurement.Timing.Delay, 0.05
TestParameter, Measurement.Adc.HighResolution.AutoZero, OFF
TestParameter, Measurement.Adc.HighResolution.Mode, AUTO
TestParameter, Measurement.Adc.HighResolution.Coeff, 1
TestParameter, Measurement.Ag16440ASelector.SemiconductorRelay.Channel1, DEFAULT
TestParameter, Measurement.Ag16440ASelector.SemiconductorRelay.Channel3, DEFAULT
TestParameter, Function.User.Name, absID, sqrtID, gm2, absIG
TestParameter, Function.User.Unit, A, A, A/V, A
TestParameter, Function.User.Definition, abs(ID), sqrt(abs(ID)), (delta(sqrtID)/delta(VG))^2, abs(IG)
TestParameter, Output.Graph.Enabled, true
TestParameter, Output.Graph.XAxis.Data, VG
TestParameter, Output.Graph.XAxis.Scale, Linear
TestParameter, Output.Graph.XAxis.Left, -5
TestParameter, Output.Graph.XAxis.Right, 7
TestParameter, Output.Graph.YAxis.Data, ID, absIG, gm2
TestParameter, Output.Graph.YAxis.Scale, Log, Log, Linear
TestParameter, Output.Graph.YAxis.Bottom, 1E-14, 1E-14, 0
TestParameter, Output.Graph.YAxis.Top, 0.01, 0.01, 1E-05
TestParameter, Output.Graph.YAxis.Group, , , 
TestParameter, Output.List.Data, VG, IG, VD, ID, VS, IS, sqrtID, gm2, absIG
TestParameter, AutoAnalysis.Interpolation, false
TestParameter, AutoAnalysis.Line1.Enabled, false
TestParameter, AutoAnalysis.Line1.Type, 1
TestParameter, AutoAnalysis.Line1.Fix, True
TestParameter, AutoAnalysis.Line1.YAxis, 0
TestParameter, AutoAnalysis.Line1.Point1.Type, 0
TestParameter, AutoAnalysis.Line1.Point1.XY.X, 
TestParameter, AutoAnalysis.Line1.Point1.XY.Y, 
TestParameter, AutoAnalysis.Line1.Point1.Data.Var, 
TestParameter, AutoAnalysis.Line1.Point1.Data.Condition, 
TestParameter, AutoAnalysis.Line1.Point1.Data.Start, false
TestParameter, AutoAnalysis.Line1.Point1.Data.StartVar, 
TestParameter, AutoAnalysis.Line1.Point1.Data.StartCondition, 
TestParameter, AutoAnalysis.Line1.Point2.Type, 0
TestParameter, AutoAnalysis.Line1.Point2.XY.X, 
TestParameter, AutoAnalysis.Line1.Point2.XY.Y, 
TestParameter, AutoAnalysis.Line1.Point2.Data.Var, 
TestParameter, AutoAnalysis.Line1.Point2.Data.Condition, 
TestParameter, AutoAnalysis.Line1.Point2.Data.Start, false
TestParameter, AutoAnalysis.Line1.Point2.Data.StartVar, 
TestParameter, AutoAnalysis.Line1.Point2.Data.StartCondition, 
TestParameter, AutoAnalysis.Line1.GradientExpr, 0
TestParameter, AutoAnalysis.Line2.Enabled, false
TestParameter, AutoAnalysis.Line2.Type, 1
TestParameter, AutoAnalysis.Line2.Fix, True
TestParameter, AutoAnalysis.Line2.YAxis, 0
TestParameter, AutoAnalysis.Line2.Point1.Type, 0
TestParameter, AutoAnalysis.Line2.Point1.XY.X, 
TestParameter, AutoAnalysis.Line2.Point1.XY.Y, 
TestParameter, AutoAnalysis.Line2.Point1.Data.Var, 
TestParameter, AutoAnalysis.Line2.Point1.Data.Condition, 
TestParameter, AutoAnalysis.Line2.Point1.Data.Start, false
TestParameter, AutoAnalysis.Line2.Point1.Data.StartVar, 
TestParameter, AutoAnalysis.Line2.Point1.Data.StartCondition, 
TestParameter, AutoAnalysis.Line2.Point2.Type, 0
TestParameter, AutoAnalysis.Line2.Point2.XY.X, 
TestParameter, AutoAnalysis.Line2.Point2.XY.Y, 
TestParameter, AutoAnalysis.Line2.Point2.Data.Var, 
TestParameter, AutoAnalysis.Line2.Point2.Data.Condition, 
TestParameter, AutoAnalysis.Line2.Point2.Data.Start, false
TestParameter, AutoAnalysis.Line2.Point2.Data.StartVar, 
TestParameter, AutoAnalysis.Line2.Point2.Data.StartCondition, 
TestParameter, AutoAnalysis.Line2.GradientExpr, 0
TestParameter, AutoAnalysis.Marker.Enabled, false
TestParameter, AutoAnalysis.Marker.Data.Var, 
TestParameter, AutoAnalysis.Marker.Data.Condition, 
TestParameter, AutoAnalysis.Marker.Data.Start, false
TestParameter, AutoAnalysis.Marker.Data.StartVar, 
TestParameter, AutoAnalysis.Marker.Data.StartCondition, 
MetaData, TestRecord.EntryPoint, true
MetaData, TestRecord.RecordTime, 05/02/2019 10:21:18
MetaData, TestRecord.TestTarget, 250-300-10-10
MetaData, TestRecord.IterationIndex, 3
MetaData, TestRecord.Preservation, true
MetaData, TestRecord.Flag, 
MetaData, TestRecord.Remarks, good
MetaData, TestRecord.LinkKey, a9bc4ef4-15d8-428c-99ba-0c2b0b5129dc
Dimension1, 101, 101, 101, 101, 101, 101, 101, 101, 101, 101
Dimension2, 1, 1, 1, 1, 1, 1, 1, 1, 1, 1
DataName, VG, VD, VS, ID, IS, IG, absID, sqrtID, gm2, absIG
DataValue, -2, 3, 0, 5.1377E-11, -3.5800000000000004E-13, -5.3577000000000004E-11, 5.1377E-11, 7.1677751080792147E-06, 2.7370668414336024E-12, 5.3577000000000004E-11
DataValue, -1.9500000000000002, 3, 0, 5.0198E-11, 1.4210000000000001E-12, -4.9343E-11, 5.0198E-11, 7.0850546928023076E-06, 1.5672625061531623E-12, 4.9343E-11
DataValue, -1.9000000000000001, 3, 0, 4.9598000000000004E-11, -3.045E-12, -4.6082E-11, 4.9598000000000004E-11, 7.0425847527736577E-06, 1.4032864490339093E-14, 4.6082E-11
DataValue, -1.85, 3, 0, 5.0366E-11, -2.9310000000000003E-12, -5.5220000000000004E-11, 5.0366E-11, 7.0969007320097132E-06, 1.9473044343582321E-12, 5.5220000000000004E-11
DataValue, -1.8, 3, 0, 5.1583000000000004E-11, -3.2770000000000003E-12, -4.9745000000000005E-11, 5.1583000000000004E-11, 7.1821306031010048E-06, 3.8969917292479078E-12, 4.9745000000000005E-11
DataValue, -1.75, 3, 0, 4.7603E-11, -3.6330000000000004E-12, -4.5580000000000006E-11, 4.7603E-11, 6.8994927349769711E-06, 7.2921465076836579E-12, 4.5580000000000006E-11
DataValue, -1.7000000000000002, 3, 0, 4.7777E-11, -2.941E-12, -4.0473000000000003E-11, 4.7777E-11, 6.9120908558843471E-06, 4.1148847068704093E-12, 4.0473000000000003E-11
DataValue, -1.6500000000000001, 3, 0, 4.4845E-11, -2.75E-12, -4.6357E-11, 4.4845E-11, 6.6966409490131694E-06, 3.0789401828919892E-13, 4.6357E-11
DataValue, -1.6, 3, 0, 4.7013E-11, -4.446E-12, -4.0775E-11, 4.7013E-11, 6.8566026572931872E-06, 1.1550972805722802E-12, 4.0775E-11
DataValue, -1.55, 3, 0, 4.6296E-11, -2.293E-12, -4.622E-11, 4.6296E-11, 6.804116401120722E-06, 6.1662251854874681E-13, 4.622E-11
DataValue, -1.5, 3, 0, 4.8096000000000005E-11, -5.7680000000000005E-12, -4.122E-11, 4.8096000000000005E-11, 6.9351279728639475E-06, 8.6775833588887212E-14, 4.122E-11
DataValue, -1.4500000000000002, 3, 0, 4.5896E-11, -3.837E-12, -3.8004E-11, 4.5896E-11, 6.7746586629881214E-06, 2.5510006262393556E-13, 3.8004E-11
DataValue, -1.4000000000000001, 3, 0, 4.7398E-11, -5.272E-12, -3.6092000000000006E-11, 4.7398E-11, 6.8846205414677722E-06, 1.1604747798256906E-12, 3.6092000000000006E-11
DataValue, -1.35, 3, 0, 4.4448E-11, -4.6030000000000005E-12, -3.5094E-11, 4.4448E-11, 6.6669333280002137E-06, 9.25346122075872E-12, 3.5094E-11
DataValue, -1.3, 3, 0, 4.3302000000000006E-11, -4.0900000000000005E-12, -4.3363000000000006E-11, 4.3302000000000006E-11, 6.5804255181561024E-06, 1.3676043916574759E-12, 4.3363000000000006E-11
DataValue, -1.25, 3, 0, 4.6021E-11, -9.745000000000001E-12, -3.9964000000000005E-11, 4.6021E-11, 6.783877947015262E-06, 7.1246366957435785E-13, 3.9964000000000005E-11
DataValue, -1.2, 3, 0, 4.4420000000000007E-11, -7.913E-12, -3.6888000000000004E-11, 4.4420000000000007E-11, 6.6648330811806537E-06, 3.1646919069187044E-12, 3.6888000000000004E-11
DataValue, -1.1500000000000001, 3, 0, 4.3639E-11, -7.403E-12, -3.6475E-11, 4.3639E-11, 6.605982137426652E-06, 2.3290971157893671E-12, 3.6475E-11
DataValue, -1.1, 3, 0, 4.2409E-11, -5.913E-12, -3.517E-11, 4.2409E-11, 6.5122192837772288E-06, 4.4736836135155472E-14, 3.517E-11
DataValue, -1.05, 3, 0, 4.3360000000000006E-11, -7.828000000000001E-12, -3.6116000000000005E-11, 4.3360000000000006E-11, 6.5848310532617314E-06, 1.0450549310398623E-13, 3.6116000000000005E-11
DataValue, -1, 3, 0, 4.1989000000000006E-11, -7.5380000000000012E-12, -3.5355000000000004E-11, 4.1989000000000006E-11, 6.479891974408216E-06, 7.4199061547518378E-13, 3.5355000000000004E-11
DataValue, -0.95000000000000007, 3, 0, 4.2233000000000006E-11, -8.794E-12, -3.4306E-11, 4.2233000000000006E-11, 6.4986921761228237E-06, 1.0357871078676013E-14, 3.4306E-11
DataValue, -0.9, 3, 0, 4.2121E-11, -7.8670000000000011E-12, -3.0014000000000004E-11, 4.2121E-11, 6.4900693370718317E-06, 2.8725448398223896E-14, 3.0014000000000004E-11
DataValue, -0.85000000000000009, 3, 0, 4.2013000000000005E-11, -7.912000000000001E-12, -3.2998000000000005E-11, 4.2013000000000005E-11, 6.4817435925837123E-06, 1.2457496722789956E-14, 3.2998000000000005E-11
DataValue, -0.8, 3, 0, 4.2266000000000004E-11, -9.163E-12, -3.2281E-11, 4.2266000000000004E-11, 6.5012306527302969E-06, 6.56756364568361E-13, 3.2281E-11
DataValue, -0.75, 3, 0, 4.0969000000000006E-11, -9.601E-12, -3.149E-11, 4.0969000000000006E-11, 6.4007030863804338E-06, 6.7690688776280363E-13, 3.149E-11
DataValue, -0.70000000000000007, 3, 0, 4.1203000000000004E-11, -9.141E-12, -3.02E-11, 4.1203000000000004E-11, 6.4189563014558685E-06, 5.4604970952488983E-12, 3.02E-11
DataValue, -0.65, 3, 0, 4.4015E-11, -1.0679E-11, -3.1829E-11, 4.4015E-11, 6.6343801519056773E-06, 2.9374636375299146E-16, 3.1829E-11
DataValue, -0.6, 3, 0, 4.1181E-11, -1.0840000000000002E-11, -2.9281000000000003E-11, 4.1181E-11, 6.4172423984138239E-06, 4.9201611530828159E-12, 2.9281000000000003E-11
DataValue, -0.55, 3, 0, 4.1121000000000005E-11, -1.1861E-11, -2.4662000000000003E-11, 4.1121000000000005E-11, 6.4125657891362026E-06, 6.877214069016076E-12, 2.4662000000000003E-11
DataValue, -0.5, 3, 0, 3.7884000000000005E-11, -9.724E-12, -2.8617000000000004E-11, 3.7884000000000005E-11, 6.1549979691304533E-06, 5.7458709963860345E-14, 2.8617000000000004E-11
DataValue, -0.45, 3, 0, 4.1429000000000004E-11, -1.3023E-11, -2.7290000000000003E-11, 4.1429000000000004E-11, 6.436536335638913E-06, 2.4753281554292911E-12, 2.7290000000000003E-11
DataValue, -0.4, 3, 0, 3.5972000000000004E-11, -1.2882000000000001E-11, -2.4647000000000004E-11, 3.5972000000000004E-11, 5.9976662127864371E-06, 4.0883203623708264E-12, 2.4647000000000004E-11
DataValue, -0.35000000000000003, 3, 0, 3.8867000000000004E-11, -9.7290000000000011E-12, -2.2906000000000003E-11, 3.8867000000000004E-11, 6.2343403821094018E-06, 1.8941475521299697E-11, 2.2906000000000003E-11
DataValue, -0.3, 3, 0, 4.1382E-11, -1.0441E-11, -2.7984000000000002E-11, 4.1382E-11, 6.4328842675739161E-06, 2.519629752843179E-12, 2.7984000000000002E-11
DataValue, -0.25, 3, 0, 3.6913000000000005E-11, -1.0911000000000002E-11, -2.2763E-11, 3.6913000000000005E-11, 6.0756069655631944E-06, 1.6112417033178252E-12, 2.2763E-11
DataValue, -0.2, 3, 0, 3.9765000000000004E-11, -1.4836000000000002E-11, -2.258E-11, 3.9765000000000004E-11, 6.3059495716347118E-06, 4.8264097370669777E-13, 2.258E-11
DataValue, -0.15, 3, 0, 3.7762000000000005E-11, -1.5878E-11, -1.8727000000000003E-11, 3.7762000000000005E-11, 6.1450793322787956E-06, 1.0185197544015281E-12, 1.8727000000000003E-11
DataValue, -0.1, 3, 0, 4.1048000000000005E-11, -1.7051E-11, -2.3884E-11, 4.1048000000000005E-11, 6.4068713113344182E-06, 2.140389361009479E-11, 2.3884E-11
DataValue, -0.05, 3, 0, 4.3662000000000005E-11, -2.2382000000000002E-11, -1.7400000000000003E-11, 4.3662000000000005E-11, 6.6077227544744948E-06, 9.82549907711125E-11, 1.7400000000000003E-11
DataValue, 0, 3, 0, 5.4732000000000005E-11, -3.5353000000000006E-11, -2.2106000000000003E-11, 5.4732000000000005E-11, 7.39810786620471E-06, 5.3800007162413057E-10, 2.2106000000000003E-11
DataValue, 0.05, 3, 0, 7.9695E-11, -6.185E-11, -1.8819E-11, 7.9695E-11, 8.9272056098199069E-06, 2.4958843083433192E-09, 1.8819E-11
DataValue, 0.1, 3, 0, 1.53611E-10, -1.2405800000000002E-10, -1.5947E-11, 1.53611E-10, 1.2393990479260504E-05, 7.580927778037068E-09, 1.5947E-11
DataValue, 0.15, 3, 0, 3.1096000000000003E-10, -2.69682E-10, -3.4838E-11, 3.1096000000000003E-10, 1.76340579561257E-05, 1.4494292940807812E-08, 3.4838E-11
DataValue, 0.2, 3, 0, 5.9698200000000006E-10, -5.6905600000000007E-10, -1.2284E-11, 5.9698200000000006E-10, 2.4433215097485638E-05, 2.1167375388272277E-08, 1.2284E-11
DataValue, 0.25, 3, 0, 1.03575E-09, -9.7026E-10, -2.4436000000000003E-11, 1.03575E-09, 3.218307008350819E-05, 3.6553816284223671E-08, 2.4436000000000003E-11
DataValue, 0.3, 3, 0, 1.8968E-09, -1.85272E-09, -1.0439000000000001E-11, 1.8968E-09, 4.3552267449582919E-05, 6.0271494482371939E-08, 1.0439000000000001E-11
DataValue, 0.35000000000000003, 3, 0, 3.21867E-09, -3.16093E-09, -1.4318000000000001E-11, 3.21867E-09, 5.6733323540931392E-05, 7.7538310367832186E-08, 1.4318000000000001E-11
DataValue, 0.4, 3, 0, 5.09767E-09, -5.00079E-09, -2.6486000000000002E-11, 5.09767E-09, 7.13979691587933E-05, 9.3058121774201866E-08, 2.6486000000000002E-11
DataValue, 0.45, 3, 0, 7.6106E-09, -7.49101E-09, -9.9850000000000016E-12, 7.6106E-09, 8.7238752856743656E-05, 1.0119516445445811E-07, 9.9850000000000016E-12
DataValue, 0.5, 3, 0, 1.065213E-08, -1.04202E-08, -1.0091000000000001E-11, 1.065213E-08, 0.00010320915657052915, 1.023441798821014E-07, 1.0091000000000001E-11
DataValue, 0.55, 3, 0, 1.4215799999999999E-08, -1.4128499999999998E-08, -1.0180000000000001E-12, 1.4215799999999999E-08, 0.00011923002977438192, 1.2653647697352074E-07, 1.0180000000000001E-12
DataValue, 0.6, 3, 0, 1.92602E-08, -1.9126399999999997E-08, -2.094E-12, 1.92602E-08, 0.0001387811226356092, 1.5606675039767536E-07, 2.094E-12
DataValue, 0.65, 3, 0, 2.51969E-08, -2.5077799999999997E-08, -2.177E-12, 2.51969E-08, 0.00015873531428135329, 1.7144340487908067E-07, 2.177E-12
DataValue, 0.70000000000000007, 3, 0, 3.24673E-08, -3.2268399999999997E-08, -2.0904000000000002E-11, 3.24673E-08, 0.00018018684746673382, 1.7846638341057957E-07, 2.0904000000000002E-11
DataValue, 0.75, 3, 0, 4.0393199999999994E-08, -4.02638E-08, -1.3894E-11, 4.0393199999999994E-08, 0.00020098059607832791, 1.7763999910138621E-07, 1.3894E-11
DataValue, 0.8, 3, 0, 4.9432499999999996E-08, -4.91661E-08, -9.599E-12, 4.9432499999999996E-08, 0.00022233420789433191, 1.9374923212955913E-07, 9.599E-12
DataValue, 0.85000000000000009, 3, 0, 6.00238E-08, -5.9699399999999993E-08, -9.9810000000000012E-12, 6.00238E-08, 0.00024499755100816824, 2.0813108096091068E-07, 9.9810000000000012E-12
DataValue, 0.9, 3, 0, 7.1800199999999992E-08, -7.1454799999999989E-08, -3.5650000000000003E-12, 7.1800199999999992E-08, 0.00026795559333591079, 2.0947561559412733E-07, 3.5650000000000003E-12
DataValue, 0.95000000000000007, 3, 0, 8.4544899999999988E-08, -8.4177499999999987E-08, 1.652E-12, 8.4544899999999988E-08, 0.000290766057166238, 2.0621557591435022E-07, 1.652E-12
DataValue, 1, 3, 0, 9.81986E-08, -9.7399999999999985E-08, 1.458E-12, 9.81986E-08, 0.00031336655852212436, 1.8131082827192416E-07, 1.458E-12
DataValue, 1.05, 3, 0, 1.1111999999999999E-07, -1.10126E-07, -1.0066E-11, 1.1111999999999999E-07, 0.00033334666640001063, 1.90938071490704E-07, 1.0066E-11
DataValue, 1.1, 3, 0, 1.27494E-07, -1.27103E-07, -2.59E-13, 1.27494E-07, 0.00035706301964779269, 2.2493720163444333E-07, 2.59E-13
DataValue, 1.1500000000000001, 3, 0, 1.44989E-07, -1.43602E-07, -2.7850000000000004E-12, 1.44989E-07, 0.00038077421131163807, 2.1920551845779466E-07, 2.7850000000000004E-12
DataValue, 1.2, 3, 0, 1.63121E-07, -1.62801E-07, 7.2170000000000004E-12, 1.63121E-07, 0.00040388240862904639, 2.1796664477090752E-07, 7.2170000000000004E-12
DataValue, 1.25, 3, 0, 1.82723E-07, -1.82028E-07, 9.211E-12, 1.82723E-07, 0.00042746110934212484, 2.1422296860986771E-07, 9.211E-12
DataValue, 1.3, 3, 0, 2.0265E-07, -2.01246E-07, -2.594E-12, 2.0265E-07, 0.000450166635813895, 1.9784316933058202E-07, 2.594E-12
DataValue, 1.35, 3, 0, 2.22728E-07, -2.22412E-07, -1.143E-12, 2.22728E-07, 0.00047194067423776903, 2.1005124643529394E-07, 1.143E-12
DataValue, 1.4000000000000001, 3, 0, 2.4601399999999997E-07, -2.44785E-07, 2.5296E-11, 2.4601399999999997E-07, 0.00049599798386687011, 2.2201143387964236E-07, 2.5296E-11
DataValue, 1.4500000000000002, 3, 0, 2.69422E-07, -2.67681E-07, 1.968E-11, 2.69422E-07, 0.0005190587635326081, 2.2112674038489919E-07, 1.968E-11
DataValue, 1.5, 3, 0, 2.9487299999999997E-07, -2.91452E-07, 3.946E-12, 2.9487299999999997E-07, 0.00054302209899782165, 2.0681874713424138E-07, 3.946E-12
DataValue, 1.55, 3, 0, 3.18701E-07, -3.17483E-07, 8.3160000000000013E-12, 3.18701E-07, 0.00056453609273455672, 2.0804466012700525E-07, 8.3160000000000013E-12
DataValue, 1.6, 3, 0, 3.4649E-07, -3.43382E-07, 1.8837000000000003E-11, 3.4649E-07, 0.00058863401192931419, 2.2809001952843867E-07, 1.8837000000000003E-11
DataValue, 1.6500000000000001, 3, 0, 3.74905E-07, -3.72539E-07, 1.7359E-11, 3.74905E-07, 0.00061229486360739631, 2.4072949908803615E-07, 1.7359E-11
DataValue, 1.7000000000000002, 3, 0, 4.06659E-07, -4.0554599999999997E-07, 2.3644E-11, 4.06659E-07, 0.00063769820448233972, 2.2384816850482182E-07, 2.3644E-11
DataValue, 1.75, 3, 0, 4.35082E-07, -4.35843E-07, 2.9988E-11, 4.35082E-07, 0.00065960745902392585, 2.2925311031651297E-07, 2.9988E-11
DataValue, 1.8, 3, 0, 4.7001799999999997E-07, -4.66156E-07, 4.0185E-11, 4.7001799999999997E-07, 0.00068557858776364944, 2.6561753081214457E-07, 4.0185E-11
DataValue, 1.85, 3, 0, 5.05728E-07, -5.04879E-07, 3.1151E-11, 5.05728E-07, 0.00071114555472139463, 2.7058916277233033E-07, 3.1151E-11
DataValue, 1.9000000000000001, 3, 0, 5.44049E-07, -5.40639E-07, 5.4100000000000006E-11, 5.44049E-07, 0.0007375967733118143, 2.5187838239027229E-07, 5.4100000000000006E-11
DataValue, 1.9500000000000002, 3, 0, 5.79628E-07, -5.75295E-07, 6.794E-11, 5.79628E-07, 0.00076133304144769651, 2.6244688487047209E-07, 6.794E-11
DataValue, 2, 3, 0, 6.22247E-07, -6.19141E-07, 5.2527000000000005E-11, 6.22247E-07, 0.00078882634337349561, 2.9001269681742414E-07, 5.2527000000000005E-11
DataValue, 2.05, 3, 0, 6.64528E-07, -6.59032E-07, 6.6972000000000007E-11, 6.64528E-07, 0.000815185868376041, 2.9073408542805313E-07, 6.6972000000000007E-11
DataValue, 2.1, 3, 0, 7.1022099999999994E-07, -7.06693E-07, 7.7834E-11, 7.1022099999999994E-07, 0.00084274610648759447, 3.1589990909353203E-07, 7.7834E-11
DataValue, 2.15, 3, 0, 7.59322E-07, -7.53824E-07, 9.1771E-11, 7.59322E-07, 0.00087139084227457885, 3.121773566566837E-07, 9.1771E-11
DataValue, 2.2, 3, 0, 8.07516E-07, -8.03856E-07, 9.6498000000000012E-11, 8.07516E-07, 0.00089861894037461727, 3.1369798500237795E-07, 9.6498000000000012E-11
DataValue, 2.25, 3, 0, 8.6006999999999995E-07, -8.57236E-07, 1.1988800000000002E-10, 8.6006999999999995E-07, 0.00092739959025222771, 3.394208936659478E-07, 1.1988800000000002E-10
DataValue, 2.3000000000000003, 3, 0, 9.15617E-07, -9.10718E-07, 1.34057E-10, 9.15617E-07, 0.0009568787802015468, 3.7740823540559261E-07, 1.34057E-10
