
SetupTitle, Transfer stab
PrimitiveTest, I/V Sweep
TestParameter, Context.MainFrame, 4155C
TestParameter, Channel.UnitType, SMU, SMU, SMU
TestParameter, Channel.Unit, SMU3:MP, SMU1:MP, SMU4:MP
TestParameter, Channel.IName, ID, IS, IG
TestParameter, Channel.VName, VD, VS, VG
TestParameter, Channel.Mode, V, COMMON, V
TestParameter, Channel.Func, CONST, CONST, VAR1
TestParameter, Channel.Index, 
TestParameter, Channel.Time, 
TestParameter, Measurement.Port.Unit, SMU3:MP, SMU1:MP, SMU4:MP
TestParameter, Measurement.Port.SeriesResistor, NONE, NONE, NONE
TestParameter, Measurement.Port.Filter, ON, ON, ON
TestParameter, Measurement.Primary.Locus, Single
TestParameter, Measurement.Primary.Scale, LINEAR
TestParameter, Measurement.Primary.Start, -2
TestParameter, Measurement.Primary.Stop, 3
TestParameter, Measurement.Primary.Step, 0.05
TestParameter, Measurement.Primary.Compliance, 0.1
TestParameter, Measurement.Primary.PowerCompliance, 0
TestParameter, Measurement.Aborting.Condition, CONTINUE AT ANY
TestParameter, Measurement.PostOutput.Value, START
TestParameter, Measurement.PostOutput.Retention, OFF
TestParameter, Measurement.Bias.Source, 3, 0, -2
TestParameter, Measurement.Bias.Compliance, 0.1, 0.1, 0.1
TestParameter, Measurement.Monitor.Unit, SMU3:MP, SMU1:MP, SMU4:MP
TestParameter, Measurement.Monitor.Adc, HR ADC, HR ADC, HR ADC
TestParameter, Measurement.Monitor.RangingMode, AUTO, AUTO, AUTO
TestParameter, Measurement.Monitor.RangeBoundary, , , 
TestParameter, Measurement.Monitor.RangeRating, BY FULL RANGE, BY FULL RANGE, BY FULL RANGE
TestParameter, Measurement.Monitor.RangeRatingCoeff, 50, 50, 50
TestParameter, Measurement.Timing.Hold, 0.5
TestParameter, Measurement.Timing.Delay, 0.05
TestParameter, Measurement.Adc.HighResolution.AutoZero, OFF
TestParameter, Measurement.Adc.HighResolution.Mode, AUTO
TestParameter, Measurement.Adc.HighResolution.Coeff, 1
TestParameter, Measurement.Ag16440ASelector.SemiconductorRelay.Channel1, DEFAULT
TestParameter, Measurement.Ag16440ASelector.SemiconductorRelay.Channel3, DEFAULT
TestParameter, Function.User.Name, absID, sqrtID, gm2, absIG
TestParameter, Function.User.Unit, A, A, A/V, A
TestParameter, Function.User.Definition, abs(ID), sqrt(abs(ID)), (delta(sqrtID)/delta(VG))^2, abs(IG)
TestParameter, Output.Graph.Enabled, true
TestParameter, Output.Graph.XAxis.Data, VG
TestParameter, Output.Graph.XAxis.Scale, Linear
TestParameter, Output.Graph.XAxis.Left, -5
TestParameter, Output.Graph.XAxis.Right, 7
TestParameter, Output.Graph.YAxis.Data, ID, absIG, gm2
TestParameter, Output.Graph.YAxis.Scale, Log, Log, Linear
TestParameter, Output.Graph.YAxis.Bottom, 1E-14, 1E-14, 0
TestParameter, Output.Graph.YAxis.Top, 0.01, 0.01, 1E-05
TestParameter, Output.Graph.YAxis.Group, , , 
TestParameter, Output.List.Data, VG, IG, VD, ID, VS, IS, sqrtID, gm2, absIG
TestParameter, AutoAnalysis.Interpolation, false
TestParameter, AutoAnalysis.Line1.Enabled, false
TestParameter, AutoAnalysis.Line1.Type, 1
TestParameter, AutoAnalysis.Line1.Fix, True
TestParameter, AutoAnalysis.Line1.YAxis, 0
TestParameter, AutoAnalysis.Line1.Point1.Type, 0
TestParameter, AutoAnalysis.Line1.Point1.XY.X, 
TestParameter, AutoAnalysis.Line1.Point1.XY.Y, 
TestParameter, AutoAnalysis.Line1.Point1.Data.Var, 
TestParameter, AutoAnalysis.Line1.Point1.Data.Condition, 
TestParameter, AutoAnalysis.Line1.Point1.Data.Start, false
TestParameter, AutoAnalysis.Line1.Point1.Data.StartVar, 
TestParameter, AutoAnalysis.Line1.Point1.Data.StartCondition, 
TestParameter, AutoAnalysis.Line1.Point2.Type, 0
TestParameter, AutoAnalysis.Line1.Point2.XY.X, 
TestParameter, AutoAnalysis.Line1.Point2.XY.Y, 
TestParameter, AutoAnalysis.Line1.Point2.Data.Var, 
TestParameter, AutoAnalysis.Line1.Point2.Data.Condition, 
TestParameter, AutoAnalysis.Line1.Point2.Data.Start, false
TestParameter, AutoAnalysis.Line1.Point2.Data.StartVar, 
TestParameter, AutoAnalysis.Line1.Point2.Data.StartCondition, 
TestParameter, AutoAnalysis.Line1.GradientExpr, 0
TestParameter, AutoAnalysis.Line2.Enabled, false
TestParameter, AutoAnalysis.Line2.Type, 1
TestParameter, AutoAnalysis.Line2.Fix, True
TestParameter, AutoAnalysis.Line2.YAxis, 0
TestParameter, AutoAnalysis.Line2.Point1.Type, 0
TestParameter, AutoAnalysis.Line2.Point1.XY.X, 
TestParameter, AutoAnalysis.Line2.Point1.XY.Y, 
TestParameter, AutoAnalysis.Line2.Point1.Data.Var, 
TestParameter, AutoAnalysis.Line2.Point1.Data.Condition, 
TestParameter, AutoAnalysis.Line2.Point1.Data.Start, false
TestParameter, AutoAnalysis.Line2.Point1.Data.StartVar, 
TestParameter, AutoAnalysis.Line2.Point1.Data.StartCondition, 
TestParameter, AutoAnalysis.Line2.Point2.Type, 0
TestParameter, AutoAnalysis.Line2.Point2.XY.X, 
TestParameter, AutoAnalysis.Line2.Point2.XY.Y, 
TestParameter, AutoAnalysis.Line2.Point2.Data.Var, 
TestParameter, AutoAnalysis.Line2.Point2.Data.Condition, 
TestParameter, AutoAnalysis.Line2.Point2.Data.Start, false
TestParameter, AutoAnalysis.Line2.Point2.Data.StartVar, 
TestParameter, AutoAnalysis.Line2.Point2.Data.StartCondition, 
TestParameter, AutoAnalysis.Line2.GradientExpr, 0
TestParameter, AutoAnalysis.Marker.Enabled, false
TestParameter, AutoAnalysis.Marker.Data.Var, 
TestParameter, AutoAnalysis.Marker.Data.Condition, 
TestParameter, AutoAnalysis.Marker.Data.Start, false
TestParameter, AutoAnalysis.Marker.Data.StartVar, 
TestParameter, AutoAnalysis.Marker.Data.StartCondition, 
MetaData, TestRecord.EntryPoint, true
MetaData, TestRecord.RecordTime, 05/02/2019 15:13:57
MetaData, TestRecord.TestTarget, 350-300-10-5
MetaData, TestRecord.IterationIndex, 3
MetaData, TestRecord.Preservation, true
MetaData, TestRecord.Flag, 
MetaData, TestRecord.Remarks, good
MetaData, TestRecord.LinkKey, 9d89df17-cffc-4f2f-89bb-c391c74ba753
Dimension1, 101, 101, 101, 101, 101, 101, 101, 101, 101, 101
Dimension2, 1, 1, 1, 1, 1, 1, 1, 1, 1, 1
DataName, VG, VD, VS, ID, IS, IG, absID, sqrtID, gm2, absIG
DataValue, -2, 3, 0, 5.153E-12, -3.0780000000000004E-12, -7.953E-12, 5.153E-12, 2.2700220263248549E-06, 7.8011128271854875E-11, 7.953E-12
DataValue, -1.9500000000000002, 3, 0, 7.353E-12, -8.846E-12, -2.5430000000000004E-12, 7.353E-12, 2.7116415692344E-06, 7.37130554240377E-14, 2.5430000000000004E-12
DataValue, -1.9000000000000001, 3, 0, 5.277E-12, 1.0700000000000001E-13, 9.588E-12, 5.277E-12, 2.2971721746530017E-06, 5.4961820990938948E-11, 9.588E-12
DataValue, -1.85, 3, 0, 3.8820000000000006E-12, -3.48E-12, -5.046E-12, 3.8820000000000006E-12, 1.9702791680368547E-06, 5.2291162440937716E-13, 5.046E-12
DataValue, -1.8, 3, 0, 4.9500000000000005E-12, -1.3280000000000002E-12, 3.6800000000000005E-13, 4.9500000000000005E-12, 2.2248595461286991E-06, 1.6728626716877598E-11, 3.6800000000000005E-13
DataValue, -1.75, 3, 0, 5.661E-12, -4.4050000000000007E-12, -5.6230000000000006E-12, 5.661E-12, 2.3792856070678023E-06, 4.9001148369376232E-12, 5.6230000000000006E-12
DataValue, -1.7000000000000002, 3, 0, 5.984E-12, -3.1020000000000003E-12, 2.2200000000000001E-13, 5.984E-12, 2.446221576227305E-06, 4.9547193069236709E-13, 2.2200000000000001E-13
DataValue, -1.6500000000000001, 3, 0, 5.3310000000000006E-12, -2.14E-12, -5.85E-13, 5.3310000000000006E-12, 2.3088958400066473E-06, 4.5014821601998179E-12, 5.85E-13
DataValue, -1.6, 3, 0, 4.991E-12, -3.0090000000000002E-12, -8.300000000000001E-13, 4.991E-12, 2.234054609896544E-06, 2.3391663489708E-13, 8.300000000000001E-13
DataValue, -1.55, 3, 0, 5.1100000000000006E-12, -3.58E-12, -4.0060000000000005E-12, 5.1100000000000006E-12, 2.2605309110914633E-06, 2.7965984934033053E-14, 4.0060000000000005E-12
DataValue, -1.5, 3, 0, 5.0660000000000004E-12, -3.949E-12, -1.4470000000000002E-12, 5.0660000000000004E-12, 2.2507776433935006E-06, 9.6509089109104379E-12, 1.4470000000000002E-12
DataValue, -1.4500000000000002, 3, 0, 3.802E-12, -6.1430000000000008E-12, -7.72E-13, 3.802E-12, 1.9498717906570165E-06, 2.2655812932760209E-13, 7.72E-13
DataValue, -1.4000000000000001, 3, 0, 4.854E-12, -1.9190000000000002E-12, 1.78E-12, 4.854E-12, 2.2031795206019869E-06, 4.9190223249576324E-14, 1.78E-12
DataValue, -1.35, 3, 0, 3.716E-12, -6.1E-13, 2.3460000000000003E-12, 3.716E-12, 1.9276929216034384E-06, 1.39303874093621E-12, 2.3460000000000003E-12
DataValue, -1.3, 3, 0, 5.388E-12, -1.117E-12, -4.084E-12, 5.388E-12, 2.3212065827926647E-06, 2.1081504206745434E-11, 4.084E-12
DataValue, -1.25, 3, 0, 5.6970000000000005E-12, -3.41E-13, -5.9020000000000005E-12, 5.6970000000000005E-12, 2.3868389137099303E-06, 6.0751009311927983E-12, 5.9020000000000005E-12
DataValue, -1.2, 3, 0, 6.5930000000000007E-12, -3.0260000000000002E-12, -4.4320000000000005E-12, 6.5930000000000007E-12, 2.5676837811537466E-06, 0, 4.4320000000000005E-12
DataValue, -1.1500000000000001, 3, 0, 5.6970000000000005E-12, -2.9900000000000004E-12, -1.6800000000000001E-12, 5.6970000000000005E-12, 2.3868389137099303E-06, 1.1386383561253586E-11, 1.6800000000000001E-12
DataValue, -1.1, 3, 0, 4.9740000000000004E-12, -3.723E-12, -2.737E-12, 4.9740000000000004E-12, 2.2302466231338635E-06, 2.4217164341964924E-11, 2.737E-12
DataValue, -1.05, 3, 0, 3.5900000000000003E-12, -4.2320000000000005E-12, 1.4300000000000002E-13, 3.5900000000000003E-12, 1.8947295321496417E-06, 3.6581158865509158E-11, 1.4300000000000002E-13
DataValue, -1, 3, 0, 2.6420000000000003E-12, -2.587E-12, -5.19E-13, 2.6420000000000003E-12, 1.6254230218623091E-06, 4.7562590015456779E-12, 5.19E-13
DataValue, -0.95000000000000007, 3, 0, 4.464E-12, -1.5970000000000002E-12, -1.6450000000000002E-12, 4.464E-12, 2.112818023399081E-06, 3.4201691296111388E-12, 1.6450000000000002E-12
DataValue, -0.9, 3, 0, 2.0750000000000003E-12, -3.347E-12, -5.062E-12, 2.0750000000000003E-12, 1.4404860290887935E-06, 6.7024146905960766E-12, 5.062E-12
DataValue, -0.85000000000000009, 3, 0, 5.6250000000000008E-12, -3.4100000000000002E-12, -3.6040000000000004E-12, 5.6250000000000008E-12, 2.3717082451262848E-06, 7.9509383902409346E-11, 3.6040000000000004E-12
DataValue, -0.8, 3, 0, 5.4390000000000006E-12, -4.3190000000000005E-12, -1.3980000000000001E-12, 5.4390000000000006E-12, 2.3321663748540757E-06, 5.9024559954766807E-11, 1.3980000000000001E-12
DataValue, -0.75, 3, 0, 2.5710000000000003E-12, -2.9510000000000002E-12, 3.76E-13, 2.5710000000000003E-12, 1.6034338152851836E-06, 5.5673153121837279E-16, 3.76E-13
DataValue, -0.70000000000000007, 3, 0, 5.4280000000000007E-12, -3.8300000000000004E-12, 1.25E-13, 5.4280000000000007E-12, 2.3298068589477543E-06, 1.1472026956444875E-10, 1.25E-13
DataValue, -0.65, 3, 0, 7.1530000000000007E-12, -4.7450000000000005E-12, -3.242E-12, 7.1530000000000007E-12, 2.6745093007877168E-06, 7.95653081546508E-11, 3.242E-12
DataValue, -0.6, 3, 0, 1.038E-11, -6.4610000000000008E-12, -6.82E-13, 1.038E-11, 3.2218007387174023E-06, 1.4723898916193565E-10, 6.82E-13
DataValue, -0.55, 3, 0, 1.5116E-11, -1.2502000000000002E-11, -3.091E-12, 1.5116E-11, 3.8879300405228491E-06, 2.7501684797491832E-10, 3.091E-12
DataValue, -0.5, 3, 0, 2.3816000000000003E-11, -2.1076E-11, -1.162E-12, 2.3816000000000003E-11, 4.8801639316727881E-06, 5.5127939433939565E-10, 1.162E-12
DataValue, -0.45, 3, 0, 3.8886000000000005E-11, -3.8031000000000005E-11, -2.1070000000000002E-12, 3.8886000000000005E-11, 6.2358640139117857E-06, 1.3915965945605538E-09, 2.1070000000000002E-12
DataValue, -0.4, 3, 0, 7.4142E-11, -6.9253E-11, -2.1670000000000004E-12, 7.4142E-11, 8.6105748936990271E-06, 2.6673283548361276E-09, 2.1670000000000004E-12
DataValue, -0.35000000000000003, 3, 0, 1.29971E-10, -1.2100900000000002E-10, -3.3940000000000003E-12, 1.29971E-10, 1.1400482445931838E-05, 4.1433039662880147E-09, 3.3940000000000003E-12
DataValue, -0.3, 3, 0, 2.2642500000000002E-10, -2.12406E-10, -1.3760000000000002E-12, 2.2642500000000002E-10, 1.5047425028887834E-05, 6.4108593775609914E-09, 1.3760000000000002E-12
DataValue, -0.25, 3, 0, 3.76642E-10, -3.5629100000000003E-10, -5.9700000000000008E-13, 3.76642E-10, 1.9407266680292719E-05, 1.0119326603157985E-08, 5.9700000000000008E-13
DataValue, -0.2, 3, 0, 6.3035700000000006E-10, -5.9352600000000009E-10, -7.96E-13, 6.3035700000000006E-10, 2.5106911399055042E-05, 1.1956660383743874E-08, 7.96E-13
DataValue, -0.15, 3, 0, 9.2063200000000007E-10, -8.42971E-10, -1.4900000000000001E-12, 9.2063200000000007E-10, 3.0341918199085568E-05, 1.3788021333655585E-08, 1.4900000000000001E-12
DataValue, -0.1, 3, 0, 1.35786E-09, -1.26537E-09, -2.4510000000000004E-12, 1.35786E-09, 3.68491519576774E-05, 2.7402886437777518E-08, 2.4510000000000004E-12
DataValue, -0.05, 3, 0, 2.19921E-09, -2.13578E-09, -1.0410000000000001E-12, 2.19921E-09, 4.6895735413787895E-05, 4.4324000732311454E-08, 1.0410000000000001E-12
DataValue, 0, 3, 0, 3.35269E-09, -3.26158E-09, -9.84E-13, 3.35269E-09, 5.7902417911517304E-05, 5.3400178991160274E-08, 9.84E-13
DataValue, 0.05, 3, 0, 4.90059E-09, -4.76836E-09, -1.694E-12, 4.90059E-09, 7.0004214158863321E-05, 5.9473219988314429E-08, 1.694E-12
DataValue, 0.1, 3, 0, 6.77157E-09, -6.668E-09, -1.6390000000000002E-12, 6.77157E-09, 8.2289549761801469E-05, 6.286430262977479E-08, 1.6390000000000002E-12
DataValue, 0.15, 3, 0, 9.03963E-09, -8.98305E-09, -1.993E-12, 9.03963E-09, 9.5076968820003926E-05, 3.9105598838520521E-08, 1.993E-12
DataValue, 0.2, 3, 0, 1.0417199999999999E-08, -1.0280799999999999E-08, -2.365E-12, 1.0417199999999999E-08, 0.00010206468537158188, 5.8858579314650736E-08, 2.365E-12
DataValue, 0.25, 3, 0, 1.4241499999999999E-08, -1.4002599999999998E-08, 3.4E-13, 1.4241499999999999E-08, 0.0001193377559701874, 1.0797867303178778E-07, 3.4E-13
DataValue, 0.3, 3, 0, 1.8204699999999997E-08, -1.77135E-08, -1.5150000000000001E-12, 1.8204699999999997E-08, 0.00013492479386680565, 9.4172727314387284E-08, 1.5150000000000001E-12
DataValue, 0.35000000000000003, 3, 0, 2.2507599999999997E-08, -2.23374E-08, -5.0800000000000006E-13, 2.2507599999999997E-08, 0.0001500253311944353, 9.9907108601960935E-08, 5.0800000000000006E-13
DataValue, 0.4, 3, 0, 2.77332E-08, -2.6630099999999996E-08, -8.8000000000000009E-13, 2.77332E-08, 0.00016653287963642495, 1.0271626780232761E-07, 8.8000000000000009E-13
DataValue, 0.45, 3, 0, 3.3151199999999994E-08, -3.2574199999999995E-08, -1.043E-12, 3.3151199999999994E-08, 0.00018207470994072733, 1.0072619525527173E-07, 1.043E-12
DataValue, 0.5, 3, 0, 3.93111E-08, -3.8816099999999994E-08, -4.4900000000000006E-13, 3.93111E-08, 0.00019827027008606206, 9.0325855999951644E-08, 4.4900000000000006E-13
DataValue, 0.55, 3, 0, 4.4998699999999995E-08, -4.37681E-08, -3.3500000000000004E-13, 4.4998699999999995E-08, 0.00021212897020444897, 1.1543349333742721E-07, 3.3500000000000004E-13
DataValue, 0.6, 3, 0, 5.3938099999999995E-08, -5.29301E-08, -1.5070000000000001E-12, 5.3938099999999995E-08, 0.00023224577498848068, 1.4903115649069009E-07, 1.5070000000000001E-12
DataValue, 0.65, 3, 0, 6.2867299999999993E-08, -6.1895299999999989E-08, -2.8700000000000004E-13, 6.2867299999999993E-08, 0.00025073352388541904, 1.3634547871150091E-07, 2.8700000000000004E-13
DataValue, 0.70000000000000007, 3, 0, 7.2452899999999988E-08, -7.0816299999999993E-08, 9.15E-13, 7.2452899999999988E-08, 0.00026917076364271064, 1.2474013354530745E-07, 9.15E-13
DataValue, 0.75, 3, 0, 8.18258E-08, -8.0204E-08, -9.99E-13, 8.18258E-08, 0.00028605209315787222, 1.2766005956177792E-07, 9.99E-13
DataValue, 0.8, 3, 0, 9.29642E-08, -8.9741799999999986E-08, -1.2730000000000001E-12, 9.29642E-08, 0.0003049003115774072, 5.301618355878946E-08, 1.2730000000000001E-12
DataValue, 0.85000000000000009, 3, 0, 9.55288E-08, -9.2356899999999992E-08, -1.625E-12, 9.55288E-08, 0.00030907733660040493, 2.128653969253412E-08, 1.625E-12
DataValue, 0.9, 3, 0, 1.0207399999999999E-07, -9.7773E-08, -1.2150000000000002E-12, 1.0207399999999999E-07, 0.00031949021894261487, 1.140974777601343E-07, 1.2150000000000002E-12
DataValue, 0.95000000000000007, 3, 0, 1.1755E-07, -1.13985E-07, -2.385E-12, 1.1755E-07, 0.00034285565475867537, 2.4502792883093452E-07, 2.385E-12
DataValue, 1, 3, 0, 1.36154E-07, -1.33269E-07, -2.5890000000000004E-12, 1.36154E-07, 0.00036899051478323934, 2.6193797722834044E-07, 2.5890000000000004E-12
DataValue, 1.05, 3, 0, 1.55264E-07, -1.50994E-07, 1.377E-12, 1.55264E-07, 0.00039403553139279206, 2.60658452372312E-07, 1.377E-12
DataValue, 1.1, 3, 0, 1.76438E-07, -1.68716E-07, 4.696E-12, 1.76438E-07, 0.00042004523565920853, 2.7300887803811081E-07, 4.696E-12
DataValue, 1.1500000000000001, 3, 0, 1.99171E-07, -1.93679E-07, -1.2000000000000002E-13, 1.99171E-07, 0.00044628578287908744, 2.4918659007552775E-07, 1.2000000000000002E-13
DataValue, 1.2, 3, 0, 2.20866E-07, -2.18957E-07, -2.4930000000000004E-12, 2.20866E-07, 0.00046996382839533513, 2.2381597218886476E-07, 2.4930000000000004E-12
DataValue, 1.25, 3, 0, 2.4363599999999997E-07, -2.38731E-07, 2.519E-12, 2.4363599999999997E-07, 0.00049359497566324559, 2.6210729780212786E-07, 2.519E-12
DataValue, 1.3, 3, 0, 2.71608E-07, -2.66751E-07, -8.060000000000001E-13, 2.71608E-07, 0.00052116024407086151, 2.7294176038600751E-07, 8.060000000000001E-13
DataValue, 1.35, 3, 0, 2.9794E-07, -2.90656E-07, -9.509E-12, 2.9794E-07, 0.00054583880404383118, 2.6582105214155809E-07, 9.509E-12
DataValue, 1.4000000000000001, 3, 0, 3.28006E-07, -3.25158E-07, -3.53E-13, 3.28006E-07, 0.00057271808073431729, 3.5069930971994017E-07, 3.53E-13
DataValue, 1.4500000000000002, 3, 0, 3.6609599999999997E-07, -3.6168299999999997E-07, 5.598E-12, 3.6609599999999997E-07, 0.00060505867484071326, 4.3430109118549434E-07, 5.598E-12
DataValue, 1.5, 3, 0, 4.07835E-07, -4.0561E-07, 6.6320000000000008E-12, 4.07835E-07, 0.00063861960508584449, 4.6394714481034629E-07, 6.6320000000000008E-12
DataValue, 1.55, 3, 0, 4.53161E-07, -4.4474099999999997E-07, 3.65E-12, 4.53161E-07, 0.00067317234048941735, 5.5259769804179263E-07, 3.65E-12
DataValue, 1.6, 3, 0, 5.08307E-07, -4.99176E-07, -1.458E-12, 5.08307E-07, 0.000712956520413412, 5.4307730197692489E-07, 1.458E-12
DataValue, 1.6500000000000001, 3, 0, 5.57809E-07, -5.46968E-07, 4.7100000000000007E-12, 5.57809E-07, 0.00074686611919406282, 5.6703439165357174E-07, 4.7100000000000007E-12
DataValue, 1.7000000000000002, 3, 0, 6.21351E-07, -6.11495E-07, 2.006E-12, 6.21351E-07, 0.00078825820642731026, 5.9292446519853371E-07, 2.006E-12
DataValue, 1.75, 3, 0, 6.78758E-07, -6.74827E-07, 3.6770000000000006E-12, 6.78758E-07, 0.00082386770782693014, 6.4690589718027085E-07, 3.6770000000000006E-12
DataValue, 1.8, 3, 0, 7.5462E-07, -7.49969E-07, 3.1E-12, 7.5462E-07, 0.0008686886668997127, 7.1197150942204826E-07, 3.1E-12
DataValue, 1.85, 3, 0, 8.24911E-07, -8.14347E-07, 2.3250000000000003E-12, 8.24911E-07, 0.00090824611202030474, 6.9478683385812272E-07, 2.3250000000000003E-12
DataValue, 1.9000000000000001, 3, 0, 9.06385E-07, -8.91075E-07, 4.439E-12, 9.06385E-07, 0.00095204254106631182, 8.3631650353803489E-07, 4.439E-12
DataValue, 1.9500000000000002, 3, 0, 9.99393E-07, -9.87283E-07, 5.9990000000000006E-12, 9.99393E-07, 0.00099969645392989173, 6.4060625801149984E-07, 5.9990000000000006E-12
DataValue, 2, 3, 0, 1.0651900000000001E-06, -1.056342E-06, 9.585E-12, 1.0651900000000001E-06, 0.0010320804232229193, 6.4538653430217293E-07, 9.585E-12
DataValue, 2.05, 3, 0, 1.1664700000000002E-06, -1.14582E-06, 1.1219E-11, 1.1664700000000002E-06, 0.0010800324069212, 8.5372487199106718E-07, 1.1219E-11
DataValue, 2.1, 3, 0, 1.26445E-06, -1.2458200000000001E-06, 1.3958000000000002E-11, 1.26445E-06, 0.0011244776565143479, 9.66228425770501E-07, 1.3958000000000002E-11
DataValue, 2.15, 3, 0, 1.38846E-06, -1.3794700000000001E-06, 1.5663E-11, 1.38846E-06, 0.001178329325782907, 1.190777784475022E-06, 1.5663E-11
DataValue, 2.2, 3, 0, 1.5217700000000002E-06, -1.5061600000000003E-06, 1.9421E-11, 1.5217700000000002E-06, 0.0012336004215304079, 1.2573547769712151E-06, 1.9421E-11
DataValue, 2.25, 3, 0, 1.6652900000000001E-06, -1.6452600000000001E-06, 2.4327000000000002E-11, 1.6652900000000001E-06, 0.0012904611578811662, 1.092159811996106E-06, 2.4327000000000002E-11
DataValue, 2.3000000000000003, 3, 0, 1.7905300000000002E-06, -1.7811100000000003E-06, 2.9525E-11, 1.7905300000000002E-06, 0.0013381068716660865, 1.0762220600241093E-06, 2.9525E-11
