
SetupTitle, Transfer stab
PrimitiveTest, I/V Sweep
TestParameter, Context.MainFrame, 4155C
TestParameter, Channel.UnitType, SMU, SMU, SMU
TestParameter, Channel.Unit, SMU3:MP, SMU1:MP, SMU4:MP
TestParameter, Channel.IName, ID, IS, IG
TestParameter, Channel.VName, VD, VS, VG
TestParameter, Channel.Mode, V, COMMON, V
TestParameter, Channel.Func, CONST, CONST, VAR1
TestParameter, Channel.Index, 
TestParameter, Channel.Time, 
TestParameter, Measurement.Port.Unit, SMU3:MP, SMU1:MP, SMU4:MP
TestParameter, Measurement.Port.SeriesResistor, NONE, NONE, NONE
TestParameter, Measurement.Port.Filter, ON, ON, ON
TestParameter, Measurement.Primary.Locus, Single
TestParameter, Measurement.Primary.Scale, LINEAR
TestParameter, Measurement.Primary.Start, -2
TestParameter, Measurement.Primary.Stop, 3
TestParameter, Measurement.Primary.Step, 0.05
TestParameter, Measurement.Primary.Compliance, 0.1
TestParameter, Measurement.Primary.PowerCompliance, 0
TestParameter, Measurement.Aborting.Condition, CONTINUE AT ANY
TestParameter, Measurement.PostOutput.Value, START
TestParameter, Measurement.PostOutput.Retention, OFF
TestParameter, Measurement.Bias.Source, 3, 0, -2
TestParameter, Measurement.Bias.Compliance, 0.1, 0.1, 0.1
TestParameter, Measurement.Monitor.Unit, SMU3:MP, SMU1:MP, SMU4:MP
TestParameter, Measurement.Monitor.Adc, HR ADC, HR ADC, HR ADC
TestParameter, Measurement.Monitor.RangingMode, AUTO, AUTO, AUTO
TestParameter, Measurement.Monitor.RangeBoundary, , , 
TestParameter, Measurement.Monitor.RangeRating, BY FULL RANGE, BY FULL RANGE, BY FULL RANGE
TestParameter, Measurement.Monitor.RangeRatingCoeff, 50, 50, 50
TestParameter, Measurement.Timing.Hold, 0.5
TestParameter, Measurement.Timing.Delay, 0.05
TestParameter, Measurement.Adc.HighResolution.AutoZero, OFF
TestParameter, Measurement.Adc.HighResolution.Mode, AUTO
TestParameter, Measurement.Adc.HighResolution.Coeff, 1
TestParameter, Measurement.Ag16440ASelector.SemiconductorRelay.Channel1, DEFAULT
TestParameter, Measurement.Ag16440ASelector.SemiconductorRelay.Channel3, DEFAULT
TestParameter, Function.User.Name, absID, sqrtID, gm2, absIG
TestParameter, Function.User.Unit, A, A, A/V, A
TestParameter, Function.User.Definition, abs(ID), sqrt(abs(ID)), (delta(sqrtID)/delta(VG))^2, abs(IG)
TestParameter, Output.Graph.Enabled, true
TestParameter, Output.Graph.XAxis.Data, VG
TestParameter, Output.Graph.XAxis.Scale, Linear
TestParameter, Output.Graph.XAxis.Left, -5
TestParameter, Output.Graph.XAxis.Right, 7
TestParameter, Output.Graph.YAxis.Data, ID, absIG, gm2
TestParameter, Output.Graph.YAxis.Scale, Log, Log, Linear
TestParameter, Output.Graph.YAxis.Bottom, 1E-14, 1E-14, 0
TestParameter, Output.Graph.YAxis.Top, 0.01, 0.01, 1E-05
TestParameter, Output.Graph.YAxis.Group, , , 
TestParameter, Output.List.Data, VG, IG, VD, ID, VS, IS, sqrtID, gm2, absIG
TestParameter, AutoAnalysis.Interpolation, false
TestParameter, AutoAnalysis.Line1.Enabled, false
TestParameter, AutoAnalysis.Line1.Type, 1
TestParameter, AutoAnalysis.Line1.Fix, True
TestParameter, AutoAnalysis.Line1.YAxis, 0
TestParameter, AutoAnalysis.Line1.Point1.Type, 0
TestParameter, AutoAnalysis.Line1.Point1.XY.X, 
TestParameter, AutoAnalysis.Line1.Point1.XY.Y, 
TestParameter, AutoAnalysis.Line1.Point1.Data.Var, 
TestParameter, AutoAnalysis.Line1.Point1.Data.Condition, 
TestParameter, AutoAnalysis.Line1.Point1.Data.Start, false
TestParameter, AutoAnalysis.Line1.Point1.Data.StartVar, 
TestParameter, AutoAnalysis.Line1.Point1.Data.StartCondition, 
TestParameter, AutoAnalysis.Line1.Point2.Type, 0
TestParameter, AutoAnalysis.Line1.Point2.XY.X, 
TestParameter, AutoAnalysis.Line1.Point2.XY.Y, 
TestParameter, AutoAnalysis.Line1.Point2.Data.Var, 
TestParameter, AutoAnalysis.Line1.Point2.Data.Condition, 
TestParameter, AutoAnalysis.Line1.Point2.Data.Start, false
TestParameter, AutoAnalysis.Line1.Point2.Data.StartVar, 
TestParameter, AutoAnalysis.Line1.Point2.Data.StartCondition, 
TestParameter, AutoAnalysis.Line1.GradientExpr, 0
TestParameter, AutoAnalysis.Line2.Enabled, false
TestParameter, AutoAnalysis.Line2.Type, 1
TestParameter, AutoAnalysis.Line2.Fix, True
TestParameter, AutoAnalysis.Line2.YAxis, 0
TestParameter, AutoAnalysis.Line2.Point1.Type, 0
TestParameter, AutoAnalysis.Line2.Point1.XY.X, 
TestParameter, AutoAnalysis.Line2.Point1.XY.Y, 
TestParameter, AutoAnalysis.Line2.Point1.Data.Var, 
TestParameter, AutoAnalysis.Line2.Point1.Data.Condition, 
TestParameter, AutoAnalysis.Line2.Point1.Data.Start, false
TestParameter, AutoAnalysis.Line2.Point1.Data.StartVar, 
TestParameter, AutoAnalysis.Line2.Point1.Data.StartCondition, 
TestParameter, AutoAnalysis.Line2.Point2.Type, 0
TestParameter, AutoAnalysis.Line2.Point2.XY.X, 
TestParameter, AutoAnalysis.Line2.Point2.XY.Y, 
TestParameter, AutoAnalysis.Line2.Point2.Data.Var, 
TestParameter, AutoAnalysis.Line2.Point2.Data.Condition, 
TestParameter, AutoAnalysis.Line2.Point2.Data.Start, false
TestParameter, AutoAnalysis.Line2.Point2.Data.StartVar, 
TestParameter, AutoAnalysis.Line2.Point2.Data.StartCondition, 
TestParameter, AutoAnalysis.Line2.GradientExpr, 0
TestParameter, AutoAnalysis.Marker.Enabled, false
TestParameter, AutoAnalysis.Marker.Data.Var, 
TestParameter, AutoAnalysis.Marker.Data.Condition, 
TestParameter, AutoAnalysis.Marker.Data.Start, false
TestParameter, AutoAnalysis.Marker.Data.StartVar, 
TestParameter, AutoAnalysis.Marker.Data.StartCondition, 
MetaData, TestRecord.EntryPoint, true
MetaData, TestRecord.RecordTime, 05/02/2019 17:55:34
MetaData, TestRecord.TestTarget, 150-180-20-5
MetaData, TestRecord.IterationIndex, 3
MetaData, TestRecord.Preservation, true
MetaData, TestRecord.Flag, 
MetaData, TestRecord.Remarks, good
MetaData, TestRecord.LinkKey, f14a51ee-06e4-4439-99ed-7657eb3c450b
Dimension1, 101, 101, 101, 101, 101, 101, 101, 101, 101, 101
Dimension2, 1, 1, 1, 1, 1, 1, 1, 1, 1, 1
DataName, VG, VD, VS, ID, IS, IG, absID, sqrtID, gm2, absIG
DataValue, -2, 3, 0, 3.5020000000000002E-12, 3.64E-13, -3.7640000000000005E-12, 3.5020000000000002E-12, 1.8713631395322503E-06, 2.3958798683702054E-13, 3.7640000000000005E-12
DataValue, -1.9500000000000002, 3, 0, 3.4110000000000003E-12, 4.0800000000000003E-13, -4.007E-12, 3.4110000000000003E-12, 1.8468892765945662E-06, 3.5639400960453803E-13, 4.007E-12
DataValue, -1.9000000000000001, 3, 0, 3.729E-12, 3.52E-13, -3.687E-12, 3.729E-12, 1.9310618840420419E-06, 4.9132262326440864E-13, 3.687E-12
DataValue, -1.85, 3, 0, 3.1570000000000004E-12, -6.0000000000000005E-15, -3.7140000000000005E-12, 3.1570000000000004E-12, 1.7767948671695336E-06, 4.6972814985743877E-13, 3.7140000000000005E-12
DataValue, -1.8, 3, 0, 3.4690000000000003E-12, 1.7400000000000002E-13, -3E-12, 3.4690000000000003E-12, 1.8625251676151923E-06, 6.3704256755972E-13, 3E-12
DataValue, -1.75, 3, 0, 3.447E-12, 6.4E-14, -3.5200000000000003E-12, 3.447E-12, 1.8566098136118962E-06, 8.58451826017147E-14, 3.5200000000000003E-12
DataValue, -1.7000000000000002, 3, 0, 3.5790000000000004E-12, 2.3000000000000003E-13, -3.0800000000000002E-12, 3.5790000000000004E-12, 1.8918245161747959E-06, 1.0955543060157821E-13, 3.0800000000000002E-12
DataValue, -1.6500000000000001, 3, 0, 3.5710000000000004E-12, 1.3800000000000002E-13, -3.568E-12, 3.5710000000000004E-12, 1.8897089723023491E-06, 6.8020273907692847E-14, 3.568E-12
DataValue, -1.6, 3, 0, 3.4810000000000002E-12, 0, -3.1020000000000003E-12, 3.4810000000000002E-12, 1.8657438194993439E-06, 7.8989134747638358E-13, 3.1020000000000003E-12
DataValue, -1.55, 3, 0, 3.2430000000000002E-12, 1.3000000000000001E-14, -2.9520000000000003E-12, 3.2430000000000002E-12, 1.8008331405213534E-06, 2.2686325044413585E-13, 2.9520000000000003E-12
DataValue, -1.5, 3, 0, 3.6610000000000007E-12, -1.3100000000000002E-13, -3.0310000000000003E-12, 3.6610000000000007E-12, 1.9133739833080205E-06, 9.637098447779777E-11, 3.0310000000000003E-12
DataValue, -1.4500000000000002, 3, 0, 6.7100000000000007E-13, 2.17E-13, -2.695E-12, 6.7100000000000007E-13, 8.1914589665089576E-07, 1.9826111620018446E-12, 2.695E-12
DataValue, -1.4000000000000001, 3, 0, 3.142E-12, -2.2200000000000001E-13, -3.2410000000000004E-12, 3.142E-12, 1.7725687574816386E-06, 8.9988190848508256E-11, 3.2410000000000004E-12
DataValue, -1.35, 3, 0, 3.125E-12, 1.7E-14, -2.57E-12, 3.125E-12, 1.7677669529663689E-06, 6.07687483056888E-14, 2.57E-12
DataValue, -1.3, 3, 0, 3.23E-12, -1.87E-13, -2.9520000000000003E-12, 3.23E-12, 1.7972200755611428E-06, 3.88568970663478E-15, 2.9520000000000003E-12
DataValue, -1.25, 3, 0, 3.1030000000000004E-12, -2.12E-13, -2.6760000000000003E-12, 3.1030000000000004E-12, 1.7615334229017628E-06, 2.2162650429636594E-13, 2.6760000000000003E-12
DataValue, -1.2, 3, 0, 3.063E-12, -2.49E-13, -2.41E-12, 3.063E-12, 1.7501428513124293E-06, 2.5565500932882009E-11, 2.41E-12
DataValue, -1.1500000000000001, 3, 0, 5.14E-12, -1.5100000000000001E-13, -2.193E-12, 5.14E-12, 2.2671568097509269E-06, 3.0700036353924146E-12, 2.193E-12
DataValue, -1.1, 3, 0, 3.707E-12, -3.7900000000000005E-13, -2.7880000000000002E-12, 3.707E-12, 1.9253571097331527E-06, 2.6377367948817546E-11, 2.7880000000000002E-12
DataValue, -1.05, 3, 0, 3.075E-12, -3.7200000000000003E-13, -2.5010000000000003E-12, 3.075E-12, 1.7535677916750183E-06, 1.1185373991119897E-11, 2.5010000000000003E-12
DataValue, -1, 3, 0, 2.531E-12, -2.85E-13, -2.4010000000000004E-12, 2.531E-12, 1.590911688309568E-06, 2.2963762937038206E-11, 2.4010000000000004E-12
DataValue, -0.95000000000000007, 3, 0, 1.6240000000000002E-12, -4.1400000000000005E-13, -2.2380000000000004E-12, 1.6240000000000002E-12, 1.2743625857659193E-06, 1.2964199797822369E-11, 2.2380000000000004E-12
DataValue, -0.9, 3, 0, 1.5150000000000001E-12, -4.5500000000000008E-13, -2.0360000000000002E-12, 1.5150000000000001E-12, 1.2308533625091172E-06, 3.3869827637255871E-11, 2.0360000000000002E-12
DataValue, -0.85000000000000009, 3, 0, 3.4460000000000005E-12, -1.0310000000000002E-12, -2.565E-12, 3.4460000000000005E-12, 1.8563404860100425E-06, 8.0724075333481212E-11, 2.565E-12
DataValue, -0.8, 3, 0, 4.5340000000000007E-12, -1.7760000000000001E-12, -1.9580000000000003E-12, 4.5340000000000007E-12, 2.1293191400069648E-06, 6.1038604865891682E-11, 1.9580000000000003E-12
DataValue, -0.75, 3, 0, 6.957E-12, -4.305E-12, -2.344E-12, 6.957E-12, 2.6376125568399922E-06, 2.8542423002739173E-10, 2.344E-12
DataValue, -0.70000000000000007, 3, 0, 1.4583E-11, -1.0222E-11, -2.0110000000000002E-12, 1.4583E-11, 3.8187694353024246E-06, 6.9225214123888431E-10, 2.0110000000000002E-12
DataValue, -0.65, 3, 0, 2.7759E-11, -2.4474000000000003E-11, -2.1410000000000003E-12, 2.7759E-11, 5.2686810493708956E-06, 1.4831524959675487E-09, 2.1410000000000003E-12
DataValue, -0.6, 3, 0, 5.8828E-11, -5.3962000000000005E-11, -2.0610000000000002E-12, 5.8828E-11, 7.66994132963219E-06, 2.9077649423276465E-09, 2.0610000000000002E-12
DataValue, -0.55, 3, 0, 1.1365800000000001E-10, -1.0758400000000001E-10, -2.0660000000000003E-12, 1.1365800000000001E-10, 1.0661050604888808E-05, 3.9675001234372038E-09, 2.0660000000000003E-12
DataValue, -0.5, 3, 0, 1.9512600000000002E-10, -1.82885E-10, -1.755E-12, 1.9512600000000002E-10, 1.396875083892615E-05, 3.9431284447810939E-09, 1.755E-12
DataValue, -0.45, 3, 0, 2.8698000000000003E-10, -2.69158E-10, -1.4950000000000002E-12, 2.8698000000000003E-10, 1.6940484054477311E-05, 2.9858443764444756E-09, 1.4950000000000002E-12
DataValue, -0.4, 3, 0, 3.7764300000000003E-10, -3.53505E-10, -1.4010000000000002E-12, 3.7764300000000003E-10, 1.9433038877128816E-05, 2.1340656070916974E-09, 1.4010000000000002E-12
DataValue, -0.35000000000000003, 3, 0, 4.6483700000000005E-10, -4.39094E-10, -1.529E-12, 4.6483700000000005E-10, 2.1560078849577523E-05, 1.5444128648307718E-09, 1.529E-12
DataValue, -0.3, 3, 0, 5.45827E-10, -5.15235E-10, -1.481E-12, 5.45827E-10, 2.3362940739555883E-05, 1.6696294532478883E-09, 1.481E-12
DataValue, -0.25, 3, 0, 6.57727E-10, -6.14814E-10, -1.6320000000000001E-12, 6.57727E-10, 2.5646188800677577E-05, 1.7129854503044727E-09, 1.6320000000000001E-12
DataValue, -0.2, 3, 0, 7.5634700000000006E-10, -7.21657E-10, -1.6570000000000001E-12, 7.5634700000000006E-10, 2.7501763579814297E-05, 1.6087735882575042E-09, 1.6570000000000001E-12
DataValue, -0.15, 3, 0, 8.795460000000001E-10, -7.8199800000000007E-10, -1.212E-12, 8.795460000000001E-10, 2.9657140792733209E-05, 7.6262360725631258E-10, 1.212E-12
DataValue, -0.1, 3, 0, 9.1586900000000006E-10, -8.4661300000000006E-10, -1.594E-12, 9.1586900000000006E-10, 3.0263327642544533E-05, 7.4295770323347391E-10, 1.594E-12
DataValue, -0.05, 3, 0, 1.04865E-09, -9.9631E-10, -1.335E-12, 1.04865E-09, 3.2382865839823384E-05, 3.8667398843935253E-09, 1.335E-12
DataValue, 0, 3, 0, 1.33091E-09, -1.28425E-09, -8.43E-13, 1.33091E-09, 3.64816392175571E-05, 5.5254497353392122E-09, 8.43E-13
DataValue, 0.05, 3, 0, 1.58533E-09, -1.55658E-09, -1.4700000000000002E-12, 1.58533E-09, 3.9816202732053692E-05, 4.7750591612210636E-09, 1.4700000000000002E-12
DataValue, 0.1, 3, 0, 1.88285E-09, -1.82144E-09, -1.0350000000000001E-12, 1.88285E-09, 4.3391819505524312E-05, 4.823004260558772E-09, 1.0350000000000001E-12
DataValue, 0.15, 3, 0, 2.18659E-09, -2.11431E-09, -7.3700000000000009E-13, 2.18659E-09, 4.6760988013514E-05, 5.1314268493222563E-09, 7.3700000000000009E-13
DataValue, 0.2, 3, 0, 2.55583E-09, -2.52973E-09, -1.145E-12, 2.55583E-09, 5.0555217337085991E-05, 7.98449607807284E-09, 1.145E-12
DataValue, 0.25, 3, 0, 3.10211E-09, -3.01683E-09, -9.0200000000000009E-13, 3.10211E-09, 5.5696588764483595E-05, 8.8526556922562538E-09, 9.0200000000000009E-13
DataValue, 0.3, 3, 0, 3.59569E-09, -3.50936E-09, -3.64E-13, 3.59569E-09, 5.9964072576835537E-05, 8.06513504151392E-09, 3.64E-13
DataValue, 0.35000000000000003, 3, 0, 4.18314E-09, -4.0209E-09, -1.017E-12, 4.18314E-09, 6.4677198455096992E-05, 8.6626765927932243E-09, 1.017E-12
DataValue, 0.4, 3, 0, 4.79853E-09, -4.64999E-09, -7.98E-13, 4.79853E-09, 6.9271422679197234E-05, 1.0308766929376669E-08, 7.98E-13
DataValue, 0.45, 3, 0, 5.59959E-09, -5.40625E-09, -4.1500000000000005E-13, 5.59959E-09, 7.483040825760608E-05, 1.2957750199596208E-08, 4.1500000000000005E-13
DataValue, 0.5, 3, 0, 6.50517E-09, -6.44893E-09, -4.86E-13, 6.50517E-09, 8.0654634088811044E-05, 1.7219790687841427E-08, 4.86E-13
DataValue, 0.55, 3, 0, 7.7357E-09, -7.51526E-09, -8.5100000000000011E-13, 7.7357E-09, 8.7952828266065435E-05, 1.8037940707238057E-08, 8.5100000000000011E-13
DataValue, 0.6, 3, 0, 8.85202E-09, -8.78207E-09, -2.0800000000000002E-13, 8.85202E-09, 9.4085174177444133E-05, 1.3380755161191538E-08, 2.0800000000000002E-13
DataValue, 0.65, 3, 0, 9.9042999999999986E-09, -9.39779E-09, -6.2300000000000007E-13, 9.9042999999999986E-09, 9.952034967784226E-05, 2.3711733088709352E-08, 6.2300000000000007E-13
DataValue, 0.70000000000000007, 3, 0, 1.1986699999999999E-08, -1.1319799999999999E-08, -2.67E-13, 1.1986699999999999E-08, 0.0001094837887543174, 4.3234848422057473E-08, 2.67E-13
DataValue, 0.75, 3, 0, 1.4475299999999999E-08, -1.4235399999999998E-08, 1.25E-13, 1.4475299999999999E-08, 0.00012031334090615221, 4.5071378183623775E-08, 1.25E-13
DataValue, 0.8, 3, 0, 1.7086099999999997E-08, -1.6816999999999998E-08, -4.75E-13, 1.7086099999999997E-08, 0.00013071380952294214, 5.3929459792853593E-08, 4.75E-13
DataValue, 0.85000000000000009, 3, 0, 2.0602599999999997E-08, -1.9901499999999998E-08, -1.5100000000000001E-13, 2.0602599999999997E-08, 0.00014353605818748122, 6.9723741824649079E-08, 1.5100000000000001E-13
DataValue, 0.9, 3, 0, 2.46864E-08, -2.4165399999999997E-08, 7.2000000000000009E-14, 2.46864E-08, 0.00015711906313366306, 8.9373999366907792E-08, 7.2000000000000009E-14
DataValue, 0.95000000000000007, 3, 0, 3.00785E-08, -2.9576999999999997E-08, -3.5700000000000004E-13, 3.00785E-08, 0.00017343154269048062, 1.022305136393463E-07, 3.5700000000000004E-13
DataValue, 1, 3, 0, 3.5756E-08, -3.5766E-08, 2.34E-13, 3.5756E-08, 0.00018909256992277618, 1.0940273517815053E-07, 2.34E-13
DataValue, 1.05, 3, 0, 4.26454E-08, -4.2965399999999996E-08, -5.9E-14, 4.26454E-08, 0.00020650762697779469, 1.6058351102566854E-07, 5.9E-14
DataValue, 1.1, 3, 0, 5.2516799999999996E-08, -5.0761899999999996E-08, 2.2E-14, 5.2516799999999996E-08, 0.00022916544242097237, 2.1263939515183911E-07, 2.2E-14
DataValue, 1.1500000000000001, 3, 0, 6.38171E-08, -6.2682499999999992E-08, 4.4300000000000003E-13, 6.38171E-08, 0.000252620466312609, 2.3807751556183376E-07, 4.4300000000000003E-13
DataValue, 1.2, 3, 0, 7.7260999999999993E-08, -7.5866599999999992E-08, 5.0000000000000008E-15, 7.7260999999999993E-08, 0.0002779586300153316, 2.6721856514438785E-07, 5.0000000000000008E-15
DataValue, 1.25, 3, 0, 9.2606799999999993E-08, -9.1671999999999989E-08, 7.01E-13, 9.2606799999999993E-08, 0.00030431365398220304, 2.3882838683487786E-07, 7.01E-13
DataValue, 1.3, 3, 0, 1.06817E-07, -1.04085E-07, 7.79E-13, 1.06817E-07, 0.00032682870131002875, 3.5767375293956114E-07, 7.79E-13
DataValue, 1.35, 3, 0, 1.32583E-07, -1.3050199999999999E-07, 3.29E-13, 1.32583E-07, 0.00036411948588341162, 5.8562258170703239E-07, 3.29E-13
DataValue, 1.4000000000000001, 3, 0, 1.62695E-07, -1.6229499999999999E-07, 7.79E-13, 1.62695E-07, 0.00040335468263056023, 6.6015663391062561E-07, 7.79E-13
DataValue, 1.4500000000000002, 3, 0, 1.98354E-07, -1.9539699999999999E-07, 1.038E-12, 1.98354E-07, 0.00044536950950867753, 7.3069445971617648E-07, 1.038E-12
DataValue, 1.5, 3, 0, 2.3896E-07, -2.37722E-07, 7.5E-13, 2.3896E-07, 0.00048883535060386134, 9.0569835797277227E-07, 7.5E-13
DataValue, 1.55, 3, 0, 2.92181E-07, -2.90075E-07, 1.4970000000000002E-12, 2.92181E-07, 0.00054053769526278181, 1.1617634632840734E-06, 1.4970000000000002E-12
DataValue, 1.6, 3, 0, 3.55956E-07, -3.51828E-07, 1.588E-12, 3.55956E-07, 0.0005966204823839021, 1.320962388577504E-06, 1.588E-12
DataValue, 1.6500000000000001, 3, 0, 4.29642E-07, -4.21156E-07, 1.324E-12, 4.29642E-07, 0.000655470823149284, 1.4129806033045688E-06, 1.324E-12
DataValue, 1.7000000000000002, 3, 0, 5.11925E-07, -5.06809E-07, 2.1670000000000004E-12, 5.11925E-07, 0.000715489343037337, 1.5986663618539268E-06, 2.1670000000000004E-12
DataValue, 1.75, 3, 0, 6.11382E-07, -6.04949E-07, 1.8700000000000003E-12, 6.11382E-07, 0.00078190920188983581, 2.0085408554484036E-06, 1.8700000000000003E-12
DataValue, 1.8, 3, 0, 7.34813E-07, -7.26851E-07, 2.0410000000000003E-12, 7.34813E-07, 0.0008572123424216429, 2.243633626278323E-06, 2.0410000000000003E-12
DataValue, 1.85, 3, 0, 8.68059E-07, -8.60951E-07, 2.502E-12, 8.68059E-07, 0.00093169683910594009, 2.4323953312877332E-06, 2.502E-12
DataValue, 1.9000000000000001, 3, 0, 1.026521E-06, -1.018519E-06, 1.935E-12, 1.026521E-06, 0.0010131737264655061, 2.3940906226816715E-06, 1.935E-12
DataValue, 1.9500000000000002, 3, 0, 1.18032E-06, -1.1761800000000002E-06, 2.194E-12, 1.18032E-06, 0.001086425331074345, 2.7252549121781246E-06, 2.194E-12
DataValue, 2, 3, 0, 1.38829E-06, -1.3796E-06, 2.9260000000000003E-12, 1.38829E-06, 0.0011782571875443833, 3.704270415124902E-06, 2.9260000000000003E-12
DataValue, 2.05, 3, 0, 1.6355600000000002E-06, -1.6217900000000002E-06, 2.9060000000000003E-12, 1.6355600000000002E-06, 0.0012788901438356619, 3.9811129815366727E-06, 2.9060000000000003E-12
DataValue, 2.1, 3, 0, 1.8982900000000003E-06, -1.8821500000000003E-06, 2.846E-12, 1.8982900000000003E-06, 0.0013777844533888457, 4.1042240889481066E-06, 2.846E-12
DataValue, 2.15, 3, 0, 2.19478E-06, -2.1809E-06, 3.61E-12, 2.19478E-06, 0.001481478990738647, 4.3660599538962781E-06, 3.61E-12
DataValue, 2.2, 3, 0, 2.5177300000000005E-06, -2.5038E-06, 3.196E-12, 2.5177300000000005E-06, 0.0015867356427584276, 4.7067170091627586E-06, 3.196E-12
DataValue, 2.25, 3, 0, 2.8846600000000003E-06, -2.8587600000000002E-06, 3.771E-12, 2.8846600000000003E-06, 0.0016984286855797038, 4.946891805684516E-06, 3.771E-12
DataValue, 2.3000000000000003, 3, 0, 3.2730300000000002E-06, -3.2474300000000004E-06, 3.773E-12, 3.2730300000000002E-06, 0.0018091517349299367, 5.0097720082117929E-06, 3.773E-12
