
SetupTitle, Transfer sat
PrimitiveTest, I/V Sweep
TestParameter, Context.MainFrame, 4155C
TestParameter, Channel.UnitType, SMU, SMU, SMU
TestParameter, Channel.Unit, SMU3:MP, SMU1:MP, SMU4:MP
TestParameter, Channel.IName, ID, IS, IG
TestParameter, Channel.VName, VD, VS, VG
TestParameter, Channel.Mode, V, COMMON, V
TestParameter, Channel.Func, CONST, CONST, VAR1
TestParameter, Channel.Index, 
TestParameter, Channel.Time, 
TestParameter, Measurement.Port.Unit, SMU3:MP, SMU1:MP, SMU4:MP
TestParameter, Measurement.Port.SeriesResistor, NONE, NONE, NONE
TestParameter, Measurement.Port.Filter, ON, ON, ON
TestParameter, Measurement.Primary.Locus, Double
TestParameter, Measurement.Primary.Scale, LINEAR
TestParameter, Measurement.Primary.Start, -2
TestParameter, Measurement.Primary.Stop, 3
TestParameter, Measurement.Primary.Step, 0.05
TestParameter, Measurement.Primary.Compliance, 0.001
TestParameter, Measurement.Primary.PowerCompliance, 0
TestParameter, Measurement.Aborting.Condition, CONTINUE AT ANY
TestParameter, Measurement.PostOutput.Value, START
TestParameter, Measurement.PostOutput.Retention, OFF
TestParameter, Measurement.Bias.Source, 5, 0, -2
TestParameter, Measurement.Bias.Compliance, 0.001, 0.1, 0.001
TestParameter, Measurement.Monitor.Unit, SMU3:MP, SMU1:MP, SMU4:MP
TestParameter, Measurement.Monitor.Adc, HR ADC, HR ADC, HR ADC
TestParameter, Measurement.Monitor.RangingMode, AUTO, AUTO, AUTO
TestParameter, Measurement.Monitor.RangeBoundary, , , 
TestParameter, Measurement.Monitor.RangeRating, BY FULL RANGE, BY FULL RANGE, BY FULL RANGE
TestParameter, Measurement.Monitor.RangeRatingCoeff, 50, 50, 50
TestParameter, Measurement.Timing.Hold, 0.5
TestParameter, Measurement.Timing.Delay, 0.05
TestParameter, Measurement.Adc.HighResolution.AutoZero, OFF
TestParameter, Measurement.Adc.HighResolution.Mode, AUTO
TestParameter, Measurement.Adc.HighResolution.Coeff, 1
TestParameter, Measurement.Ag16440ASelector.SemiconductorRelay.Channel1, DEFAULT
TestParameter, Measurement.Ag16440ASelector.SemiconductorRelay.Channel3, DEFAULT
TestParameter, Function.User.Name, absID, sqrtID, gm2, absIG
TestParameter, Function.User.Unit, A, A, A/V, A
TestParameter, Function.User.Definition, abs(ID), sqrt(abs(ID)), (delta(sqrtID)/delta(VG))^2, abs(IG)
TestParameter, Output.Graph.Enabled, true
TestParameter, Output.Graph.XAxis.Data, VG
TestParameter, Output.Graph.XAxis.Scale, Linear
TestParameter, Output.Graph.XAxis.Left, -5
TestParameter, Output.Graph.XAxis.Right, 7
TestParameter, Output.Graph.YAxis.Data, ID, absIG, gm2
TestParameter, Output.Graph.YAxis.Scale, Log, Log, Linear
TestParameter, Output.Graph.YAxis.Bottom, 1E-14, 1E-14, 0
TestParameter, Output.Graph.YAxis.Top, 0.01, 0.01, 1E-05
TestParameter, Output.Graph.YAxis.Group, , , 
TestParameter, Output.List.Data, VG, IG, VD, ID, VS, IS, sqrtID, gm2, absIG
TestParameter, AutoAnalysis.Interpolation, false
TestParameter, AutoAnalysis.Line1.Enabled, false
TestParameter, AutoAnalysis.Line1.Type, 1
TestParameter, AutoAnalysis.Line1.Fix, True
TestParameter, AutoAnalysis.Line1.YAxis, 0
TestParameter, AutoAnalysis.Line1.Point1.Type, 0
TestParameter, AutoAnalysis.Line1.Point1.XY.X, 
TestParameter, AutoAnalysis.Line1.Point1.XY.Y, 
TestParameter, AutoAnalysis.Line1.Point1.Data.Var, 
TestParameter, AutoAnalysis.Line1.Point1.Data.Condition, 
TestParameter, AutoAnalysis.Line1.Point1.Data.Start, false
TestParameter, AutoAnalysis.Line1.Point1.Data.StartVar, 
TestParameter, AutoAnalysis.Line1.Point1.Data.StartCondition, 
TestParameter, AutoAnalysis.Line1.Point2.Type, 0
TestParameter, AutoAnalysis.Line1.Point2.XY.X, 
TestParameter, AutoAnalysis.Line1.Point2.XY.Y, 
TestParameter, AutoAnalysis.Line1.Point2.Data.Var, 
TestParameter, AutoAnalysis.Line1.Point2.Data.Condition, 
TestParameter, AutoAnalysis.Line1.Point2.Data.Start, false
TestParameter, AutoAnalysis.Line1.Point2.Data.StartVar, 
TestParameter, AutoAnalysis.Line1.Point2.Data.StartCondition, 
TestParameter, AutoAnalysis.Line1.GradientExpr, 0
TestParameter, AutoAnalysis.Line2.Enabled, false
TestParameter, AutoAnalysis.Line2.Type, 1
TestParameter, AutoAnalysis.Line2.Fix, True
TestParameter, AutoAnalysis.Line2.YAxis, 0
TestParameter, AutoAnalysis.Line2.Point1.Type, 0
TestParameter, AutoAnalysis.Line2.Point1.XY.X, 
TestParameter, AutoAnalysis.Line2.Point1.XY.Y, 
TestParameter, AutoAnalysis.Line2.Point1.Data.Var, 
TestParameter, AutoAnalysis.Line2.Point1.Data.Condition, 
TestParameter, AutoAnalysis.Line2.Point1.Data.Start, false
TestParameter, AutoAnalysis.Line2.Point1.Data.StartVar, 
TestParameter, AutoAnalysis.Line2.Point1.Data.StartCondition, 
TestParameter, AutoAnalysis.Line2.Point2.Type, 0
TestParameter, AutoAnalysis.Line2.Point2.XY.X, 
TestParameter, AutoAnalysis.Line2.Point2.XY.Y, 
TestParameter, AutoAnalysis.Line2.Point2.Data.Var, 
TestParameter, AutoAnalysis.Line2.Point2.Data.Condition, 
TestParameter, AutoAnalysis.Line2.Point2.Data.Start, false
TestParameter, AutoAnalysis.Line2.Point2.Data.StartVar, 
TestParameter, AutoAnalysis.Line2.Point2.Data.StartCondition, 
TestParameter, AutoAnalysis.Line2.GradientExpr, 0
TestParameter, AutoAnalysis.Marker.Enabled, false
TestParameter, AutoAnalysis.Marker.Data.Var, 
TestParameter, AutoAnalysis.Marker.Data.Condition, 
TestParameter, AutoAnalysis.Marker.Data.Start, false
TestParameter, AutoAnalysis.Marker.Data.StartVar, 
TestParameter, AutoAnalysis.Marker.Data.StartCondition, 
MetaData, TestRecord.EntryPoint, true
MetaData, TestRecord.RecordTime, 05/02/2019 11:25:04
MetaData, TestRecord.TestTarget, 250-300-1-2
MetaData, TestRecord.IterationIndex, 3
MetaData, TestRecord.Preservation, true
MetaData, TestRecord.Flag, 
MetaData, TestRecord.Remarks, good
MetaData, TestRecord.LinkKey, c1e0c048-b2ab-41e3-acff-e06266bdef67
Dimension1, 202, 202, 202, 202, 202, 202, 202, 202, 202, 202
Dimension2, 1, 1, 1, 1, 1, 1, 1, 1, 1, 1
DataName, VG, VD, VS, ID, IS, IG, absID, sqrtID, gm2, absIG
DataValue, -2, 5, 0, 5.5013000000000006E-11, -1.0001000000000002E-11, -4.1534000000000006E-11, 5.5013000000000006E-11, 7.4170748951321776E-06, 7.63984591005986E-12, 4.1534000000000006E-11
DataValue, -1.9500000000000002, 5, 0, 5.2982000000000005E-11, -8.885E-12, -4.3647000000000006E-11, 5.2982000000000005E-11, 7.2788735392229481E-06, 5.7592472817349724E-13, 4.3647000000000006E-11
DataValue, -1.9000000000000001, 5, 0, 5.3893000000000007E-11, -8.347E-12, -4.5789E-11, 5.3893000000000007E-11, 7.3411851904171442E-06, 1.8148856156550308E-15, 4.5789E-11
DataValue, -1.85, 5, 0, 5.292E-11, -8.77E-12, -4.5109000000000004E-11, 5.292E-11, 7.2746133917892845E-06, 7.02915600709092E-13, 4.5109000000000004E-11
DataValue, -1.8, 5, 0, 5.5131000000000003E-11, -9.656E-12, -4.0289E-11, 5.5131000000000003E-11, 7.4250252524823105E-06, 3.6012159188901955E-12, 4.0289E-11
DataValue, -1.75, 5, 0, 5.5717E-11, -1.1289000000000002E-11, -4.3824000000000006E-11, 5.5717E-11, 7.4643820909704246E-06, 1.01065232488355E-12, 4.3824000000000006E-11
DataValue, -1.7000000000000002, 5, 0, 5.6634000000000004E-11, -1.6377000000000003E-11, -4.2309000000000005E-11, 5.6634000000000004E-11, 7.5255564578308761E-06, 7.3533494362418113E-11, 4.2309000000000005E-11
DataValue, -1.6500000000000001, 5, 0, 6.9254E-11, -2.3362000000000002E-11, -4.2890000000000006E-11, 6.9254E-11, 8.3218988217834036E-06, 2.5179272371520907E-10, 4.2890000000000006E-11
DataValue, -1.6, 5, 0, 8.3035E-11, -4.2098000000000004E-11, -4.4093000000000006E-11, 8.3035E-11, 9.1123542512349682E-06, 3.7791968584334617E-10, 4.4093000000000006E-11
DataValue, -1.55, 5, 0, 1.05389E-10, -6.2675E-11, -4.0070000000000004E-11, 1.05389E-10, 1.0265914474609653E-05, 7.6492890982413051E-10, 4.0070000000000004E-11
DataValue, -1.5, 5, 0, 1.4108900000000002E-10, -1.0262100000000001E-10, -3.9871E-11, 1.4108900000000002E-10, 1.1878089071900413E-05, 1.4736393493271433E-09, 3.9871E-11
DataValue, -1.4500000000000002, 5, 0, 1.98943E-10, -1.4680800000000002E-10, -4.1791E-11, 1.98943E-10, 1.4104715523540346E-05, 2.5461283880214702E-09, 4.1791E-11
DataValue, -1.4000000000000001, 5, 0, 2.8642200000000005E-10, -2.3570100000000003E-10, -4.0182E-11, 2.8642200000000005E-10, 1.6924006617819552E-05, 3.73182806736407E-09, 4.0182E-11
DataValue, -1.35, 5, 0, 4.08589E-10, -3.63955E-10, -3.8953000000000005E-11, 4.08589E-10, 2.0213584541095132E-05, 5.5254746725120312E-09, 3.8953000000000005E-11
DataValue, -1.3, 5, 0, 5.9328100000000005E-10, -5.35859E-10, -3.6122000000000005E-11, 5.9328100000000005E-10, 2.4357360283905971E-05, 7.8537294470064757E-09, 3.6122000000000005E-11
DataValue, -1.25, 5, 0, 8.4539700000000007E-10, -8.0730900000000007E-10, -3.8784E-11, 8.4539700000000007E-10, 2.9075711513220102E-05, 7.7209084101941167E-09, 3.8784E-11
DataValue, -1.2, 5, 0, 1.09854E-09, -1.04122E-09, -3.6871E-11, 1.09854E-09, 3.3144230267121912E-05, 1.1656623974514677E-08, 3.6871E-11
DataValue, -1.1500000000000001, 5, 0, 1.5898E-09, -1.54723E-09, -3.7114000000000004E-11, 1.5898E-09, 3.9872296146572746E-05, 1.3287203514535438E-08, 3.7114000000000004E-11
DataValue, -1.1, 5, 0, 1.99552E-09, -1.98405E-09, -3.7029000000000005E-11, 1.99552E-09, 4.46712435466039E-05, 1.0031983591063878E-08, 3.7029000000000005E-11
DataValue, -1.05, 5, 0, 2.48884E-09, -2.5117E-09, -3.707E-11, 2.48884E-09, 4.9888275175636205E-05, 8.975363170064318E-09, 3.707E-11
DataValue, -1, 5, 0, 2.93169E-09, -2.82282E-09, -3.5966000000000004E-11, 2.93169E-09, 5.4145082879242136E-05, 3.7466760591160479E-09, 3.5966000000000004E-11
DataValue, -0.95000000000000007, 5, 0, 3.13704E-09, -3.11242E-09, -3.5086E-11, 3.13704E-09, 5.6009284944551826E-05, 3.9507994205721769E-09, 3.5086E-11
DataValue, -0.9, 5, 0, 3.65186E-09, -3.6176E-09, -3.4356E-11, 3.65186E-09, 6.0430621376914531E-05, 8.0450205775114839E-09, 3.4356E-11
DataValue, -0.85000000000000009, 5, 0, 4.22223E-09, -4.14145E-09, -3.4382E-11, 4.22223E-09, 6.4978688814102734E-05, 3.7724725220935986E-09, 3.4382E-11
DataValue, -0.8, 5, 0, 4.43192E-09, -4.22069E-09, -3.1624000000000005E-11, 4.43192E-09, 6.657266706389342E-05, 2.5043824859350104E-09, 3.1624000000000005E-11
DataValue, -0.75, 5, 0, 4.89763E-09, -4.64142E-09, -3.0834E-11, 4.89763E-09, 6.9983069381101027E-05, 2.3877023556239715E-09, 3.0834E-11
DataValue, -0.70000000000000007, 5, 0, 5.1064E-09, -4.84693E-09, -3.3275E-11, 5.1064E-09, 7.145907919921722E-05, 2.415257933015488E-09, 3.3275E-11
DataValue, -0.65, 5, 0, 5.60965E-09, -5.33788E-09, -3.213E-11, 5.60965E-09, 7.4897596757172389E-05, 4.4451939735983653E-09, 3.213E-11
DataValue, -0.6, 5, 0, 6.10372E-09, -6.00696E-09, -3.1824E-11, 6.10372E-09, 7.8126307989050649E-05, 4.1198121666509161E-09, 3.1824E-11
DataValue, -0.55, 5, 0, 6.61232E-09, -6.64999E-09, -3.0445000000000004E-11, 6.61232E-09, 8.131617305308951E-05, 9.4356299053411E-09, 3.0445000000000004E-11
DataValue, -0.5, 5, 0, 7.71587E-09, -7.3555E-09, -2.884E-11, 7.71587E-09, 8.7840025045533761E-05, 8.3233767009493474E-09, 2.884E-11
DataValue, -0.45, 5, 0, 8.17929E-09, -8.33113E-09, -3.1532000000000004E-11, 8.17929E-09, 9.04394272427684E-05, 8.89028194780012E-09, 3.1532000000000004E-11
DataValue, -0.4, 5, 0, 9.46123E-09, -9.19763E-09, -3.0202E-11, 9.46123E-09, 9.7268854213463423E-05, 8.8033453192397069E-09, 3.0202E-11
DataValue, -0.35000000000000003, 5, 0, 9.96444E-09, -9.35994E-09, -2.9465000000000005E-11, 9.96444E-09, 9.9822041654135687E-05, 2.70163524949394E-09, 2.9465000000000005E-11
DataValue, -0.3, 5, 0, 1.0499399999999999E-08, -9.708899999999999E-09, -2.5680000000000002E-11, 1.0499399999999999E-08, 0.00010246657991755165, 8.8622293216654258E-09, 2.5680000000000002E-11
DataValue, -0.25, 5, 0, 1.19325E-08, -1.13274E-08, -2.6085000000000003E-11, 1.19325E-08, 0.00010923598308249896, 2.3972284233118296E-08, 2.6085000000000003E-11
DataValue, -0.2, 5, 0, 1.3912099999999998E-08, -1.3184899999999998E-08, -2.7801000000000002E-11, 1.3912099999999998E-08, 0.000117949565493053, 1.2403692726809471E-08, 2.7801000000000002E-11
DataValue, -0.15, 5, 0, 1.4489699999999998E-08, -1.4088599999999998E-08, -2.7223E-11, 1.4489699999999998E-08, 0.00012037316976801765, 9.3141474702088046E-09, 2.7223E-11
DataValue, -0.1, 5, 0, 1.6281899999999998E-08, -1.59783E-08, -2.2901000000000002E-11, 1.6281899999999998E-08, 0.00012760054858816243, 9.5667366719722664E-09, 2.2901000000000002E-11
DataValue, -0.05, 5, 0, 1.6940099999999997E-08, -1.6883199999999997E-08, -2.3148E-11, 1.6940099999999997E-08, 0.00013015413938864947, 1.5940822907999682E-08, 2.3148E-11
DataValue, 0, 5, 0, 1.9663399999999997E-08, -1.9267499999999997E-08, -2.5106000000000002E-11, 1.9663399999999997E-08, 0.00014022624576019997, 2.126095329109254E-08, 2.5106000000000002E-11
DataValue, 0.05, 5, 0, 2.0948299999999996E-08, -2.0620999999999997E-08, -2.3694000000000003E-11, 2.0948299999999996E-08, 0.00014473527558960875, 9.8605022951165655E-09, 2.3694000000000003E-11
DataValue, 0.1, 5, 0, 2.2546899999999998E-08, -2.2111899999999998E-08, -2.4257000000000002E-11, 2.2546899999999998E-08, 0.00015015625195109259, 1.7366781158090126E-08, 2.4257000000000002E-11
DataValue, 0.15, 5, 0, 2.4936699999999997E-08, -2.49822E-08, -2.1789E-11, 2.4936699999999997E-08, 0.00015791358396287508, 3.0276025256343382E-08, 2.1789E-11
DataValue, 0.2, 5, 0, 2.8075099999999997E-08, -2.7366899999999997E-08, -2.1907000000000002E-11, 2.8075099999999997E-08, 0.000167556259208661, 2.5053123246819424E-08, 2.1907000000000002E-11
DataValue, 0.25, 5, 0, 3.0186199999999994E-08, -3.06185E-08, -2.2855E-11, 3.0186199999999994E-08, 0.00017374176239465282, 2.2441796849720488E-08, 2.2855E-11
DataValue, 0.3, 5, 0, 3.3319699999999994E-08, -3.2864599999999995E-08, -1.9582000000000003E-11, 3.3319699999999994E-08, 0.00018253684559562213, 3.2121699004123556E-08, 1.9582000000000003E-11
DataValue, 0.35000000000000003, 5, 0, 3.6735199999999995E-08, -3.66698E-08, -2.0063000000000003E-11, 3.6735199999999995E-08, 0.00019166428984033514, 3.1808041514731009E-08, 2.0063000000000003E-11
DataValue, 0.4, 5, 0, 4.0148799999999994E-08, -3.9656399999999996E-08, -1.4925000000000003E-11, 4.0148799999999994E-08, 0.00020037165468199337, 2.1947725570862461E-08, 1.4925000000000003E-11
DataValue, 0.45, 5, 0, 4.2633599999999995E-08, -4.2496299999999995E-08, -2.3807000000000003E-11, 4.2633599999999995E-08, 0.00020647905462782416, 2.098973423264273E-08, 2.3807000000000003E-11
DataValue, 0.5, 5, 0, 4.6164599999999995E-08, -4.5029299999999995E-08, -2.1628000000000003E-11, 4.6164599999999995E-08, 0.00021485948896895384, 5.5846141487175008E-08, 2.1628000000000003E-11
DataValue, 0.55, 5, 0, 5.2950999999999996E-08, -5.1343799999999996E-08, -1.4215000000000001E-11, 5.2950999999999996E-08, 0.00023011084285622004, 3.0371436177510075E-08, 1.4215000000000001E-11
DataValue, 0.6, 5, 0, 5.3957199999999996E-08, -5.2484799999999992E-08, -9.769E-12, 5.3957199999999996E-08, 0.00023228689158021811, 9.67187199197961E-09, 9.769E-12
DataValue, 0.65, 5, 0, 5.7573799999999992E-08, -5.6099999999999993E-08, -1.6174000000000003E-11, 5.7573799999999992E-08, 0.0002399454104582957, 1.9430762726410424E-08, 1.6174000000000003E-11
DataValue, 0.70000000000000007, 5, 0, 6.06274E-08, -5.9559999999999992E-08, -2.1970000000000003E-11, 6.06274E-08, 0.00024622631865826205, 3.1870049375700821E-08, 2.1970000000000003E-11
DataValue, 0.75, 5, 0, 6.6459599999999992E-08, -6.65412E-08, -1.7134000000000002E-11, 6.6459599999999992E-08, 0.00025779759502369295, 4.6538022574749273E-08, 1.7134000000000002E-11
DataValue, 0.8, 5, 0, 7.17163E-08, -7.0089499999999987E-08, -1.1256000000000001E-11, 7.17163E-08, 0.00026779899178301625, 7.844247265557187E-08, 1.1256000000000001E-11
DataValue, 0.85000000000000009, 5, 0, 8.16846E-08, -7.8414999999999991E-08, -1.3248000000000002E-11, 8.16846E-08, 0.00028580517839955243, 5.3245728333004212E-08, 1.3248000000000002E-11
DataValue, 0.9, 5, 0, 8.46077E-08, -8.1042499999999993E-08, -1.6194E-11, 8.46077E-08, 0.000290874027716467, 9.9058840742200367E-09, 1.6194E-11
DataValue, 0.95000000000000007, 5, 0, 8.74728E-08, -8.6694799999999986E-08, -1.5262000000000002E-11, 8.74728E-08, 0.0002957580091899457, 3.5462454718084611E-08, 1.5262000000000002E-11
DataValue, 1, 5, 0, 9.5917499999999985E-08, -9.6052599999999985E-08, -1.1708000000000001E-11, 9.5917499999999985E-08, 0.00030970550527880514, 2.1062720905142182E-08, 1.1708000000000001E-11
DataValue, 1.05, 5, 0, 9.6268099999999991E-08, -9.5345299999999988E-08, -1.1412E-11, 9.6268099999999991E-08, 0.00031027101056979204, 4.3535534552685652E-09, 1.1412E-11
DataValue, 1.1, 5, 0, 1.00048E-07, -9.7163099999999987E-08, -1.4712E-11, 1.00048E-07, 0.0003163036515755074, 2.5224833002787022E-08, 1.4712E-11
DataValue, 1.1500000000000001, 5, 0, 1.06376E-07, -1.10347E-07, -1.1447000000000002E-11, 1.06376E-07, 0.0003261533381708671, 7.2590454087020892E-08, 1.1447000000000002E-11
DataValue, 1.2, 5, 0, 1.17818E-07, -1.14033E-07, -1.0803E-11, 1.17818E-07, 0.00034324626727759184, 6.5380260958406673E-08, 1.0803E-11
DataValue, 1.25, 5, 0, 1.2370899999999999E-07, -1.20505E-07, -9.2450000000000011E-12, 1.2370899999999999E-07, 0.00035172290229668014, 7.7386433053119313E-08, 9.2450000000000011E-12
DataValue, 1.3, 5, 0, 1.37689E-07, -1.34925E-07, -1.0010000000000001E-11, 1.37689E-07, 0.00037106468438804574, 5.07225625996457E-08, 1.0010000000000001E-11
DataValue, 1.35, 5, 0, 1.40059E-07, -1.44138E-07, -1.0689E-11, 1.40059E-07, 0.00037424457243893331, 1.5259272024789827E-08, 1.0689E-11
DataValue, 1.4000000000000001, 5, 0, 1.47009E-07, -1.49366E-07, -6.6830000000000005E-12, 1.47009E-07, 0.00038341752698592169, 8.3760977558531647E-08, 6.6830000000000005E-12
DataValue, 1.4500000000000002, 5, 0, 1.62559E-07, -1.65286E-07, -7.07E-12, 1.62559E-07, 0.00040318606126700361, 1.2114644166763119E-07, 7.07E-12
DataValue, 1.5, 5, 0, 1.74911E-07, -1.81257E-07, -6.2120000000000006E-12, 1.74911E-07, 0.00041822362439250131, 1.1735082301771531E-07, 6.2120000000000006E-12
DataValue, 1.55, 5, 0, 1.9135599999999998E-07, -1.88937E-07, -3.8110000000000006E-12, 1.9135599999999998E-07, 0.00043744256765888704, 1.1036901142660768E-07, 3.8110000000000006E-12
DataValue, 1.6, 5, 0, 2.03803E-07, -1.99495E-07, -4.457E-12, 2.03803E-07, 0.00045144545628458815, 7.6326878620174257E-08, 4.457E-12
DataValue, 1.6500000000000001, 5, 0, 2.1628999999999999E-07, -2.11118E-07, -6.011E-12, 2.1628999999999999E-07, 0.00046506988722126486, 6.2782217962017755E-08, 6.011E-12
DataValue, 1.7000000000000002, 5, 0, 2.27054E-07, -2.26548E-07, -3.9870000000000007E-12, 2.27054E-07, 0.00047650183630286252, 8.9653736747608655E-08, 3.9870000000000007E-12
DataValue, 1.75, 5, 0, 2.45037E-07, -2.46185E-07, -2.356E-12, 2.45037E-07, 0.000495012121063717, 1.4464279459727388E-07, 2.356E-12
DataValue, 1.8, 5, 0, 2.64745E-07, -2.52707E-07, -2.452E-12, 2.64745E-07, 0.00051453376954287459, 1.0208584605314437E-07, 2.452E-12
DataValue, 1.85, 5, 0, 2.7769E-07, -2.71873E-07, -3.7530000000000007E-12, 2.7769E-07, 0.0005269629968033809, 1.1044059695725898E-07, 3.7530000000000007E-12
DataValue, 1.9000000000000001, 5, 0, 3.00048E-07, -3.0034E-07, -1.997E-12, 3.00048E-07, 0.0005477663735571945, 1.4916323472322357E-07, 1.997E-12
DataValue, 1.9500000000000002, 5, 0, 3.19886E-07, -3.24846E-07, -1.571E-12, 3.19886E-07, 0.0005655846532571406, 1.1998591821409167E-07, 1.571E-12
DataValue, 2, 5, 0, 3.39196E-07, -3.35855E-07, -3.15E-13, 3.39196E-07, 0.00058240535711821882, 1.1068986929627674E-07, 3.15E-13
DataValue, 2.05, 5, 0, 3.58627E-07, -3.60358E-07, 7.97E-13, 3.58627E-07, 0.00059885474031688181, 1.4244132517925942E-07, 7.97E-13
DataValue, 2.1, 5, 0, 3.8458199999999997E-07, -3.74162E-07, -2.82E-13, 3.8458199999999997E-07, 0.00062014675682454392, 1.8715394556866854E-07, 2.82E-13
DataValue, 2.15, 5, 0, 4.12313E-07, -4.01983E-07, 6.08E-13, 4.12313E-07, 0.00064211603312796974, 2.2239025124082645E-07, 6.08E-13
DataValue, 2.2, 5, 0, 4.45296E-07, -4.419E-07, 2.8730000000000004E-12, 4.45296E-07, 0.00066730502770472218, 1.7124964855563116E-07, 2.8730000000000004E-12
DataValue, 2.25, 5, 0, 4.6716999999999997E-07, -4.63345E-07, 4.5580000000000006E-12, 4.6716999999999997E-07, 0.00068349835405800356, 2.8843417303876419E-07, 4.5580000000000006E-12
