
SetupTitle, Transfer lin
PrimitiveTest, I/V Sweep
TestParameter, Context.MainFrame, 4155C
TestParameter, Channel.UnitType, SMU, SMU, SMU
TestParameter, Channel.Unit, SMU3:MP, SMU1:MP, SMU4:MP
TestParameter, Channel.IName, ID, IS, IG
TestParameter, Channel.VName, VD, VS, VG
TestParameter, Channel.Mode, V, COMMON, V
TestParameter, Channel.Func, CONST, CONST, VAR1
TestParameter, Channel.Index, 
TestParameter, Channel.Time, 
TestParameter, Measurement.Port.Unit, SMU3:MP, SMU1:MP, SMU4:MP
TestParameter, Measurement.Port.SeriesResistor, NONE, NONE, NONE
TestParameter, Measurement.Port.Filter, ON, ON, ON
TestParameter, Measurement.Primary.Locus, Double
TestParameter, Measurement.Primary.Scale, LINEAR
TestParameter, Measurement.Primary.Start, -2
TestParameter, Measurement.Primary.Stop, 3
TestParameter, Measurement.Primary.Step, 0.05
TestParameter, Measurement.Primary.Compliance, 0.001
TestParameter, Measurement.Primary.PowerCompliance, 0
TestParameter, Measurement.Aborting.Condition, CONTINUE AT ANY
TestParameter, Measurement.PostOutput.Value, START
TestParameter, Measurement.PostOutput.Retention, OFF
TestParameter, Measurement.Bias.Source, 0.1, 0, -2
TestParameter, Measurement.Bias.Compliance, 0.001, 0.1, 0.001
TestParameter, Measurement.Monitor.Unit, SMU3:MP, SMU1:MP, SMU4:MP
TestParameter, Measurement.Monitor.Adc, HR ADC, HR ADC, HR ADC
TestParameter, Measurement.Monitor.RangingMode, AUTO, AUTO, AUTO
TestParameter, Measurement.Monitor.RangeBoundary, , , 
TestParameter, Measurement.Monitor.RangeRating, BY FULL RANGE, BY FULL RANGE, BY FULL RANGE
TestParameter, Measurement.Monitor.RangeRatingCoeff, 50, 50, 50
TestParameter, Measurement.Timing.Hold, 0.5
TestParameter, Measurement.Timing.Delay, 0.05
TestParameter, Measurement.Adc.HighResolution.AutoZero, OFF
TestParameter, Measurement.Adc.HighResolution.Mode, AUTO
TestParameter, Measurement.Adc.HighResolution.Coeff, 1
TestParameter, Measurement.Ag16440ASelector.SemiconductorRelay.Channel1, DEFAULT
TestParameter, Measurement.Ag16440ASelector.SemiconductorRelay.Channel3, DEFAULT
TestParameter, Function.User.Name, absID, sqrtID, gm2, absIG
TestParameter, Function.User.Unit, A, A, A/V, A
TestParameter, Function.User.Definition, abs(ID), sqrt(abs(ID)), (delta(sqrtID)/delta(VG))^2, abs(IG)
TestParameter, Output.Graph.Enabled, true
TestParameter, Output.Graph.XAxis.Data, VG
TestParameter, Output.Graph.XAxis.Scale, Linear
TestParameter, Output.Graph.XAxis.Left, -5
TestParameter, Output.Graph.XAxis.Right, 7
TestParameter, Output.Graph.YAxis.Data, ID, absIG, gm2
TestParameter, Output.Graph.YAxis.Scale, Log, Log, Linear
TestParameter, Output.Graph.YAxis.Bottom, 1E-14, 1E-14, 0
TestParameter, Output.Graph.YAxis.Top, 0.01, 0.01, 1E-05
TestParameter, Output.Graph.YAxis.Group, , , 
TestParameter, Output.List.Data, VG, IG, VD, ID, VS, IS, sqrtID, gm2, absIG
TestParameter, AutoAnalysis.Interpolation, false
TestParameter, AutoAnalysis.Line1.Enabled, false
TestParameter, AutoAnalysis.Line1.Type, 1
TestParameter, AutoAnalysis.Line1.Fix, True
TestParameter, AutoAnalysis.Line1.YAxis, 0
TestParameter, AutoAnalysis.Line1.Point1.Type, 0
TestParameter, AutoAnalysis.Line1.Point1.XY.X, 
TestParameter, AutoAnalysis.Line1.Point1.XY.Y, 
TestParameter, AutoAnalysis.Line1.Point1.Data.Var, 
TestParameter, AutoAnalysis.Line1.Point1.Data.Condition, 
TestParameter, AutoAnalysis.Line1.Point1.Data.Start, false
TestParameter, AutoAnalysis.Line1.Point1.Data.StartVar, 
TestParameter, AutoAnalysis.Line1.Point1.Data.StartCondition, 
TestParameter, AutoAnalysis.Line1.Point2.Type, 0
TestParameter, AutoAnalysis.Line1.Point2.XY.X, 
TestParameter, AutoAnalysis.Line1.Point2.XY.Y, 
TestParameter, AutoAnalysis.Line1.Point2.Data.Var, 
TestParameter, AutoAnalysis.Line1.Point2.Data.Condition, 
TestParameter, AutoAnalysis.Line1.Point2.Data.Start, false
TestParameter, AutoAnalysis.Line1.Point2.Data.StartVar, 
TestParameter, AutoAnalysis.Line1.Point2.Data.StartCondition, 
TestParameter, AutoAnalysis.Line1.GradientExpr, 0
TestParameter, AutoAnalysis.Line2.Enabled, false
TestParameter, AutoAnalysis.Line2.Type, 1
TestParameter, AutoAnalysis.Line2.Fix, True
TestParameter, AutoAnalysis.Line2.YAxis, 0
TestParameter, AutoAnalysis.Line2.Point1.Type, 0
TestParameter, AutoAnalysis.Line2.Point1.XY.X, 
TestParameter, AutoAnalysis.Line2.Point1.XY.Y, 
TestParameter, AutoAnalysis.Line2.Point1.Data.Var, 
TestParameter, AutoAnalysis.Line2.Point1.Data.Condition, 
TestParameter, AutoAnalysis.Line2.Point1.Data.Start, false
TestParameter, AutoAnalysis.Line2.Point1.Data.StartVar, 
TestParameter, AutoAnalysis.Line2.Point1.Data.StartCondition, 
TestParameter, AutoAnalysis.Line2.Point2.Type, 0
TestParameter, AutoAnalysis.Line2.Point2.XY.X, 
TestParameter, AutoAnalysis.Line2.Point2.XY.Y, 
TestParameter, AutoAnalysis.Line2.Point2.Data.Var, 
TestParameter, AutoAnalysis.Line2.Point2.Data.Condition, 
TestParameter, AutoAnalysis.Line2.Point2.Data.Start, false
TestParameter, AutoAnalysis.Line2.Point2.Data.StartVar, 
TestParameter, AutoAnalysis.Line2.Point2.Data.StartCondition, 
TestParameter, AutoAnalysis.Line2.GradientExpr, 0
TestParameter, AutoAnalysis.Marker.Enabled, false
TestParameter, AutoAnalysis.Marker.Data.Var, 
TestParameter, AutoAnalysis.Marker.Data.Condition, 
TestParameter, AutoAnalysis.Marker.Data.Start, false
TestParameter, AutoAnalysis.Marker.Data.StartVar, 
TestParameter, AutoAnalysis.Marker.Data.StartCondition, 
MetaData, TestRecord.EntryPoint, true
MetaData, TestRecord.RecordTime, 05/02/2019 14:54:38
MetaData, TestRecord.TestTarget, 350-300-50-20
MetaData, TestRecord.IterationIndex, 1
MetaData, TestRecord.Preservation, true
MetaData, TestRecord.Flag, 
MetaData, TestRecord.Remarks, bad
MetaData, TestRecord.LinkKey, 25abf4ea-6384-4136-a31f-9bec185258d9
Dimension1, 202, 202, 202, 202, 202, 202, 202, 202, 202, 202
Dimension2, 1, 1, 1, 1, 1, 1, 1, 1, 1, 1
DataName, VG, VD, VS, ID, IS, IG, absID, sqrtID, gm2, absIG
DataValue, -2, 0.1, 0, 1.7680000000000001E-12, -1.48E-13, -3.439E-12, 1.7680000000000001E-12, 1.329661611087573E-06, 2.5662661529539705E-13, 3.439E-12
DataValue, -1.9500000000000002, 0.1, 0, 1.8360000000000003E-12, -4.46E-13, -2.7020000000000004E-12, 1.8360000000000003E-12, 1.3549907748763459E-06, 5.7145501883653231E-14, 2.7020000000000004E-12
DataValue, -1.9000000000000001, 0.1, 0, 1.7050000000000001E-12, 4.2800000000000004E-13, -2.5580000000000002E-12, 1.7050000000000001E-12, 1.3057564857200596E-06, 9.5163430628982813E-11, 2.5580000000000002E-12
DataValue, -1.85, 0.1, 0, 1.4400000000000002E-13, 6.35E-13, -1.556E-12, 1.4400000000000002E-13, 3.7947331922020556E-07, 3.8869605699943575E-12, 1.556E-12
DataValue, -1.8, 0.1, 0, 1.2290000000000001E-12, -6.0000000000000005E-15, -2.4170000000000003E-12, 1.2290000000000001E-12, 1.1086027241532469E-06, 8.618888030897357E-12, 2.4170000000000003E-12
DataValue, -1.75, 0.1, 0, 4.5300000000000004E-13, -5.2600000000000008E-13, -2.206E-12, 4.5300000000000004E-13, 6.7305274681855365E-07, 5.6407565512503876E-12, 2.206E-12
DataValue, -1.7000000000000002, 0.1, 0, 1.8120000000000002E-12, -3.0900000000000005E-13, -4.6530000000000005E-12, 1.8120000000000002E-12, 1.3461054936371073E-06, 3.6914385751014684E-11, 4.6530000000000005E-12
DataValue, -1.6500000000000001, 0.1, 0, 1.64E-12, 2.85E-13, -1.7960000000000002E-12, 1.64E-12, 1.2806248474865697E-06, 1.2901825373225394E-11, 1.7960000000000002E-12
DataValue, -1.6, 0.1, 0, 9.74E-13, 1.297E-12, -1.368E-12, 9.74E-13, 9.8691438331802636E-07, 1.8994704480362515E-12, 1.368E-12
DataValue, -1.55, 0.1, 0, 1.306E-12, -2.0900000000000002E-13, -1.207E-12, 1.306E-12, 1.1428035701729323E-06, 7.2506503335812135E-12, 1.207E-12
DataValue, -1.5, 0.1, 0, 1.5780000000000001E-12, -4.2500000000000006E-13, -2.3170000000000003E-12, 1.5780000000000001E-12, 1.2561846997953765E-06, 1.7782525198327398E-11, 2.3170000000000003E-12
DataValue, -1.4500000000000002, 0.1, 0, 5.2E-13, -1.09E-13, -1.441E-12, 5.2E-13, 7.2111025509279786E-07, 2.4535882585983777E-12, 1.441E-12
DataValue, -1.4000000000000001, 0.1, 0, 1.209E-12, 1.3800000000000002E-13, -2.051E-12, 1.209E-12, 1.0995453605922768E-06, 1.1754244112129289E-11, 2.051E-12
DataValue, -1.35, 0.1, 0, 1.132E-12, 6.6800000000000008E-13, -3.338E-12, 1.132E-12, 1.0639548862616308E-06, 2.607004481489962E-12, 3.338E-12
DataValue, -1.3, 0.1, 0, 8.8000000000000009E-13, -3.17E-13, -3.9000000000000004E-14, 8.8000000000000009E-13, 9.38083151964686E-07, 1.1424888736081472E-11, 3.9000000000000004E-14
DataValue, -1.25, 0.1, 0, -5.2700000000000008E-13, 5.21E-13, -1.3630000000000002E-12, 5.2700000000000008E-13, 7.2594765651526145E-07, 1.2436418923075871E-11, 1.3630000000000002E-12
DataValue, -1.2, 0.1, 0, -1.6660000000000002E-12, -1.36E-13, -1.8080000000000002E-12, 1.6660000000000002E-12, 1.2907362240210044E-06, 2.3313518140134945E-12, 1.8080000000000002E-12
DataValue, -1.1500000000000001, 0.1, 0, 7.72E-13, 1.6000000000000003E-13, -9.27E-13, 7.72E-13, 8.786353054595519E-07, 8.0238573032890015E-12, 9.27E-13
DataValue, -1.1, 0.1, 0, 1.015E-12, 1.24E-13, -1.6280000000000001E-12, 1.015E-12, 1.0074720839804942E-06, 3.6996811904931867E-12, 1.6280000000000001E-12
DataValue, -1.05, 0.1, 0, 1.147E-12, -3.31E-13, -1.5630000000000001E-12, 1.147E-12, 1.0709808588392231E-06, 8.8804386670957084E-13, 1.5630000000000001E-12
DataValue, -1, 0.1, 0, 8.3400000000000008E-13, 4.3800000000000005E-13, -1.0140000000000001E-12, 8.3400000000000008E-13, 9.1323600454646992E-07, 8.005805787047286E-12, 1.0140000000000001E-12
DataValue, -0.95000000000000007, 0.1, 0, 6.2100000000000008E-13, -3.52E-13, -3.7000000000000004E-13, 6.2100000000000008E-13, 7.8803553219382184E-07, 3.5377146702903623E-14, 3.7000000000000004E-13
DataValue, -0.9, 0.1, 0, 8E-13, -1.145E-12, -1.5470000000000002E-12, 8E-13, 8.9442719099991585E-07, 3.9520175564382916E-11, 1.5470000000000002E-12
DataValue, -0.85000000000000009, 0.1, 0, -2.0070000000000002E-12, 1.9200000000000002E-13, -1.122E-12, 2.0070000000000002E-12, 1.4166862743741115E-06, 7.1572338489905064E-12, 1.122E-12
DataValue, -0.8, 0.1, 0, 3.9300000000000004E-13, -8.18E-13, -9.1000000000000016E-13, 3.9300000000000004E-13, 6.2689712074629925E-07, 1.2323044261652972E-10, 9.1000000000000016E-13
DataValue, -0.75, 0.1, 0, -9.4E-14, 1.312E-12, -4.65E-13, 9.4E-14, 3.0659419433511785E-07, 2.258325137547025E-12, 4.65E-13
DataValue, -0.70000000000000007, 0.1, 0, 6.0400000000000005E-13, -6.14E-13, -1.7470000000000001E-12, 6.0400000000000005E-13, 7.7717436910901794E-07, 4.2381008183041854E-11, 1.7470000000000001E-12
DataValue, -0.65, 0.1, 0, 9.17E-13, 6.15E-13, 2.8E-13, 9.17E-13, 9.57601169589929E-07, 1.5000330033901978E-11, 2.8E-13
DataValue, -0.6, 0.1, 0, -1.52E-13, 5.700000000000001E-14, -1.2860000000000002E-12, 1.52E-13, 3.8987177379235857E-07, 1.1606691184863459E-10, 1.2860000000000002E-12
DataValue, -0.55, 0.1, 0, 4.141E-12, -8.67E-13, -8.3200000000000009E-13, 4.141E-12, 2.0349447166937977E-06, 5.6559503105842345E-12, 8.3200000000000009E-13
DataValue, -0.5, 0.1, 0, 3.9400000000000004E-13, -6.5E-14, -3.6800000000000005E-13, 3.9400000000000004E-13, 6.276941930590087E-07, 3.1409275047967971E-10, 3.6800000000000005E-13
DataValue, -0.45, 0.1, 0, -6.9000000000000009E-14, 6.640000000000001E-13, -1.759E-12, 6.9000000000000009E-14, 2.6267851073127395E-07, 1.0783556707700043E-10, 1.759E-12
DataValue, -0.4, 0.1, 0, 2.7760000000000003E-12, -9.000000000000001E-13, -2.494E-12, 2.7760000000000003E-12, 1.6661332479726825E-06, 2.0508511601693677E-11, 2.494E-12
DataValue, -0.35000000000000003, 0.1, 0, 5.12E-13, 7E-14, 3.65E-13, 5.12E-13, 7.1554175279993274E-07, 1.4563321718935876E-10, 3.65E-13
DataValue, -0.3, 0.1, 0, 2.11E-13, 8.9000000000000012E-14, -1.1600000000000001E-12, 2.11E-13, 4.5934736311423405E-07, 3.107258300203047E-11, 1.1600000000000001E-12
DataValue, -0.25, 0.1, 0, -2.5E-14, 2.7400000000000004E-13, -3.15E-13, 2.5E-14, 1.5811388300841896E-07, 1.0821686262248768E-11, 3.15E-13
DataValue, -0.2, 0.1, 0, 1.7E-14, -4.23E-13, -3.7E-14, 1.7E-14, 1.3038404810405297E-07, 1.2859865361631807E-11, 3.7E-14
DataValue, -0.15, 0.1, 0, -2.67E-13, -2.24E-13, -2.72E-13, 2.67E-13, 5.167204273105525E-07, 2.0184445097847051E-11, 2.72E-13
DataValue, -0.1, 0.1, 0, 3.3600000000000003E-13, -4.47E-13, -4.67E-13, 3.3600000000000003E-13, 5.7965506984757759E-07, 8.5108348947439123E-14, 4.67E-13
DataValue, -0.05, 0.1, 0, -2.9800000000000004E-13, -9.0000000000000011E-15, 1.88E-13, 2.9800000000000004E-13, 5.458937625582473E-07, 7.62004750600525E-11, 1.88E-13
DataValue, 0, 0.1, 0, 2.11E-12, -2.36E-13, -3.98E-13, 2.11E-12, 1.4525839046333951E-06, 2.358170663697659E-11, 3.98E-13
DataValue, 0.05, 0.1, 0, -1.0640000000000001E-12, -3.31E-13, 4.47E-13, 1.0640000000000001E-12, 1.03150375665821E-06, 1.8434462138646155E-11, 4.47E-13
DataValue, 0.1, 0.1, 0, 1.047E-12, -1.3550000000000002E-12, -5.83E-13, 1.047E-12, 1.0232301793829187E-06, 7.7355000031706208E-11, 5.83E-13
DataValue, 0.15, 0.1, 0, 3.652E-12, -3.3400000000000003E-12, -3.9400000000000004E-13, 3.652E-12, 1.9110206696946008E-06, 4.6351120009649404E-10, 3.9400000000000004E-13
DataValue, 0.2, 0.1, 0, 1.0088000000000001E-11, -9.7460000000000015E-12, 6.880000000000001E-13, 1.0088000000000001E-11, 3.176161204976851E-06, 1.1778065251561082E-09, 6.880000000000001E-13
DataValue, 0.25, 0.1, 0, 2.8547E-11, -2.7505000000000003E-11, -1.5500000000000002E-13, 2.8547E-11, 5.3429392659845951E-06, 3.22831868971808E-09, 1.5500000000000002E-13
DataValue, 0.3, 0.1, 0, 7.8464E-11, -7.4769000000000008E-11, 1.2730000000000001E-12, 7.8464E-11, 8.8579907428265019E-06, 7.6213756327417391E-09, 1.2730000000000001E-12
DataValue, 0.35000000000000003, 0.1, 0, 1.9804900000000002E-10, -1.86672E-10, 4.3100000000000003E-13, 1.9804900000000002E-10, 1.4072988310945193E-05, 1.4372403086787587E-08, 4.3100000000000003E-13
DataValue, 0.4, 0.1, 0, 4.3457600000000003E-10, -4.18152E-10, 1.1250000000000002E-12, 4.3457600000000003E-10, 2.0846486514518461E-05, 2.1432771461906446E-08, 1.1250000000000002E-12
DataValue, 0.45, 0.1, 0, 8.24432E-10, -8.02569E-10, 5.1E-13, 8.24432E-10, 2.8712923919378188E-05, 3.1860955254023294E-08, 5.1E-13
DataValue, 0.5, 0.1, 0, 1.49739E-09, -1.43881E-09, 3.7000000000000004E-13, 1.49739E-09, 3.8696123836890947E-05, 5.1830419662896507E-08, 3.7000000000000004E-13
DataValue, 0.55, 0.1, 0, 2.65011E-09, -2.60743E-09, 1.222E-12, 2.65011E-09, 5.1479219108296508E-05, 7.1030573899811724E-08, 1.222E-12
DataValue, 0.6, 0.1, 0, 4.27032E-09, -4.21519E-09, 1.83E-13, 4.27032E-09, 6.5347685498416843E-05, 7.9949495898539941E-08, 1.83E-13
DataValue, 0.65, 0.1, 0, 6.36079E-09, -6.27173E-09, 7.54E-13, 6.36079E-09, 7.9754560998102176E-05, 8.5045289879446629E-08, 7.54E-13
DataValue, 0.70000000000000007, 0.1, 0, 8.93218E-09, -8.83056E-09, 1.2540000000000001E-12, 8.93218E-09, 9.451021108853794E-05, 7.617852550505583E-08, 1.2540000000000001E-12
DataValue, 0.75, 0.1, 0, 1.15251E-08, -1.1293999999999998E-08, 7.26E-13, 1.15251E-08, 0.00010735501851334199, 7.7120696007387069E-08, 7.26E-13
DataValue, 0.8, 0.1, 0, 1.49526E-08, -1.4831699999999999E-08, 8.8500000000000007E-13, 1.49526E-08, 0.00012228082433480729, 9.076568560012806E-08, 8.8500000000000007E-13
DataValue, 0.85000000000000009, 0.1, 0, 1.8901399999999997E-08, -1.8742199999999998E-08, 2.101E-12, 1.8901399999999997E-08, 0.00013748236250515916, 9.0188228831794355E-08, 2.101E-12
DataValue, 0.9, 0.1, 0, 2.3198999999999998E-08, -2.3035599999999997E-08, 9.11E-13, 2.3198999999999998E-08, 0.00015231217942108242, 8.7697227248336478E-08, 9.11E-13
DataValue, 0.95000000000000007, 0.1, 0, 2.7921099999999998E-08, -2.7746099999999998E-08, 1.143E-12, 2.7921099999999998E-08, 0.00016709608014552584, 8.5815385619141537E-08, 1.143E-12
DataValue, 1, 0.1, 0, 3.29809E-08, -3.2793999999999996E-08, 1.2670000000000002E-12, 3.29809E-08, 0.00018160644261699528, 8.3607080214007587E-08, 1.2670000000000002E-12
DataValue, 1.05, 0.1, 0, 3.84203E-08, -3.8202899999999996E-08, 2.185E-12, 3.84203E-08, 0.00019601096908081444, 8.2236675072996E-08, 2.185E-12
DataValue, 1.1, 0.1, 0, 4.4219099999999993E-08, -4.3966399999999993E-08, 2.088E-12, 4.4219099999999993E-08, 0.00021028338022772983, 8.1619252984176315E-08, 2.088E-12
DataValue, 1.1500000000000001, 0.1, 0, 5.0436199999999993E-08, -5.0195699999999992E-08, 7.32E-13, 5.0436199999999993E-08, 0.00022458005254251767, 8.0411575641637409E-08, 7.32E-13
DataValue, 1.2, 0.1, 0, 5.6949199999999994E-08, -5.6707399999999995E-08, 2.577E-12, 5.6949199999999994E-08, 0.00023864031511879963, 7.9571363652459088E-08, 2.577E-12
DataValue, 1.25, 0.1, 0, 6.3902E-08, -6.36853E-08, 1.387E-12, 6.3902E-08, 0.00025278844910319777, 7.9362869395136048E-08, 1.387E-12
DataValue, 1.3, 0.1, 0, 7.1188499999999989E-08, -7.08665E-08, 1.993E-12, 7.1188499999999989E-08, 0.00026681173137626461, 7.8681903066353459E-08, 1.993E-12
DataValue, 1.35, 0.1, 0, 7.8870399999999986E-08, -7.8566999999999991E-08, 2.3510000000000004E-12, 7.8870399999999986E-08, 0.00028083874376588422, 7.8538178865635229E-08, 2.3510000000000004E-12
DataValue, 1.4000000000000001, 0.1, 0, 8.69285E-08, -8.6568E-08, 2.7890000000000003E-12, 8.69285E-08, 0.00029483639531102668, 7.8848728626250924E-08, 2.7890000000000003E-12
DataValue, 1.4500000000000002, 0.1, 0, 9.5430799999999992E-08, -9.5127899999999985E-08, 2.6290000000000002E-12, 9.5430799999999992E-08, 0.0003089187595469074, 7.8048767787492237E-08, 2.6290000000000002E-12
DataValue, 1.5, 0.1, 0, 1.0418279999999999E-07, -1.0385359999999999E-07, 8.705E-12, 1.0418279999999999E-07, 0.00032277360486879963, 7.1440611538311477E-08, 8.705E-12
DataValue, 1.55, 0.1, 0, 1.12659E-07, -1.1245649999999999E-07, 1.4059E-11, 1.12659E-07, 0.000335647136141514, 7.1443402564918144E-08, 1.4059E-11
DataValue, 1.6, 0.1, 0, 1.22152E-07, -1.2141E-07, 1.439E-12, 1.22152E-07, 0.000349502503567571, 7.6202733043962554E-08, 1.439E-12
DataValue, 1.6500000000000001, 0.1, 0, 1.31952E-07, -1.31654E-07, 1.3813000000000002E-11, 1.31952E-07, 0.00036325197865944237, 7.8295152219589463E-08, 1.3813000000000002E-11
DataValue, 1.7000000000000002, 0.1, 0, 1.42494E-07, -1.42248E-07, 8.243E-12, 1.42494E-07, 0.00037748377448573869, 7.9109184141486136E-08, 8.243E-12
DataValue, 1.75, 0.1, 0, 1.53177E-07, -1.52853E-07, 1.3005000000000001E-11, 1.53177E-07, 0.00039137833358529188, 7.7813441031809748E-08, 1.3005000000000001E-11
DataValue, 1.8, 0.1, 0, 1.64332E-07, -1.6392999999999999E-07, 3.0684E-11, 1.64332E-07, 0.00040537883516533025, 7.8659338845247321E-08, 3.0684E-11
DataValue, 1.85, 0.1, 0, 1.75917E-07, -1.75621E-07, 3.7208E-11, 1.75917E-07, 0.00041942460585902685, 7.7207626598244871E-08, 3.7208E-11
DataValue, 1.9000000000000001, 0.1, 0, 1.87632E-07, -1.87415E-07, 4.3240000000000004E-11, 1.87632E-07, 0.00043316509554672109, 7.6676887561711943E-08, 4.3240000000000004E-11
DataValue, 1.9500000000000002, 0.1, 0, 1.99912E-07, -1.99722E-07, 5.6716000000000003E-11, 1.99912E-07, 0.00044711519768399731, 7.6701136235573849E-08, 5.6716000000000003E-11
DataValue, 2, 0.1, 0, 2.12392E-07, -2.12069E-07, 7.153000000000001E-11, 2.12392E-07, 0.00046086006552965728, 7.447273264954326E-08, 7.153000000000001E-11
DataValue, 2.05, 0.1, 0, 2.2506E-07, -2.24944E-07, 1.13552E-10, 2.2506E-07, 0.00047440489036265214, 7.3986075626522775E-08, 1.13552E-10
DataValue, 2.1, 0.1, 0, 2.38203E-07, -2.38055E-07, 1.0741200000000001E-10, 2.38203E-07, 0.0004880604470759744, 7.5222687412339438E-08, 1.0741200000000001E-10
DataValue, 2.15, 0.1, 0, 2.51835E-07, -2.51611E-07, 1.1995E-10, 2.51835E-07, 0.00050183164507631441, 7.3860901047937684E-08, 1.1995E-10
DataValue, 2.2, 0.1, 0, 2.6547E-07, -2.65332E-07, 1.7781200000000002E-10, 2.6547E-07, 0.0005152378091716484, 7.0700621185356028E-08, 1.7781200000000002E-10
DataValue, 2.25, 0.1, 0, 2.79229E-07, -2.79248E-07, 2.06943E-10, 2.79229E-07, 0.00052842123348707326, 7.0490102168353956E-08, 2.06943E-10
DataValue, 2.3000000000000003, 0.1, 0, 2.93534E-07, -2.9356699999999997E-07, 2.45818E-10, 2.93534E-07, 0.00054178778133139917, 7.098348908801E-08, 2.45818E-10
DataValue, 2.35, 0.1, 0, 3.08096E-07, -3.08226E-07, 2.96441E-10, 3.08096E-07, 0.000555063960278453, 6.9230459867278348E-08, 2.96441E-10
