
SetupTitle, Transfer sat
PrimitiveTest, I/V Sweep
TestParameter, Context.MainFrame, 4155C
TestParameter, Channel.UnitType, SMU, SMU, SMU
TestParameter, Channel.Unit, SMU3:MP, SMU1:MP, SMU4:MP
TestParameter, Channel.IName, ID, IS, IG
TestParameter, Channel.VName, VD, VS, VG
TestParameter, Channel.Mode, V, COMMON, V
TestParameter, Channel.Func, CONST, CONST, VAR1
TestParameter, Channel.Index, 
TestParameter, Channel.Time, 
TestParameter, Measurement.Port.Unit, SMU3:MP, SMU1:MP, SMU4:MP
TestParameter, Measurement.Port.SeriesResistor, NONE, NONE, NONE
TestParameter, Measurement.Port.Filter, ON, ON, ON
TestParameter, Measurement.Primary.Locus, Double
TestParameter, Measurement.Primary.Scale, LINEAR
TestParameter, Measurement.Primary.Start, -2
TestParameter, Measurement.Primary.Stop, 3
TestParameter, Measurement.Primary.Step, 0.05
TestParameter, Measurement.Primary.Compliance, 0.001
TestParameter, Measurement.Primary.PowerCompliance, 0
TestParameter, Measurement.Aborting.Condition, CONTINUE AT ANY
TestParameter, Measurement.PostOutput.Value, START
TestParameter, Measurement.PostOutput.Retention, OFF
TestParameter, Measurement.Bias.Source, 5, 0, -2
TestParameter, Measurement.Bias.Compliance, 0.001, 0.1, 0.001
TestParameter, Measurement.Monitor.Unit, SMU3:MP, SMU1:MP, SMU4:MP
TestParameter, Measurement.Monitor.Adc, HR ADC, HR ADC, HR ADC
TestParameter, Measurement.Monitor.RangingMode, AUTO, AUTO, AUTO
TestParameter, Measurement.Monitor.RangeBoundary, , , 
TestParameter, Measurement.Monitor.RangeRating, BY FULL RANGE, BY FULL RANGE, BY FULL RANGE
TestParameter, Measurement.Monitor.RangeRatingCoeff, 50, 50, 50
TestParameter, Measurement.Timing.Hold, 0.5
TestParameter, Measurement.Timing.Delay, 0.05
TestParameter, Measurement.Adc.HighResolution.AutoZero, OFF
TestParameter, Measurement.Adc.HighResolution.Mode, AUTO
TestParameter, Measurement.Adc.HighResolution.Coeff, 1
TestParameter, Measurement.Ag16440ASelector.SemiconductorRelay.Channel1, DEFAULT
TestParameter, Measurement.Ag16440ASelector.SemiconductorRelay.Channel3, DEFAULT
TestParameter, Function.User.Name, absID, sqrtID, gm2, absIG
TestParameter, Function.User.Unit, A, A, A/V, A
TestParameter, Function.User.Definition, abs(ID), sqrt(abs(ID)), (delta(sqrtID)/delta(VG))^2, abs(IG)
TestParameter, Output.Graph.Enabled, true
TestParameter, Output.Graph.XAxis.Data, VG
TestParameter, Output.Graph.XAxis.Scale, Linear
TestParameter, Output.Graph.XAxis.Left, -5
TestParameter, Output.Graph.XAxis.Right, 7
TestParameter, Output.Graph.YAxis.Data, ID, absIG, gm2
TestParameter, Output.Graph.YAxis.Scale, Log, Log, Linear
TestParameter, Output.Graph.YAxis.Bottom, 1E-14, 1E-14, 0
TestParameter, Output.Graph.YAxis.Top, 0.01, 0.01, 1E-05
TestParameter, Output.Graph.YAxis.Group, , , 
TestParameter, Output.List.Data, VG, IG, VD, ID, VS, IS, sqrtID, gm2, absIG
TestParameter, AutoAnalysis.Interpolation, false
TestParameter, AutoAnalysis.Line1.Enabled, false
TestParameter, AutoAnalysis.Line1.Type, 1
TestParameter, AutoAnalysis.Line1.Fix, True
TestParameter, AutoAnalysis.Line1.YAxis, 0
TestParameter, AutoAnalysis.Line1.Point1.Type, 0
TestParameter, AutoAnalysis.Line1.Point1.XY.X, 
TestParameter, AutoAnalysis.Line1.Point1.XY.Y, 
TestParameter, AutoAnalysis.Line1.Point1.Data.Var, 
TestParameter, AutoAnalysis.Line1.Point1.Data.Condition, 
TestParameter, AutoAnalysis.Line1.Point1.Data.Start, false
TestParameter, AutoAnalysis.Line1.Point1.Data.StartVar, 
TestParameter, AutoAnalysis.Line1.Point1.Data.StartCondition, 
TestParameter, AutoAnalysis.Line1.Point2.Type, 0
TestParameter, AutoAnalysis.Line1.Point2.XY.X, 
TestParameter, AutoAnalysis.Line1.Point2.XY.Y, 
TestParameter, AutoAnalysis.Line1.Point2.Data.Var, 
TestParameter, AutoAnalysis.Line1.Point2.Data.Condition, 
TestParameter, AutoAnalysis.Line1.Point2.Data.Start, false
TestParameter, AutoAnalysis.Line1.Point2.Data.StartVar, 
TestParameter, AutoAnalysis.Line1.Point2.Data.StartCondition, 
TestParameter, AutoAnalysis.Line1.GradientExpr, 0
TestParameter, AutoAnalysis.Line2.Enabled, false
TestParameter, AutoAnalysis.Line2.Type, 1
TestParameter, AutoAnalysis.Line2.Fix, True
TestParameter, AutoAnalysis.Line2.YAxis, 0
TestParameter, AutoAnalysis.Line2.Point1.Type, 0
TestParameter, AutoAnalysis.Line2.Point1.XY.X, 
TestParameter, AutoAnalysis.Line2.Point1.XY.Y, 
TestParameter, AutoAnalysis.Line2.Point1.Data.Var, 
TestParameter, AutoAnalysis.Line2.Point1.Data.Condition, 
TestParameter, AutoAnalysis.Line2.Point1.Data.Start, false
TestParameter, AutoAnalysis.Line2.Point1.Data.StartVar, 
TestParameter, AutoAnalysis.Line2.Point1.Data.StartCondition, 
TestParameter, AutoAnalysis.Line2.Point2.Type, 0
TestParameter, AutoAnalysis.Line2.Point2.XY.X, 
TestParameter, AutoAnalysis.Line2.Point2.XY.Y, 
TestParameter, AutoAnalysis.Line2.Point2.Data.Var, 
TestParameter, AutoAnalysis.Line2.Point2.Data.Condition, 
TestParameter, AutoAnalysis.Line2.Point2.Data.Start, false
TestParameter, AutoAnalysis.Line2.Point2.Data.StartVar, 
TestParameter, AutoAnalysis.Line2.Point2.Data.StartCondition, 
TestParameter, AutoAnalysis.Line2.GradientExpr, 0
TestParameter, AutoAnalysis.Marker.Enabled, false
TestParameter, AutoAnalysis.Marker.Data.Var, 
TestParameter, AutoAnalysis.Marker.Data.Condition, 
TestParameter, AutoAnalysis.Marker.Data.Start, false
TestParameter, AutoAnalysis.Marker.Data.StartVar, 
TestParameter, AutoAnalysis.Marker.Data.StartCondition, 
MetaData, TestRecord.EntryPoint, true
MetaData, TestRecord.RecordTime, 05/02/2019 13:33:27
MetaData, TestRecord.TestTarget, 150-300-50-5
MetaData, TestRecord.IterationIndex, 1
MetaData, TestRecord.Preservation, true
MetaData, TestRecord.Flag, 
MetaData, TestRecord.Remarks, good
MetaData, TestRecord.LinkKey, be7d93c9-7f00-4673-bab8-18001a92fee9
Dimension1, 202, 202, 202, 202, 202, 202, 202, 202, 202, 202
Dimension2, 1, 1, 1, 1, 1, 1, 1, 1, 1, 1
DataName, VG, VD, VS, ID, IS, IG, absID, sqrtID, gm2, absIG
DataValue, -2, 5, 0, 2.1071E-11, 2.67E-12, -2.2356000000000002E-11, 2.1071E-11, 4.59031589326922E-06, 2.6743074000754874E-14, 2.2356000000000002E-11
DataValue, -1.9500000000000002, 5, 0, 2.0996000000000003E-11, 2.089E-12, -2.7034E-11, 2.0996000000000003E-11, 4.5821392383907329E-06, 5.1965241405213514E-13, 2.7034E-11
DataValue, -1.9000000000000001, 5, 0, 2.1738000000000003E-11, -1.0850000000000001E-12, -1.7195000000000002E-11, 2.1738000000000003E-11, 4.6624028140005242E-06, 1.3492379818680252E-12, 1.7195000000000002E-11
DataValue, -1.85, 5, 0, 1.9945000000000002E-11, 3.802E-12, -2.0143E-11, 1.9945000000000002E-11, 4.4659825346725218E-06, 1.285604476089437E-11, 2.0143E-11
DataValue, -1.8, 5, 0, 2.5210000000000003E-11, -1.782E-12, -1.9455000000000002E-11, 2.5210000000000003E-11, 5.0209560842532775E-06, 3.5403529263926273E-13, 1.9455000000000002E-11
DataValue, -1.75, 5, 0, 2.0480000000000003E-11, -1.218E-12, -2.0871E-11, 2.0480000000000003E-11, 4.5254833995939045E-06, 3.1311429446958026E-11, 2.0871E-11
DataValue, -1.7000000000000002, 5, 0, 1.9904000000000002E-11, 3.671E-12, -2.0951E-11, 1.9904000000000002E-11, 4.46138991795158E-06, 1.0308889490547981E-14, 2.0951E-11
DataValue, -1.6500000000000001, 5, 0, 2.0572E-11, -3.56E-12, -2.1767000000000003E-11, 2.0572E-11, 4.5356366697521087E-06, 1.8766131379465913E-11, 2.1767000000000003E-11
DataValue, -1.6, 5, 0, 2.3957E-11, 4.5800000000000007E-13, -2.4804000000000003E-11, 2.3957E-11, 4.8945888489228592E-06, 9.27707264469099E-13, 2.4804000000000003E-11
DataValue, -1.55, 5, 0, 2.1455000000000002E-11, -1.136E-12, -2.3016000000000003E-11, 2.1455000000000002E-11, 4.6319542312073854E-06, 5.3067248565697392E-12, 2.3016000000000003E-11
DataValue, -1.5, 5, 0, 2.1755E-11, 1.1230000000000002E-12, -2.3376000000000002E-11, 2.1755E-11, 4.6642255520075357E-06, 2.5079494803940615E-12, 2.3376000000000002E-11
DataValue, -1.4500000000000002, 5, 0, 2.0013E-11, -8.66E-13, -2.0171000000000002E-11, 2.0013E-11, 4.4735891630770033E-06, 6.9335608133590431E-12, 2.0171000000000002E-11
DataValue, -1.4000000000000001, 5, 0, 1.9368000000000002E-11, -1.1270000000000002E-12, -2.0487000000000002E-11, 1.9368000000000002E-11, 4.4009089970141395E-06, 8.8130586259737148E-12, 2.0487000000000002E-11
DataValue, -1.35, 5, 0, 1.7445E-11, -5.7200000000000009E-13, -1.5904E-11, 1.7445E-11, 4.1767212020914209E-06, 8.9996965779278792E-13, 1.5904E-11
DataValue, -1.3, 5, 0, 1.8542000000000002E-11, 1.652E-12, -2.1174000000000002E-11, 1.8542000000000002E-11, 4.3060422663973005E-06, 3.5603621747684787E-13, 2.1174000000000002E-11
DataValue, -1.25, 5, 0, 1.7947E-11, -8.770000000000001E-13, -1.655E-11, 1.7947E-11, 4.2363899726063937E-06, 1.7893087833464572E-11, 1.655E-11
DataValue, -1.2, 5, 0, 1.5078E-11, -7.2000000000000009E-14, -1.5255E-11, 1.5078E-11, 3.8830400461494087E-06, 2.6754785954795188E-11, 1.5255E-11
DataValue, -1.1500000000000001, 5, 0, 1.3832000000000002E-11, -1.132E-12, -1.4368000000000002E-11, 1.3832000000000002E-11, 3.7191396854649063E-06, 2.1100454907179165E-12, 1.4368000000000002E-11
DataValue, -1.1, 5, 0, 1.3971000000000002E-11, 1.24E-13, -1.2198000000000001E-11, 1.3971000000000002E-11, 3.7377800898394225E-06, 1.2936642391185077E-11, 1.2198000000000001E-11
DataValue, -1.05, 5, 0, 1.1286E-11, 1.1500000000000002E-12, -1.5222E-11, 1.1286E-11, 3.3594642430006604E-06, 2.4168559156314137E-12, 1.5222E-11
DataValue, -1, 5, 0, 1.2833E-11, -1.5280000000000002E-12, -1.1930000000000001E-11, 1.2833E-11, 3.582317685521484E-06, 3.622340886989074E-12, 1.1930000000000001E-11
DataValue, -0.95000000000000007, 5, 0, 1.2601000000000001E-11, -1.3820000000000002E-12, -1.1437000000000002E-11, 1.2601000000000001E-11, 3.5497887261075133E-06, 3.2306713094195132E-13, 1.1437000000000002E-11
DataValue, -0.9, 5, 0, 1.2429E-11, -2.7000000000000002E-14, -1.0766000000000002E-11, 1.2429E-11, 3.5254786909014213E-06, 2.9100141928815163E-12, 1.0766000000000002E-11
DataValue, -0.85000000000000009, 5, 0, 1.1419E-11, 2.47E-13, -9.296E-12, 1.1419E-11, 3.3792010890149762E-06, 3.67725198608391E-11, 9.296E-12
DataValue, -0.8, 5, 0, 8.521E-12, 2.38E-13, -9.279E-12, 8.521E-12, 2.9190751960167111E-06, 3.48024428428113E-11, 9.279E-12
DataValue, -0.75, 5, 0, 7.7800000000000012E-12, -5.3100000000000006E-13, -9.276E-12, 7.7800000000000012E-12, 2.789265136196271E-06, 2.0747632767953471E-13, 9.276E-12
DataValue, -0.70000000000000007, 5, 0, 8.789E-12, -1.103E-12, -7.362E-12, 8.789E-12, 2.9646247654635823E-06, 3.1524478130545159E-12, 7.362E-12
DataValue, -0.65, 5, 0, 8.802E-12, -5.5500000000000006E-13, -7.002E-12, 8.802E-12, 2.9668164756182678E-06, 5.0998922347470759E-12, 7.002E-12
DataValue, -0.6, 5, 0, 7.501E-12, -5.38E-13, -6.663E-12, 7.501E-12, 2.7387953556262654E-06, 7.7878104303315845E-12, 6.663E-12
DataValue, -0.55, 5, 0, 7.2240000000000007E-12, -1.3610000000000002E-12, -8.1800000000000011E-12, 7.2240000000000007E-12, 2.6877499883731745E-06, 9.287160458848053E-14, 8.1800000000000011E-12
DataValue, -0.5, 5, 0, 7.3350000000000014E-12, 5.2900000000000007E-13, -3.1510000000000002E-12, 7.3350000000000014E-12, 2.7083205127901685E-06, 1.929224524366001E-11, 3.1510000000000002E-12
DataValue, -0.45, 5, 0, 9.7780000000000014E-12, -3.6900000000000004E-13, -6.8660000000000008E-12, 9.7780000000000014E-12, 3.12697937313312E-06, 1.2711966817096349E-12, 6.8660000000000008E-12
DataValue, -0.4, 5, 0, 6.7370000000000009E-12, 6.2400000000000007E-13, -8.693000000000001E-12, 6.7370000000000009E-12, 2.5955731544304431E-06, 1.5962130337723912E-11, 8.693000000000001E-12
DataValue, -0.35000000000000003, 5, 0, 7.439E-12, -3.3020000000000003E-12, -8.843E-12, 7.439E-12, 2.7274530243434075E-06, 4.6290444624474524E-11, 8.843E-12
DataValue, -0.3, 5, 0, 3.668E-12, -2.8E-12, -3.763E-12, 3.668E-12, 1.9152023391798581E-06, 3.3202452127505078E-13, 3.763E-12
DataValue, -0.25, 5, 0, 7.128E-12, -7.53E-13, -3.712E-12, 7.128E-12, 2.6698314553544385E-06, 4.9743934015838735E-11, 3.712E-12
DataValue, -0.2, 5, 0, 6.8670000000000005E-12, 4.13E-13, -2.03E-12, 6.8670000000000005E-12, 2.620496136230695E-06, 5.2581401008563215E-12, 2.03E-12
DataValue, -0.15, 5, 0, 8.405E-12, 5.3000000000000006E-13, -4.322E-12, 8.405E-12, 2.8991378028648448E-06, 3.2620978450339129E-10, 4.322E-12
DataValue, -0.1, 5, 0, 1.9595E-11, -1.0124E-11, -8.369E-12, 1.9595E-11, 4.4266239957782725E-06, 1.1357389826304154E-09, 8.369E-12
DataValue, -0.05, 5, 0, 3.9303E-11, -3.0002000000000004E-11, -5.9650000000000005E-12, 3.9303E-11, 6.2692104766070824E-06, 3.3865979941795395E-09, 5.9650000000000005E-12
DataValue, 0, 5, 0, 1.0498200000000001E-10, -9.6298E-11, -5.622E-12, 1.0498200000000001E-10, 1.0246072418248859E-05, 1.1739088018058336E-08, 5.622E-12
DataValue, 0.05, 5, 0, 2.9254400000000004E-10, -2.6811300000000004E-10, -2.6800000000000003E-12, 2.9254400000000004E-10, 1.7103917679876739E-05, 3.1077426542680044E-08, 2.6800000000000003E-12
DataValue, 0.1, 5, 0, 7.7700800000000007E-10, -7.19064E-10, -3.288E-12, 7.7700800000000007E-10, 2.7874863228364011E-05, 6.41491086672484E-08, 3.288E-12
DataValue, 0.15, 5, 0, 1.80044E-09, -1.66256E-09, -5.3440000000000007E-12, 1.80044E-09, 4.2431592004071681E-05, 1.5755365158396179E-07, 5.3440000000000007E-12
DataValue, 0.2, 5, 0, 4.56542E-09, -4.45433E-09, -3.2770000000000003E-12, 4.56542E-09, 6.7567891783005919E-05, 3.0095497507152034E-07, 3.2770000000000003E-12
DataValue, 0.25, 5, 0, 9.46553E-09, -9.30445E-09, -3.6800000000000005E-12, 9.46553E-09, 9.7290955386407829E-05, 5.3551205226631128E-07, 3.6800000000000005E-12
DataValue, 0.3, 5, 0, 1.9809599999999998E-08, -1.88561E-08, -1.475E-12, 1.9809599999999998E-08, 0.00014074658077552007, 1.0082844734326192E-06, 1.475E-12
DataValue, 0.35000000000000003, 5, 0, 3.9087E-08, -3.8596E-08, -2.8590000000000002E-12, 3.9087E-08, 0.00019770432468714486, 1.5785687674616227E-06, 2.8590000000000002E-12
DataValue, 0.4, 5, 0, 7.0962399999999992E-08, -6.9562599999999991E-08, -2.5260000000000003E-12, 7.0962399999999992E-08, 0.00026638768740315304, 1.9010138832858327E-06, 2.5260000000000003E-12
DataValue, 0.45, 5, 0, 1.1261499999999999E-07, -1.09629E-07, -4.3190000000000005E-12, 1.1261499999999999E-07, 0.00033558158471525218, 2.4239902029252025E-06, 4.3190000000000005E-12
DataValue, 0.5, 5, 0, 1.78151E-07, -1.7599599999999998E-07, -5.842E-12, 1.78151E-07, 0.00042207937642107081, 3.2704767857529698E-06, 5.842E-12
DataValue, 0.55, 5, 0, 2.6669599999999997E-07, -2.63757E-07, -8.279E-12, 2.6669599999999997E-07, 0.00051642618059118573, 3.8354777530840655E-06, 8.279E-12
DataValue, 0.6, 5, 0, 3.81829E-07, -3.78059E-07, -7.829E-12, 3.81829E-07, 0.0006179231343783788, 4.3411300148605944E-06, 7.829E-12
DataValue, 0.65, 5, 0, 5.25306E-07, -5.21528E-07, 3.5500000000000004E-12, 5.25306E-07, 0.00072477996661055694, 4.7408134819479947E-06, 3.5500000000000004E-12
DataValue, 0.70000000000000007, 5, 0, 6.9832299999999995E-07, -6.92987E-07, -8.1000000000000008E-13, 6.9832299999999995E-07, 0.0008356572263793331, 5.1071591955643013E-06, 8.1000000000000008E-13
DataValue, 0.75, 5, 0, 9.03964E-07, -8.98125E-07, -5.3100000000000006E-13, 9.03964E-07, 0.00095077021408960854, 5.0196413915548228E-06, 5.3100000000000006E-13
DataValue, 0.8, 5, 0, 1.1229700000000001E-06, -1.1135200000000001E-06, 2.83E-13, 1.1229700000000001E-06, 0.0010597027885213854, 5.4661138914136652E-06, 2.83E-13
DataValue, 0.85000000000000009, 5, 0, 1.4032000000000002E-06, -1.3973600000000001E-06, -2.753E-12, 1.4032000000000002E-06, 0.0011845674315968679, 6.3787780327505031E-06, 2.753E-12
DataValue, 0.9, 5, 0, 1.7220400000000002E-06, -1.7174100000000001E-06, -1.9600000000000002E-13, 1.7220400000000002E-06, 0.0013122652170959954, 6.6760709601248391E-06, 1.9600000000000002E-13
DataValue, 0.95000000000000007, 5, 0, 2.0821000000000004E-06, -2.07563E-06, 5.6E-12, 2.0821000000000004E-06, 0.0014429483705247393, 7.0486366187927273E-06, 5.6E-12
DataValue, 1, 5, 0, 2.48932E-06, -2.4797700000000004E-06, 3.5270000000000002E-12, 2.48932E-06, 0.0015777579028482158, 7.3159938561473292E-06, 3.5270000000000002E-12
DataValue, 1.05, 5, 0, 2.93584E-06, -2.9270900000000005E-06, -2.7470000000000003E-12, 2.93584E-06, 0.0017134293098928827, 7.6037832510484887E-06, 2.7470000000000003E-12
DataValue, 1.1, 5, 0, 3.4354900000000005E-06, -3.424E-06, -2.389E-12, 3.4354900000000005E-06, 0.001853507485822488, 7.854045740232126E-06, 2.389E-12
DataValue, 1.1500000000000001, 5, 0, 3.97476E-06, -3.9671400000000008E-06, 1.6700000000000002E-12, 3.97476E-06, 0.0019936800144456481, 8.1480484592291142E-06, 1.6700000000000002E-12
DataValue, 1.2, 5, 0, 4.5751300000000009E-06, -4.5603300000000006E-06, -1.095E-12, 4.5751300000000009E-06, 0.002138955352502712, 8.5132060418781439E-06, 1.095E-12
DataValue, 1.25, 5, 0, 5.2233000000000005E-06, -5.2148900000000008E-06, 1.038E-12, 5.2233000000000005E-06, 0.002285454003037471, 8.7323543941162163E-06, 1.038E-12
DataValue, 1.3, 5, 0, 5.926600000000001E-06, -5.9090400000000008E-06, 4.94E-13, 5.926600000000001E-06, 0.0024344609259546561, 9.0465547575112513E-06, 4.94E-13
DataValue, 1.35, 5, 0, 6.6885800000000009E-06, -6.6741900000000006E-06, -4.4900000000000006E-13, 6.6885800000000009E-06, 0.0025862289148488, 9.2626112379016158E-06, 4.4900000000000006E-13
DataValue, 1.4000000000000001, 5, 0, 7.5010600000000007E-06, -7.4900800000000008E-06, 1.8360000000000003E-12, 7.5010600000000007E-06, 0.0027388063093252871, 9.5869790142002964E-06, 1.8360000000000003E-12
DataValue, 1.4500000000000002, 5, 0, 8.3859900000000017E-06, -8.37025E-06, 5.2800000000000007E-13, 8.3859900000000017E-06, 0.0028958573859912372, 9.7855006276317642E-06, 5.2800000000000007E-13
DataValue, 1.5, 5, 0, 9.3124100000000015E-06, -9.3044400000000013E-06, 1.0800000000000001E-13, 9.3124100000000015E-06, 0.0030516241577232283, 1.0115276584431994E-05, 1.0800000000000001E-13
DataValue, 1.55, 5, 0, 1.032917E-05, -1.031219E-05, -3.54E-13, 1.032917E-05, 0.0032139026120901674, 1.03544694780451E-05, 3.54E-13
DataValue, 1.6, 5, 0, 1.1379880000000001E-05, -1.1361920000000002E-05, -1.1000000000000002E-12, 1.1379880000000001E-05, 0.0033734077725647103, 9.8542884903824119E-06, 1.1000000000000002E-12
DataValue, 1.6500000000000001, 5, 0, 1.24455E-05, -1.24126E-05, 1.0310000000000002E-12, 1.24455E-05, 0.0035278180225176013, 1.0124538339787397E-05, 1.0310000000000002E-12
DataValue, 1.7000000000000002, 5, 0, 1.36279E-05, -1.36161E-05, -1.52E-13, 1.36279E-05, 0.0036915985697255869, 1.0833099019524301E-05, 1.52E-13
DataValue, 1.75, 5, 0, 1.48761E-05, -1.4857E-05, -1.1920000000000002E-12, 1.48761E-05, 0.0038569547573182655, 1.09084284698528E-05, 1.1920000000000002E-12
DataValue, 1.8, 5, 0, 1.61755E-05, -1.61618E-05, 1.0180000000000001E-12, 1.61755E-05, 0.0040218776709392843, 1.1142041399347156E-05, 1.0180000000000001E-12
DataValue, 1.85, 5, 0, 1.75624E-05, -1.75441E-05, -7.6400000000000008E-13, 1.75624E-05, 0.0041907517225433432, 1.1490902411049469E-05, 7.6400000000000008E-13
DataValue, 1.9000000000000001, 5, 0, 1.90171E-05, -1.8997500000000002E-05, 1.03E-12, 1.90171E-05, 0.0043608600069252393, 1.1446111950231946E-05, 1.03E-12
DataValue, 1.9500000000000002, 5, 0, 2.05125E-05, -2.04999E-05, 1.0870000000000001E-12, 2.05125E-05, 0.0045290727527828476, 1.1427382749569975E-05, 1.0870000000000001E-12
DataValue, 2, 5, 0, 2.20797E-05, -2.20626E-05, -6.0300000000000006E-13, 2.20797E-05, 0.0046989041275599568, 1.1722744344375733E-05, 6.0300000000000006E-13
DataValue, 2.05, 5, 0, 2.37311E-05, -2.3722500000000002E-05, 8.48E-13, 2.37311E-05, 0.0048714576873868055, 1.2000025572130334E-05, 8.48E-13
DataValue, 2.1, 5, 0, 2.54552E-05, -2.54309E-05, 8.3200000000000009E-13, 2.54552E-05, 0.0050453146581754442, 1.2100143958956827E-05, 8.3200000000000009E-13
DataValue, 2.15, 5, 0, 2.72412E-05, -2.7205400000000002E-05, 1.473E-12, 2.72412E-05, 0.0052193102992636872, 1.2123030476481194E-05, 1.473E-12
DataValue, 2.2, 5, 0, 2.90898E-05, -2.90655E-05, 1.6830000000000002E-12, 2.90898E-05, 0.0053934960832469321, 1.2173961043662223E-05, 1.6830000000000002E-12
DataValue, 2.25, 5, 0, 3.10051E-05, -3.09836E-05, 1.6700000000000002E-13, 3.10051E-05, 0.0055682223375149095, 1.2280808814800438E-05, 1.6700000000000002E-13
