
SetupTitle, Transfer stab
PrimitiveTest, I/V Sweep
TestParameter, Context.MainFrame, 4155C
TestParameter, Channel.UnitType, SMU, SMU, SMU
TestParameter, Channel.Unit, SMU3:MP, SMU1:MP, SMU4:MP
TestParameter, Channel.IName, ID, IS, IG
TestParameter, Channel.VName, VD, VS, VG
TestParameter, Channel.Mode, V, COMMON, V
TestParameter, Channel.Func, CONST, CONST, VAR1
TestParameter, Channel.Index, 
TestParameter, Channel.Time, 
TestParameter, Measurement.Port.Unit, SMU3:MP, SMU1:MP, SMU4:MP
TestParameter, Measurement.Port.SeriesResistor, NONE, NONE, NONE
TestParameter, Measurement.Port.Filter, ON, ON, ON
TestParameter, Measurement.Primary.Locus, Single
TestParameter, Measurement.Primary.Scale, LINEAR
TestParameter, Measurement.Primary.Start, -2
TestParameter, Measurement.Primary.Stop, 3
TestParameter, Measurement.Primary.Step, 0.05
TestParameter, Measurement.Primary.Compliance, 0.1
TestParameter, Measurement.Primary.PowerCompliance, 0
TestParameter, Measurement.Aborting.Condition, CONTINUE AT ANY
TestParameter, Measurement.PostOutput.Value, START
TestParameter, Measurement.PostOutput.Retention, OFF
TestParameter, Measurement.Bias.Source, 3, 0, -2
TestParameter, Measurement.Bias.Compliance, 0.1, 0.1, 0.1
TestParameter, Measurement.Monitor.Unit, SMU3:MP, SMU1:MP, SMU4:MP
TestParameter, Measurement.Monitor.Adc, HR ADC, HR ADC, HR ADC
TestParameter, Measurement.Monitor.RangingMode, AUTO, AUTO, AUTO
TestParameter, Measurement.Monitor.RangeBoundary, , , 
TestParameter, Measurement.Monitor.RangeRating, BY FULL RANGE, BY FULL RANGE, BY FULL RANGE
TestParameter, Measurement.Monitor.RangeRatingCoeff, 50, 50, 50
TestParameter, Measurement.Timing.Hold, 0.5
TestParameter, Measurement.Timing.Delay, 0.05
TestParameter, Measurement.Adc.HighResolution.AutoZero, OFF
TestParameter, Measurement.Adc.HighResolution.Mode, AUTO
TestParameter, Measurement.Adc.HighResolution.Coeff, 1
TestParameter, Measurement.Ag16440ASelector.SemiconductorRelay.Channel1, DEFAULT
TestParameter, Measurement.Ag16440ASelector.SemiconductorRelay.Channel3, DEFAULT
TestParameter, Function.User.Name, absID, sqrtID, gm2, absIG
TestParameter, Function.User.Unit, A, A, A/V, A
TestParameter, Function.User.Definition, abs(ID), sqrt(abs(ID)), (delta(sqrtID)/delta(VG))^2, abs(IG)
TestParameter, Output.Graph.Enabled, true
TestParameter, Output.Graph.XAxis.Data, VG
TestParameter, Output.Graph.XAxis.Scale, Linear
TestParameter, Output.Graph.XAxis.Left, -5
TestParameter, Output.Graph.XAxis.Right, 7
TestParameter, Output.Graph.YAxis.Data, ID, absIG, gm2
TestParameter, Output.Graph.YAxis.Scale, Log, Log, Linear
TestParameter, Output.Graph.YAxis.Bottom, 1E-14, 1E-14, 0
TestParameter, Output.Graph.YAxis.Top, 0.01, 0.01, 1E-05
TestParameter, Output.Graph.YAxis.Group, , , 
TestParameter, Output.List.Data, VG, IG, VD, ID, VS, IS, sqrtID, gm2, absIG
TestParameter, AutoAnalysis.Interpolation, false
TestParameter, AutoAnalysis.Line1.Enabled, false
TestParameter, AutoAnalysis.Line1.Type, 1
TestParameter, AutoAnalysis.Line1.Fix, True
TestParameter, AutoAnalysis.Line1.YAxis, 0
TestParameter, AutoAnalysis.Line1.Point1.Type, 0
TestParameter, AutoAnalysis.Line1.Point1.XY.X, 
TestParameter, AutoAnalysis.Line1.Point1.XY.Y, 
TestParameter, AutoAnalysis.Line1.Point1.Data.Var, 
TestParameter, AutoAnalysis.Line1.Point1.Data.Condition, 
TestParameter, AutoAnalysis.Line1.Point1.Data.Start, false
TestParameter, AutoAnalysis.Line1.Point1.Data.StartVar, 
TestParameter, AutoAnalysis.Line1.Point1.Data.StartCondition, 
TestParameter, AutoAnalysis.Line1.Point2.Type, 0
TestParameter, AutoAnalysis.Line1.Point2.XY.X, 
TestParameter, AutoAnalysis.Line1.Point2.XY.Y, 
TestParameter, AutoAnalysis.Line1.Point2.Data.Var, 
TestParameter, AutoAnalysis.Line1.Point2.Data.Condition, 
TestParameter, AutoAnalysis.Line1.Point2.Data.Start, false
TestParameter, AutoAnalysis.Line1.Point2.Data.StartVar, 
TestParameter, AutoAnalysis.Line1.Point2.Data.StartCondition, 
TestParameter, AutoAnalysis.Line1.GradientExpr, 0
TestParameter, AutoAnalysis.Line2.Enabled, false
TestParameter, AutoAnalysis.Line2.Type, 1
TestParameter, AutoAnalysis.Line2.Fix, True
TestParameter, AutoAnalysis.Line2.YAxis, 0
TestParameter, AutoAnalysis.Line2.Point1.Type, 0
TestParameter, AutoAnalysis.Line2.Point1.XY.X, 
TestParameter, AutoAnalysis.Line2.Point1.XY.Y, 
TestParameter, AutoAnalysis.Line2.Point1.Data.Var, 
TestParameter, AutoAnalysis.Line2.Point1.Data.Condition, 
TestParameter, AutoAnalysis.Line2.Point1.Data.Start, false
TestParameter, AutoAnalysis.Line2.Point1.Data.StartVar, 
TestParameter, AutoAnalysis.Line2.Point1.Data.StartCondition, 
TestParameter, AutoAnalysis.Line2.Point2.Type, 0
TestParameter, AutoAnalysis.Line2.Point2.XY.X, 
TestParameter, AutoAnalysis.Line2.Point2.XY.Y, 
TestParameter, AutoAnalysis.Line2.Point2.Data.Var, 
TestParameter, AutoAnalysis.Line2.Point2.Data.Condition, 
TestParameter, AutoAnalysis.Line2.Point2.Data.Start, false
TestParameter, AutoAnalysis.Line2.Point2.Data.StartVar, 
TestParameter, AutoAnalysis.Line2.Point2.Data.StartCondition, 
TestParameter, AutoAnalysis.Line2.GradientExpr, 0
TestParameter, AutoAnalysis.Marker.Enabled, false
TestParameter, AutoAnalysis.Marker.Data.Var, 
TestParameter, AutoAnalysis.Marker.Data.Condition, 
TestParameter, AutoAnalysis.Marker.Data.Start, false
TestParameter, AutoAnalysis.Marker.Data.StartVar, 
TestParameter, AutoAnalysis.Marker.Data.StartCondition, 
MetaData, TestRecord.EntryPoint, true
MetaData, TestRecord.RecordTime, 05/02/2019 13:26:53
MetaData, TestRecord.TestTarget, 150-300-50-20
MetaData, TestRecord.IterationIndex, 3
MetaData, TestRecord.Preservation, true
MetaData, TestRecord.Flag, 
MetaData, TestRecord.Remarks, bad
MetaData, TestRecord.LinkKey, 3af96371-24c6-49b0-acb0-edc6f24e94d9
Dimension1, 101, 101, 101, 101, 101, 101, 101, 101, 101, 101
Dimension2, 1, 1, 1, 1, 1, 1, 1, 1, 1, 1
DataName, VG, VD, VS, ID, IS, IG, absID, sqrtID, gm2, absIG
DataValue, -2, 3, 0, 2.2637000000000002E-11, 2.4160000000000002E-12, -2.2975000000000003E-11, 2.2637000000000002E-11, 4.7578356423903508E-06, 3.6266137956493133E-12, 2.2975000000000003E-11
DataValue, -1.9500000000000002, 3, 0, 2.174E-11, -1.1210000000000002E-12, -2.3118000000000002E-11, 2.174E-11, 4.6626172907499069E-06, 9.7320522363371222E-13, 2.3118000000000002E-11
DataValue, -1.9000000000000001, 3, 0, 2.1708E-11, -4.414E-12, -1.6269E-11, 2.1708E-11, 4.6591844779961223E-06, 4.4610938946862093E-12, 1.6269E-11
DataValue, -1.85, 3, 0, 1.9815E-11, -2.1460000000000003E-12, -1.4285E-11, 1.9815E-11, 4.4514042728109973E-06, 1.3060587489181188E-11, 1.4285E-11
DataValue, -1.8, 3, 0, 1.8471E-11, 5.4920000000000004E-12, -1.2083000000000002E-11, 1.8471E-11, 4.2977901298225349E-06, 9.6416863421243336E-12, 1.2083000000000002E-11
DataValue, -1.75, 3, 0, 1.7147E-11, -2.184E-12, -1.9714E-11, 1.7147E-11, 4.1408936233619913E-06, 3.4542556151749609E-12, 1.9714E-11
DataValue, -1.7000000000000002, 3, 0, 1.6908000000000002E-11, 1.16E-13, -1.7748000000000002E-11, 1.6908000000000002E-11, 4.1119338516080244E-06, 4.1092464025093966E-13, 1.7748000000000002E-11
DataValue, -1.6500000000000001, 3, 0, 1.7682E-11, 3.2070000000000004E-12, -1.2978E-11, 1.7682E-11, 4.2049970273473444E-06, 2.8230525216516189E-12, 1.2978E-11
DataValue, -1.6, 3, 0, 1.8318E-11, -1.7720000000000001E-12, -1.6276000000000002E-11, 1.8318E-11, 4.2799532707729419E-06, 3.9106480688082657E-12, 1.6276000000000002E-11
DataValue, -1.55, 3, 0, 1.6058E-11, -1.9E-12, -1.8172E-11, 1.6058E-11, 4.0072434415692788E-06, 2.3659874923639315E-13, 1.8172E-11
DataValue, -1.5, 3, 0, 1.7904000000000003E-11, 1.7370000000000002E-12, -1.8823000000000002E-11, 1.7904000000000003E-11, 4.2313118533145255E-06, 1.3184976906539963E-11, 1.8823000000000002E-11
DataValue, -1.4500000000000002, 3, 0, 1.91E-11, 1.5950000000000002E-12, -2.2659E-11, 1.91E-11, 4.3703546766824316E-06, 5.990456007895299E-13, 2.2659E-11
DataValue, -1.4000000000000001, 3, 0, 1.7255000000000003E-11, 2.6800000000000003E-12, -9.709E-12, 1.7255000000000003E-11, 4.1539138171127246E-06, 1.6190682112269091E-12, 9.709E-12
DataValue, -1.35, 3, 0, 1.8004E-11, 1.2060000000000001E-12, -1.8648E-11, 1.8004E-11, 4.2431120654538455E-06, 4.4052116404557909E-13, 1.8648E-11
DataValue, -1.3, 3, 0, 1.6708000000000002E-11, -4.712E-12, -1.2515000000000002E-11, 1.6708000000000002E-11, 4.0875420487133833E-06, 1.3066955940451572E-12, 1.2515000000000002E-11
DataValue, -1.25, 3, 0, 1.7047000000000002E-11, 2.0790000000000003E-12, -1.6599E-11, 1.7047000000000002E-11, 4.1288012788217363E-06, 1.702324069134014E-13, 1.6599E-11
DataValue, -1.2, 3, 0, 1.7047000000000002E-11, 6.4800000000000007E-13, -2.063E-11, 1.7047000000000002E-11, 4.1288012788217363E-06, 1.4334764872837596E-12, 2.063E-11
DataValue, -1.1500000000000001, 3, 0, 1.8050000000000002E-11, -2.812E-12, -1.0886E-11, 1.8050000000000002E-11, 4.248529157249601E-06, 5.6796304677473644E-13, 1.0886E-11
DataValue, -1.1, 3, 0, 1.7675000000000003E-11, -6.3000000000000009E-14, -2.1880000000000003E-11, 1.7675000000000003E-11, 4.2041646019155818E-06, 3.3873986794639322E-12, 2.1880000000000003E-11
DataValue, -1.05, 3, 0, 1.652E-11, 1.389E-12, -1.3787000000000002E-11, 1.652E-11, 4.0644802865803155E-06, 3.9767306954326093E-12, 1.3787000000000002E-11
DataValue, -1, 3, 0, 1.6038000000000003E-11, -4.136E-12, -1.8353E-11, 1.6038000000000003E-11, 4.0047471830316584E-06, 3.7167270803220732E-12, 1.8353E-11
DataValue, -0.95000000000000007, 3, 0, 1.499E-11, -3.2490000000000004E-12, -1.4088E-11, 1.499E-11, 3.8716921365211878E-06, 2.8887571595273035E-11, 1.4088E-11
DataValue, -0.9, 3, 0, 1.2022E-11, 2.022E-12, -5.5260000000000005E-12, 1.2022E-11, 3.4672755875470875E-06, 4.1035971481604226E-11, 5.5260000000000005E-12
DataValue, -0.85000000000000009, 3, 0, 1.0440000000000002E-11, 1.875E-12, -9.2680000000000013E-12, 1.0440000000000002E-11, 3.2310988842807025E-06, 2.3320620309056522E-11, 9.2680000000000013E-12
DataValue, -0.8, 3, 0, 1.5604000000000002E-11, 3.176E-12, -1.1082000000000001E-11, 1.5604000000000002E-11, 3.9501898688544072E-06, 3.8344056334088939E-11, 1.1082000000000001E-11
DataValue, -0.75, 3, 0, 1.4825E-11, 6.0000000000000007E-13, -1.7318E-11, 1.4825E-11, 3.8503246616356912E-06, 9.56249698388178E-13, 1.7318E-11
DataValue, -0.70000000000000007, 3, 0, 1.4841000000000003E-11, -8.4000000000000006E-13, -1.1246000000000001E-11, 1.4841000000000003E-11, 3.8524018481980826E-06, 8.17486895795125E-12, 1.1246000000000001E-11
DataValue, -0.65, 3, 0, 1.2705000000000001E-11, 5.3000000000000006E-13, -1.4872E-11, 1.2705000000000001E-11, 3.5644073841243235E-06, 1.1637172617021376E-13, 1.4872E-11
DataValue, -0.6, 3, 0, 1.5105000000000002E-11, -1.7730000000000002E-12, -1.2702000000000001E-11, 1.5105000000000002E-11, 3.8865151485617551E-06, 4.3205712522639355E-12, 1.2702000000000001E-11
DataValue, -0.55, 3, 0, 1.423E-11, -1.82E-13, -1.5396E-11, 1.423E-11, 3.772267222772003E-06, 3.6627535316655174E-12, 1.5396E-11
DataValue, -0.5, 3, 0, 1.3654000000000001E-11, 4.87E-13, -1.3905000000000001E-11, 1.3654000000000001E-11, 3.6951319326919846E-06, 2.9580372875467969E-12, 1.3905000000000001E-11
DataValue, -0.45, 3, 0, 1.2962E-11, -7.590000000000001E-13, -1.3585E-11, 1.2962E-11, 3.6002777670618694E-06, 3.7016074474275659E-15, 1.3585E-11
DataValue, -0.4, 3, 0, 1.3699000000000001E-11, 8.3600000000000007E-13, -1.3409000000000002E-11, 1.3699000000000001E-11, 3.7012160163924506E-06, 3.4502755717909871E-12, 1.3409000000000002E-11
DataValue, -0.35000000000000003, 3, 0, 1.4334000000000001E-11, 3.4600000000000004E-13, -1.1779000000000001E-11, 1.4334000000000001E-11, 3.7860269412670589E-06, 5.4088062695048135E-13, 1.1779000000000001E-11
DataValue, -0.3, 3, 0, 1.3160000000000001E-11, -2.3000000000000003E-13, -1.4116000000000002E-11, 1.3160000000000001E-11, 3.6276714294434112E-06, 8.0906315113100782E-13, 1.4116000000000002E-11
DataValue, -0.25, 3, 0, 1.3661000000000002E-11, 1.76E-13, -1.3074E-11, 1.3661000000000002E-11, 3.696079003484639E-06, 3.7134901255885546E-12, 1.3074E-11
DataValue, -0.2, 3, 0, 1.1799E-11, 1.2610000000000002E-12, -9.492E-12, 1.1799E-11, 3.4349672487521622E-06, 1.166351552670341E-12, 9.492E-12
DataValue, -0.15, 3, 0, 1.4471000000000002E-11, -5.0100000000000009E-13, -1.2461E-11, 1.4471000000000002E-11, 3.8040767605294194E-06, 6.7193645090398194E-12, 1.2461E-11
DataValue, -0.1, 3, 0, 1.3647000000000001E-11, -8.91E-13, -1.413E-11, 1.3647000000000001E-11, 3.6941846191006753E-06, 2.2043211780154427E-13, 1.413E-11
DataValue, -0.05, 3, 0, 1.4116000000000002E-11, -2.945E-12, -1.4426000000000002E-11, 1.4116000000000002E-11, 3.7571265616159383E-06, 3.5498207976276382E-11, 1.4426000000000002E-11
DataValue, 0, 3, 0, 1.8404E-11, -5.159E-12, -1.3123E-11, 1.8404E-11, 4.2899883449725129E-06, 2.519255398107872E-10, 1.3123E-11
DataValue, 0.05, 3, 0, 2.8562000000000004E-11, -1.5662000000000002E-11, -1.3066000000000001E-11, 2.8562000000000004E-11, 5.3443428033762954E-06, 1.968426140279354E-09, 1.3066000000000001E-11
DataValue, 0.1, 3, 0, 7.6155000000000007E-11, -6.1458000000000009E-11, -1.2061E-11, 7.6155000000000007E-11, 8.7266832187263457E-06, 1.1067147917741825E-08, 1.2061E-11
DataValue, 0.15, 3, 0, 2.51679E-10, -2.34956E-10, -1.1222E-11, 2.51679E-10, 1.5864394094953644E-05, 4.1081163795923738E-08, 1.1222E-11
DataValue, 0.2, 3, 0, 8.4072000000000007E-10, -8.0382E-10, -1.3950000000000001E-11, 8.4072000000000007E-10, 2.8995172011905709E-05, 1.0161560088887317E-07, 1.3950000000000001E-11
DataValue, 0.25, 3, 0, 2.27926E-09, -2.20674E-09, -1.1091000000000001E-11, 2.27926E-09, 4.7741596119107706E-05, 2.1792989611266784E-07, 1.1091000000000001E-11
DataValue, 0.3, 3, 0, 5.72718E-09, -5.66105E-09, -3.912E-12, 5.72718E-09, 7.5678134226472577E-05, 3.6111685820322446E-07, 3.912E-12
DataValue, 0.35000000000000003, 3, 0, 1.16283E-08, -1.1419499999999999E-08, -2.799E-12, 1.16283E-08, 0.00010783459556190676, 5.1939818950028725E-07, 2.799E-12
DataValue, 0.4, 3, 0, 2.18293E-08, -2.1677199999999997E-08, 2.6760000000000003E-12, 2.18293E-08, 0.0001477474196052168, 7.0741731956720358E-07, 2.6760000000000003E-12
DataValue, 0.45, 3, 0, 3.6841999999999993E-08, -3.6589799999999995E-08, 6.0300000000000008E-12, 3.6841999999999993E-08, 0.00019194269978303419, 8.3735779775418483E-07, 6.0300000000000008E-12
DataValue, 0.5, 3, 0, 5.7242799999999994E-08, -5.6934299999999995E-08, 8.591E-12, 5.7242799999999994E-08, 0.00023925467602536004, 9.5276224462012156E-07, 8.591E-12
DataValue, 0.55, 3, 0, 8.3840499999999989E-08, -8.3461199999999993E-08, 1.2604000000000001E-11, 8.3840499999999989E-08, 0.00028955224053700567, 1.0052889963278096E-06, 1.2604000000000001E-11
DataValue, 0.6, 3, 0, 1.15273E-07, -1.14275E-07, 2.0362000000000002E-11, 1.15273E-07, 0.00033951877709487589, 1.1024874785306093E-06, 2.0362000000000002E-11
DataValue, 0.65, 3, 0, 1.55671E-07, -1.55171E-07, 2.7527E-11, 1.55671E-07, 0.00039455164427486548, 1.2632620622916695E-06, 2.7527E-11
DataValue, 0.70000000000000007, 3, 0, 2.04226E-07, -2.03632E-07, 3.9609000000000004E-11, 2.04226E-07, 0.00045191370857720171, 1.3550877579383682E-06, 3.9609000000000004E-11
DataValue, 0.75, 3, 0, 2.6108E-07, -2.6037299999999997E-07, 5.3180000000000004E-11, 2.6108E-07, 0.0005109598810082843, 1.4002842354095191E-06, 5.3180000000000004E-11
DataValue, 0.8, 3, 0, 3.25182E-07, -3.24449E-07, 5.9968000000000009E-11, 3.25182E-07, 0.00057024731476789964, 1.4595786098226134E-06, 5.9968000000000009E-11
DataValue, 0.85000000000000009, 3, 0, 3.99137E-07, -3.98436E-07, 7.157E-11, 3.99137E-07, 0.00063177290223623869, 1.5523045725968561E-06, 7.157E-11
DataValue, 0.9, 3, 0, 4.82801E-07, -4.8185E-07, 9.2962000000000012E-11, 4.82801E-07, 0.00069483883023331388, 1.6264757934528325E-06, 9.2962000000000012E-11
DataValue, 0.95000000000000007, 3, 0, 5.76546E-07, -5.7568E-07, 1.16955E-10, 5.76546E-07, 0.00075930626232107422, 1.6858240914149397E-06, 1.16955E-10
DataValue, 1, 3, 0, 6.80094E-07, -6.79258E-07, 1.30691E-10, 6.80094E-07, 0.0008246781190258415, 1.7399148950138456E-06, 1.30691E-10
DataValue, 1.05, 3, 0, 7.94259E-07, -7.933E-07, 1.5730100000000002E-10, 7.94259E-07, 0.00089121209596818192, 1.7934377269158477E-06, 1.5730100000000002E-10
DataValue, 1.1, 3, 0, 9.1890899999999993E-07, -9.17947E-07, 2.0647700000000002E-10, 9.1890899999999993E-07, 0.00095859741289031238, 1.8358834198355347E-06, 2.0647700000000002E-10
DataValue, 1.1500000000000001, 3, 0, 1.054127E-06, -1.053036E-06, 2.67633E-10, 1.054127E-06, 0.0010267068715071501, 1.8168832938983132E-06, 2.67633E-10
DataValue, 1.2, 3, 0, 1.1955E-06, -1.1940000000000001E-06, 2.8992700000000003E-10, 1.1955E-06, 0.0010933892262136114, 1.8640438642521144E-06, 2.8992700000000003E-10
DataValue, 1.25, 3, 0, 1.3531200000000001E-06, -1.35291E-06, 3.5167700000000005E-10, 1.3531200000000001E-06, 0.0011632368632398134, 1.9806043078398745E-06, 3.5167700000000005E-10
DataValue, 1.3, 3, 0, 1.5230600000000003E-06, -1.5228100000000001E-06, 4.40698E-10, 1.5230600000000003E-06, 0.0012341231705141915, 2.0281291826608918E-06, 4.40698E-10
DataValue, 1.35, 3, 0, 1.70472E-06, -1.7043700000000002E-06, 4.9895700000000008E-10, 1.70472E-06, 0.0013056492637764554, 2.0618757197613338E-06, 4.9895700000000008E-10
DataValue, 1.4000000000000001, 3, 0, 1.8981E-06, -1.89797E-06, 5.89575E-10, 1.8981E-06, 0.001377715500384604, 2.0999689546853268E-06, 5.89575E-10
DataValue, 1.4500000000000002, 3, 0, 2.1041300000000003E-06, -2.10432E-06, 7.7598100000000005E-10, 2.1041300000000003E-06, 0.0014505619600692693, 2.1378426131733351E-06, 7.7598100000000005E-10
DataValue, 1.5, 3, 0, 2.32236E-06, -2.3222000000000004E-06, 8.5905800000000012E-10, 2.32236E-06, 0.00152392913221055, 2.1764370421320346E-06, 8.5905800000000012E-10
DataValue, 1.55, 3, 0, 2.5538900000000004E-06, -2.55422E-06, 1.045468E-09, 2.5538900000000004E-06, 0.0015980894843531136, 2.1965381798761804E-06, 1.045468E-09
DataValue, 1.6, 3, 0, 2.7960400000000003E-06, -2.7960300000000004E-06, 1.19067E-09, 2.7960400000000003E-06, 0.001672136358076099, 2.2012745302977648E-06, 1.19067E-09
DataValue, 1.6500000000000001, 3, 0, 3.0501100000000005E-06, -3.0505800000000004E-06, 1.43509E-09, 3.0501100000000005E-06, 0.0017464564122817382, 2.2586438337425857E-06, 1.43509E-09
DataValue, 1.7000000000000002, 3, 0, 3.3212300000000005E-06, -3.3223800000000005E-06, 1.64379E-09, 3.3212300000000005E-06, 0.0018224242096723804, 2.3297588522695555E-06, 1.64379E-09
DataValue, 1.75, 3, 0, 3.6065500000000002E-06, -3.6080000000000004E-06, 1.96532E-09, 3.6065500000000002E-06, 0.0018990918882455373, 2.362237617808191E-06, 1.96532E-09
DataValue, 1.8, 3, 0, 3.90505E-06, -3.9060300000000008E-06, 2.37732E-09, 3.90505E-06, 0.0019761199356314384, 2.3949333031259431E-06, 2.37732E-09
DataValue, 1.85, 3, 0, 4.21829E-06, -4.2194500000000007E-06, 2.47417E-09, 4.21829E-06, 0.0020538476087577674, 2.4161027778796702E-06, 2.47417E-09
DataValue, 1.9000000000000001, 3, 0, 4.54354E-06, -4.54548E-06, 3.03123E-09, 4.54354E-06, 0.0021315581155577253, 2.4380036550062058E-06, 3.03123E-09
DataValue, 1.9500000000000002, 3, 0, 4.88405E-06, -4.8864900000000007E-06, 3.54635E-09, 4.88405E-06, 0.0022099886877538538, 2.4656666962765773E-06, 3.54635E-09
DataValue, 2, 3, 0, 5.23761E-06, -5.2404500000000008E-06, 3.76491E-09, 5.23761E-06, 0.002288582530738186, 2.4853325690859375E-06, 3.76491E-09
DataValue, 2.05, 3, 0, 5.60571E-06, -5.6096500000000006E-06, 4.68303E-09, 5.60571E-06, 0.0023676380635561677, 2.5170661417342297E-06, 4.68303E-09
DataValue, 2.1, 3, 0, 5.98896E-06, -5.9924900000000008E-06, 5.04956E-09, 5.98896E-06, 0.002447235174640966, 2.5408273289433981E-06, 5.04956E-09
DataValue, 2.15, 3, 0, 6.3859200000000007E-06, -6.3909700000000007E-06, 5.77842E-09, 6.3859200000000007E-06, 0.0025270377915654527, 2.5595381915675925E-06, 5.77842E-09
DataValue, 2.2, 3, 0, 6.7976000000000008E-06, -6.8036200000000009E-06, 6.65966E-09, 6.7976000000000008E-06, 0.0026072207424765554, 2.5932550827467622E-06, 6.65966E-09
DataValue, 2.25, 3, 0, 7.22574E-06, -7.231840000000001E-06, 7.55363E-09, 7.22574E-06, 0.0026880736597050311, 2.6185324746462707E-06, 7.55363E-09
