
SetupTitle, Transfer lin
PrimitiveTest, I/V Sweep
TestParameter, Context.MainFrame, 4155C
TestParameter, Channel.UnitType, SMU, SMU, SMU
TestParameter, Channel.Unit, SMU3:MP, SMU1:MP, SMU4:MP
TestParameter, Channel.IName, ID, IS, IG
TestParameter, Channel.VName, VD, VS, VG
TestParameter, Channel.Mode, V, COMMON, V
TestParameter, Channel.Func, CONST, CONST, VAR1
TestParameter, Channel.Index, 
TestParameter, Channel.Time, 
TestParameter, Measurement.Port.Unit, SMU3:MP, SMU1:MP, SMU4:MP
TestParameter, Measurement.Port.SeriesResistor, NONE, NONE, NONE
TestParameter, Measurement.Port.Filter, ON, ON, ON
TestParameter, Measurement.Primary.Locus, Double
TestParameter, Measurement.Primary.Scale, LINEAR
TestParameter, Measurement.Primary.Start, -2
TestParameter, Measurement.Primary.Stop, 3
TestParameter, Measurement.Primary.Step, 0.05
TestParameter, Measurement.Primary.Compliance, 0.001
TestParameter, Measurement.Primary.PowerCompliance, 0
TestParameter, Measurement.Aborting.Condition, CONTINUE AT ANY
TestParameter, Measurement.PostOutput.Value, START
TestParameter, Measurement.PostOutput.Retention, OFF
TestParameter, Measurement.Bias.Source, 0.1, 0, -2
TestParameter, Measurement.Bias.Compliance, 0.001, 0.1, 0.001
TestParameter, Measurement.Monitor.Unit, SMU3:MP, SMU1:MP, SMU4:MP
TestParameter, Measurement.Monitor.Adc, HR ADC, HR ADC, HR ADC
TestParameter, Measurement.Monitor.RangingMode, AUTO, AUTO, AUTO
TestParameter, Measurement.Monitor.RangeBoundary, , , 
TestParameter, Measurement.Monitor.RangeRating, BY FULL RANGE, BY FULL RANGE, BY FULL RANGE
TestParameter, Measurement.Monitor.RangeRatingCoeff, 50, 50, 50
TestParameter, Measurement.Timing.Hold, 0.5
TestParameter, Measurement.Timing.Delay, 0.05
TestParameter, Measurement.Adc.HighResolution.AutoZero, OFF
TestParameter, Measurement.Adc.HighResolution.Mode, AUTO
TestParameter, Measurement.Adc.HighResolution.Coeff, 1
TestParameter, Measurement.Ag16440ASelector.SemiconductorRelay.Channel1, DEFAULT
TestParameter, Measurement.Ag16440ASelector.SemiconductorRelay.Channel3, DEFAULT
TestParameter, Function.User.Name, absID, sqrtID, gm2, absIG
TestParameter, Function.User.Unit, A, A, A/V, A
TestParameter, Function.User.Definition, abs(ID), sqrt(abs(ID)), (delta(sqrtID)/delta(VG))^2, abs(IG)
TestParameter, Output.Graph.Enabled, true
TestParameter, Output.Graph.XAxis.Data, VG
TestParameter, Output.Graph.XAxis.Scale, Linear
TestParameter, Output.Graph.XAxis.Left, -5
TestParameter, Output.Graph.XAxis.Right, 7
TestParameter, Output.Graph.YAxis.Data, ID, absIG, gm2
TestParameter, Output.Graph.YAxis.Scale, Log, Log, Linear
TestParameter, Output.Graph.YAxis.Bottom, 1E-14, 1E-14, 0
TestParameter, Output.Graph.YAxis.Top, 0.01, 0.01, 1E-05
TestParameter, Output.Graph.YAxis.Group, , , 
TestParameter, Output.List.Data, VG, IG, VD, ID, VS, IS, sqrtID, gm2, absIG
TestParameter, AutoAnalysis.Interpolation, false
TestParameter, AutoAnalysis.Line1.Enabled, false
TestParameter, AutoAnalysis.Line1.Type, 1
TestParameter, AutoAnalysis.Line1.Fix, True
TestParameter, AutoAnalysis.Line1.YAxis, 0
TestParameter, AutoAnalysis.Line1.Point1.Type, 0
TestParameter, AutoAnalysis.Line1.Point1.XY.X, 
TestParameter, AutoAnalysis.Line1.Point1.XY.Y, 
TestParameter, AutoAnalysis.Line1.Point1.Data.Var, 
TestParameter, AutoAnalysis.Line1.Point1.Data.Condition, 
TestParameter, AutoAnalysis.Line1.Point1.Data.Start, false
TestParameter, AutoAnalysis.Line1.Point1.Data.StartVar, 
TestParameter, AutoAnalysis.Line1.Point1.Data.StartCondition, 
TestParameter, AutoAnalysis.Line1.Point2.Type, 0
TestParameter, AutoAnalysis.Line1.Point2.XY.X, 
TestParameter, AutoAnalysis.Line1.Point2.XY.Y, 
TestParameter, AutoAnalysis.Line1.Point2.Data.Var, 
TestParameter, AutoAnalysis.Line1.Point2.Data.Condition, 
TestParameter, AutoAnalysis.Line1.Point2.Data.Start, false
TestParameter, AutoAnalysis.Line1.Point2.Data.StartVar, 
TestParameter, AutoAnalysis.Line1.Point2.Data.StartCondition, 
TestParameter, AutoAnalysis.Line1.GradientExpr, 0
TestParameter, AutoAnalysis.Line2.Enabled, false
TestParameter, AutoAnalysis.Line2.Type, 1
TestParameter, AutoAnalysis.Line2.Fix, True
TestParameter, AutoAnalysis.Line2.YAxis, 0
TestParameter, AutoAnalysis.Line2.Point1.Type, 0
TestParameter, AutoAnalysis.Line2.Point1.XY.X, 
TestParameter, AutoAnalysis.Line2.Point1.XY.Y, 
TestParameter, AutoAnalysis.Line2.Point1.Data.Var, 
TestParameter, AutoAnalysis.Line2.Point1.Data.Condition, 
TestParameter, AutoAnalysis.Line2.Point1.Data.Start, false
TestParameter, AutoAnalysis.Line2.Point1.Data.StartVar, 
TestParameter, AutoAnalysis.Line2.Point1.Data.StartCondition, 
TestParameter, AutoAnalysis.Line2.Point2.Type, 0
TestParameter, AutoAnalysis.Line2.Point2.XY.X, 
TestParameter, AutoAnalysis.Line2.Point2.XY.Y, 
TestParameter, AutoAnalysis.Line2.Point2.Data.Var, 
TestParameter, AutoAnalysis.Line2.Point2.Data.Condition, 
TestParameter, AutoAnalysis.Line2.Point2.Data.Start, false
TestParameter, AutoAnalysis.Line2.Point2.Data.StartVar, 
TestParameter, AutoAnalysis.Line2.Point2.Data.StartCondition, 
TestParameter, AutoAnalysis.Line2.GradientExpr, 0
TestParameter, AutoAnalysis.Marker.Enabled, false
TestParameter, AutoAnalysis.Marker.Data.Var, 
TestParameter, AutoAnalysis.Marker.Data.Condition, 
TestParameter, AutoAnalysis.Marker.Data.Start, false
TestParameter, AutoAnalysis.Marker.Data.StartVar, 
TestParameter, AutoAnalysis.Marker.Data.StartCondition, 
MetaData, TestRecord.EntryPoint, true
MetaData, TestRecord.RecordTime, 05/02/2019 11:11:13
MetaData, TestRecord.TestTarget, 250-300-20-5
MetaData, TestRecord.IterationIndex, 1
MetaData, TestRecord.Preservation, true
MetaData, TestRecord.Flag, 
MetaData, TestRecord.Remarks, bad
MetaData, TestRecord.LinkKey, d95e85cc-d885-4bb1-904e-973c309f5425
Dimension1, 202, 202, 202, 202, 202, 202, 202, 202, 202, 202
Dimension2, 1, 1, 1, 1, 1, 1, 1, 1, 1, 1
DataName, VG, VD, VS, ID, IS, IG, absID, sqrtID, gm2, absIG
DataValue, -2, 0.1, 0, 1.1605000000000002E-11, 9.3640000000000009E-12, -3.1344E-11, 1.1605000000000002E-11, 3.4066112193791648E-06, 3.4142641521144942E-12, 3.1344E-11
DataValue, -1.9500000000000002, 0.1, 0, 1.2243000000000001E-11, 4.8420000000000006E-12, -1.7603000000000002E-11, 1.2243000000000001E-11, 3.4989998571020265E-06, 4.9236745572774207E-13, 1.7603000000000002E-11
DataValue, -1.9000000000000001, 0.1, 0, 1.2088000000000001E-11, 9.325E-12, -2.0232000000000002E-11, 1.2088000000000001E-11, 3.4767801195934151E-06, 2.6200143513208109E-11, 2.0232000000000002E-11
DataValue, -1.85, 0.1, 0, 8.9230000000000015E-12, 6.2570000000000005E-12, -1.9065E-11, 8.9230000000000015E-12, 2.9871390995398927E-06, 9.4491883523512741E-12, 1.9065E-11
DataValue, -1.8, 0.1, 0, 1.0045000000000001E-11, 7.501E-12, -8.425000000000001E-12, 1.0045000000000001E-11, 3.169384798348096E-06, 8.6916039060601668E-14, 8.425000000000001E-12
DataValue, -1.75, 0.1, 0, 9.1000000000000012E-12, 8.385E-12, -1.9769E-11, 9.1000000000000012E-12, 3.0166206257996713E-06, 3.0282195333999148E-11, 1.9769E-11
DataValue, -1.7000000000000002, 0.1, 0, 1.3836E-11, 7.478E-12, -1.8766E-11, 1.3836E-11, 3.7196774053672987E-06, 2.8685152860830133E-13, 1.8766E-11
DataValue, -1.6500000000000001, 0.1, 0, 9.4260000000000012E-12, 2E-12, -1.8672000000000003E-11, 9.4260000000000012E-12, 3.0701791478674339E-06, 1.2408056496717037E-10, 1.8672000000000003E-11
DataValue, -1.6, 0.1, 0, 6.7900000000000008E-12, 6.6280000000000004E-12, -1.6796E-11, 6.7900000000000008E-12, 2.6057628441590766E-06, 2.5399303706503658E-13, 1.6796E-11
DataValue, -1.55, 0.1, 0, 9.738E-12, 2.299E-12, -1.9202E-11, 9.738E-12, 3.1205768697470027E-06, 1.091582807820154E-11, 1.9202E-11
DataValue, -1.5, 0.1, 0, 8.621E-12, 9.018E-12, -1.3586000000000001E-11, 8.621E-12, 2.9361539469176339E-06, 9.3848699797047527E-13, 1.3586000000000001E-11
DataValue, -1.4500000000000002, 0.1, 0, 1.0352000000000001E-11, 7.474E-12, -2.0176000000000003E-11, 1.0352000000000001E-11, 3.217452408350433E-06, 2.1900164442041652E-13, 2.0176000000000003E-11
DataValue, -1.4000000000000001, 0.1, 0, 8.898E-12, 3.0760000000000002E-12, -1.4505000000000001E-11, 8.898E-12, 2.9829515584400627E-06, 2.4280314375042423E-11, 1.4505000000000001E-11
DataValue, -1.35, 0.1, 0, 7.424E-12, 3.6480000000000006E-12, -1.4539000000000002E-11, 7.424E-12, 2.7247018185482243E-06, 1.5381987682596866E-11, 1.4539000000000002E-11
DataValue, -1.3, 0.1, 0, 6.7120000000000005E-12, 1.258E-12, -1.0688000000000001E-11, 6.7120000000000005E-12, 2.5907527863538043E-06, 8.7148554898768245E-14, 1.0688000000000001E-11
DataValue, -1.25, 0.1, 0, 7.2640000000000006E-12, 4.92E-12, -1.6389000000000002E-11, 7.2640000000000006E-12, 2.6951808844676826E-06, 1.0789286792725124E-12, 1.6389000000000002E-11
DataValue, -1.2, 0.1, 0, 7.2610000000000007E-12, 1.011E-12, -1.1256000000000001E-11, 7.2610000000000007E-12, 2.6946242780766304E-06, 7.0967745262650555E-13, 1.1256000000000001E-11
DataValue, -1.1500000000000001, 0.1, 0, 6.8170000000000005E-12, 5.921E-12, -1.0732E-11, 6.8170000000000005E-12, 2.6109385285755007E-06, 2.378847927900145E-12, 1.0732E-11
DataValue, -1.1, 0.1, 0, 8.1160000000000014E-12, 4.01E-12, -1.4528000000000001E-11, 8.1160000000000014E-12, 2.848859420891105E-06, 1.5071615682629355E-12, 1.4528000000000001E-11
DataValue, -1.05, 0.1, 0, 6.1910000000000006E-12, 2.603E-12, -7.455E-12, 6.1910000000000006E-12, 2.4881720197767677E-06, 5.73379107540919E-12, 7.455E-12
DataValue, -1, 0.1, 0, 6.8090000000000006E-12, 3.4330000000000004E-12, -1.1732E-11, 6.8090000000000006E-12, 2.6094060626893626E-06, 5.8272295597213676E-12, 1.1732E-11
DataValue, -0.95000000000000007, 0.1, 0, 5.048E-12, 1.3070000000000002E-12, 4.8100000000000007E-13, 5.048E-12, 2.2467754671973789E-06, 2.8890321528853673E-11, 4.8100000000000007E-13
DataValue, -0.9, 0.1, 0, 9.9030000000000009E-12, 7.068E-12, -6.842E-12, 9.9030000000000009E-12, 3.1469032396945415E-06, 3.6252449083202918E-10, 6.842E-12
DataValue, -0.85000000000000009, 0.1, 0, 1.7229000000000003E-11, -5E-14, -9.337E-12, 1.7229000000000003E-11, 4.1507830586529094E-06, 1.422215510516345E-10, 9.337E-12
DataValue, -0.8, 0.1, 0, 1.8831E-11, -7.277E-12, -1.8308E-11, 1.8831E-11, 4.3394700137228741E-06, 1.2014807868951262E-10, 1.8308E-11
DataValue, -0.75, 0.1, 0, 2.753E-11, -1.7781E-11, -1.1056000000000001E-11, 2.753E-11, 5.246903848937962E-06, 4.4159450805278773E-10, 1.1056000000000001E-11
DataValue, -0.70000000000000007, 0.1, 0, 4.1485000000000006E-11, -3.6452000000000005E-11, -1.0903E-11, 4.1485000000000006E-11, 6.4408850323538619E-06, 7.4498217726683089E-10, 1.0903E-11
DataValue, -0.65, 0.1, 0, 6.3622E-11, -6.1162E-11, -5.8540000000000007E-12, 6.3622E-11, 7.9763400128128942E-06, 1.5815258351652161E-09, 5.8540000000000007E-12
DataValue, -0.6, 0.1, 0, 1.08529E-10, -9.2653000000000011E-11, -6.2670000000000007E-12, 1.08529E-10, 1.0417725279541595E-05, 2.6515515775027537E-09, 6.2670000000000007E-12
DataValue, -0.55, 0.1, 0, 1.7228300000000002E-10, -1.54313E-10, -4.8390000000000007E-12, 1.7228300000000002E-10, 1.3125661888072541E-05, 3.8510985744477829E-09, 4.8390000000000007E-12
DataValue, -0.5, 0.1, 0, 2.7633900000000004E-10, -2.54326E-10, -9.528E-12, 2.7633900000000004E-10, 1.6623447295913084E-05, 6.2657587915325248E-09, 9.528E-12
DataValue, -0.45, 0.1, 0, 4.4273700000000004E-10, -4.0632000000000005E-10, -5.5310000000000006E-12, 4.4273700000000004E-10, 2.1041316498736481E-05, 8.81755507891352E-09, 5.5310000000000006E-12
DataValue, -0.4, 0.1, 0, 6.76709E-10, -6.35907E-10, -1.59E-12, 6.76709E-10, 2.6013631042205547E-05, 9.70883728865132E-09, 1.59E-12
DataValue, -0.35000000000000003, 0.1, 0, 9.5448E-10, -8.5947600000000008E-10, -6.04E-12, 9.5448E-10, 3.0894659732711088E-05, 1.5870371421017586E-08, 6.04E-12
DataValue, -0.3, 0.1, 0, 1.49084E-09, -1.35629E-09, -3.3780000000000003E-12, 1.49084E-09, 3.8611397281113775E-05, 2.8875567778194829E-08, 3.3780000000000003E-12
DataValue, -0.25, 0.1, 0, 2.29321E-09, -2.21733E-09, -4.173E-12, 2.29321E-09, 4.7887472265718933E-05, 4.0150716231343216E-08, 4.173E-12
DataValue, -0.2, 0.1, 0, 3.43971E-09, -3.34281E-09, -1.4700000000000002E-12, 3.43971E-09, 5.8649040912874272E-05, 4.8450099182029778E-08, 1.4700000000000002E-12
DataValue, -0.15, 0.1, 0, 4.88585E-09, -4.76164E-09, -1.6030000000000001E-12, 4.88585E-09, 6.9898855498498689E-05, 5.5845715149808346E-08, 1.6030000000000001E-12
DataValue, -0.1, 0.1, 0, 6.77012E-09, -6.59928E-09, 7.6400000000000008E-13, 6.77012E-09, 8.2280738936886077E-05, 6.2818986352731218E-08, 7.6400000000000008E-13
DataValue, -0.05, 0.1, 0, 9.01789E-09, -8.78251E-09, -1.889E-12, 9.01789E-09, 9.4962571574278674E-05, 5.2078164161611475E-08, 1.889E-12
DataValue, 0, 0.1, 0, 1.1046299999999998E-08, -1.0584699999999999E-08, 7.02E-13, 1.1046299999999998E-08, 0.0001051013796293845, 5.4298145244893607E-08, 7.02E-13
DataValue, 0.05, 0.1, 0, 1.39865E-08, -1.3717899999999999E-08, 5.0500000000000007E-13, 1.39865E-08, 0.00011826453399054173, 6.96756674876851E-08, 5.0500000000000007E-13
DataValue, 0.1, 0.1, 0, 1.72916E-08, -1.7116699999999997E-08, -1.1830000000000001E-12, 1.72916E-08, 0.00013149752849388462, 7.0469181082023232E-08, 1.1830000000000001E-12
DataValue, 0.15, 0.1, 0, 2.0970099999999997E-08, -2.0712999999999998E-08, 2.436E-12, 2.0970099999999997E-08, 0.00014481056591285043, 6.584864183619003E-08, 2.436E-12
DataValue, 0.2, 0.1, 0, 2.4698799999999997E-08, -2.4450899999999996E-08, -6.4900000000000006E-13, 2.4698799999999997E-08, 0.00015715851870006919, 5.9472341806808872E-08, 6.4900000000000006E-13
DataValue, 0.25, 0.1, 0, 2.8627799999999996E-08, -2.8272299999999996E-08, 3.4790000000000004E-12, 2.8627799999999996E-08, 0.00016919751771228794, 5.5718953587930961E-08, 3.4790000000000004E-12
DataValue, 0.3, 0.1, 0, 3.2675399999999995E-08, -3.23579E-08, 2.265E-12, 3.2675399999999995E-08, 0.00018076338124741967, 4.9017431380205485E-08, 2.265E-12
DataValue, 0.35000000000000003, 0.1, 0, 3.6609999999999995E-08, -3.6309E-08, 7.3670000000000012E-12, 3.6609999999999995E-08, 0.00019133739833080202, 4.9098930666802805E-08, 7.3670000000000012E-12
DataValue, 0.4, 0.1, 0, 4.1177199999999996E-08, -4.0697699999999995E-08, 1.931E-12, 4.1177199999999996E-08, 0.0002029216597606081, 4.7549056115153761E-08, 1.931E-12
DataValue, 0.45, 0.1, 0, 4.543E-08, -4.5057099999999997E-08, 3.0270000000000003E-12, 4.543E-08, 0.00021314314438892939, 4.0701980977043031E-08, 3.0270000000000003E-12
DataValue, 0.5, 0.1, 0, 4.9772E-08, -4.9516299999999995E-08, 5.451E-12, 4.9772E-08, 0.00022309639172339834, 3.9070582765378884E-08, 5.451E-12
DataValue, 0.55, 0.1, 0, 5.4246799999999992E-08, -5.3872999999999995E-08, 6.6900000000000008E-12, 5.4246799999999992E-08, 0.00023290942445508724, 3.966779918901394E-08, 6.6900000000000008E-12
DataValue, 0.6, 0.1, 0, 5.90554E-08, -5.8595799999999993E-08, 4.741E-12, 5.90554E-08, 0.00024301316836747755, 3.6416225341968776E-08, 4.741E-12
DataValue, 0.65, 0.1, 0, 6.350019999999999E-08, -6.28833E-08, 3.808E-12, 6.350019999999999E-08, 0.00025199246020466564, 3.3154528823135246E-08, 3.808E-12
DataValue, 0.70000000000000007, 0.1, 0, 6.8236699999999988E-08, -6.7696999999999987E-08, 5.6260000000000005E-12, 6.8236699999999988E-08, 0.00026122155347520616, 3.3739168256204566E-08, 5.6260000000000005E-12
DataValue, 0.75, 0.1, 0, 7.3094899999999988E-08, -7.2283999999999987E-08, 1.2772000000000001E-11, 7.3094899999999988E-08, 0.000270360685011708, 3.2553105917002115E-08, 1.2772000000000001E-11
DataValue, 0.8, 0.1, 0, 7.7988399999999992E-08, -7.7531699999999993E-08, 3.522E-12, 7.7988399999999992E-08, 0.00027926403277185553, 3.2665271290289664E-08, 3.522E-12
DataValue, 0.85000000000000009, 0.1, 0, 8.3194299999999987E-08, -8.2829599999999986E-08, 7.2160000000000008E-12, 8.3194299999999987E-08, 0.00028843422127063908, 3.1445705144179948E-08, 7.2160000000000008E-12
DataValue, 0.9, 0.1, 0, 8.8207199999999988E-08, -8.76699E-08, 1.5402E-11, 8.8207199999999988E-08, 0.00029699696968151038, 3.2321732343486733E-08, 1.5402E-11
DataValue, 0.95000000000000007, 0.1, 0, 9.3888599999999993E-08, -9.2818699999999989E-08, 1.4018000000000001E-11, 9.3888599999999993E-08, 0.00030641246710928717, 3.2330943160419906E-08, 1.4018000000000001E-11
DataValue, 1, 0.1, 0, 9.9210999999999988E-08, -9.8201699999999992E-08, 8.154000000000001E-12, 9.9210999999999988E-08, 0.00031497777699386983, 2.900562028399539E-08, 8.154000000000001E-12
DataValue, 1.05, 0.1, 0, 1.0461569999999999E-07, -1.0368689999999999E-07, 7.427E-12, 1.0461569999999999E-07, 0.00032344350356747003, 1.9297371520586797E-08, 7.427E-12
DataValue, 1.1, 0.1, 0, 1.0815499999999999E-07, -1.0778389999999999E-07, 1.2763000000000001E-11, 1.0815499999999999E-07, 0.00032886927494066694, 1.8920692673399874E-08, 1.2763000000000001E-11
DataValue, 1.1500000000000001, 0.1, 0, 1.13703E-07, -1.11394E-07, 1.7079000000000002E-11, 1.13703E-07, 0.00033719875444609813, 2.2687602394022178E-08, 1.7079000000000002E-11
DataValue, 1.2, 0.1, 0, 1.18289E-07, -1.17603E-07, 1.2504000000000001E-11, 1.18289E-07, 0.00034393167926203015, 1.655217429298514E-08, 1.2504000000000001E-11
DataValue, 1.25, 0.1, 0, 1.22545E-07, -1.21838E-07, 1.5284E-11, 1.22545E-07, 0.00035006427981157975, 2.5383448338510236E-08, 1.5284E-11
DataValue, 1.3, 0.1, 0, 1.29502E-07, -1.2893E-07, 1.5323000000000002E-11, 1.29502E-07, 0.00035986386314827446, 3.0885002762786166E-08, 1.5323000000000002E-11
DataValue, 1.35, 0.1, 0, 1.35158E-07, -1.34257E-07, 2.2889000000000002E-11, 1.35158E-07, 0.00036763840931001757, 2.070354172877445E-08, 2.2889000000000002E-11
DataValue, 1.4000000000000001, 0.1, 0, 1.40065E-07, -1.3946E-07, 2.2609E-11, 1.40065E-07, 0.00037425258850140233, 2.1246531774895563E-08, 2.2609E-11
DataValue, 1.4500000000000002, 0.1, 0, 1.46088E-07, -1.45216E-07, 2.0750000000000003E-11, 1.46088E-07, 0.00038221459940719166, 2.3270869991366212E-08, 2.0750000000000003E-11
DataValue, 1.5, 0.1, 0, 1.51716E-07, -1.49957E-07, 2.7296000000000003E-11, 1.51716E-07, 0.00038950738118808482, 2.0750015213358102E-08, 2.7296000000000003E-11
DataValue, 1.55, 0.1, 0, 1.57307E-07, -1.5673799999999998E-07, 2.7309000000000002E-11, 1.57307E-07, 0.00039661946497871229, 1.5802927129197213E-08, 2.7309000000000002E-11
DataValue, 1.6, 0.1, 0, 1.61667E-07, -1.6080099999999999E-07, 3.8032E-11, 1.61667E-07, 0.00040207835057361641, 1.544907762114397E-08, 3.8032E-11
DataValue, 1.6500000000000001, 0.1, 0, 1.67321E-07, -1.6663599999999998E-07, 3.5657E-11, 1.67321E-07, 0.00040904889683264029, 2.0353183667433887E-08, 3.5657E-11
DataValue, 1.7000000000000002, 0.1, 0, 1.73343E-07, -1.72505E-07, 3.9303E-11, 1.73343E-07, 0.00041634480902252163, 1.8848056840199951E-08, 3.9303E-11
DataValue, 1.75, 0.1, 0, 1.78741E-07, -1.77572E-07, 4.4220000000000003E-11, 1.78741E-07, 0.00042277771937508722, 1.9523119640413488E-08, 4.4220000000000003E-11
DataValue, 1.8, 0.1, 0, 1.8517299999999999E-07, -1.8379E-07, 5.0586E-11, 1.8517299999999999E-07, 0.0004303173247732422, 1.6214137311980018E-08, 5.0586E-11
DataValue, 1.85, 0.1, 0, 1.8967E-07, -1.89296E-07, 5.0973000000000006E-11, 1.8967E-07, 0.00043551119388598959, 1.5666852800165979E-08, 5.0973000000000006E-11
DataValue, 1.9000000000000001, 0.1, 0, 1.96102E-07, -1.95696E-07, 4.8563000000000005E-11, 1.96102E-07, 0.00044283405469769372, 2.1315718253303208E-08, 4.8563000000000005E-11
DataValue, 1.9500000000000002, 0.1, 0, 2.026E-07, -2.0209E-07, 6.5483E-11, 2.026E-07, 0.000450111097397076, 2.1271611577848426E-08, 6.5483E-11
DataValue, 2, 0.1, 0, 2.09232E-07, -2.08371E-07, 7.1804000000000009E-11, 2.09232E-07, 0.000457418845261102, 1.8455015248385179E-08, 7.1804000000000009E-11
DataValue, 2.05, 0.1, 0, 2.15014E-07, -2.14758E-07, 8.2241E-11, 2.15014E-07, 0.00046369602111728326, 2.186754015182739E-08, 8.2241E-11
DataValue, 2.1, 0.1, 0, 2.22979E-07, -2.22471E-07, 9.4188000000000009E-11, 2.22979E-07, 0.00047220652261484064, 2.46406657165733E-08, 9.4188000000000009E-11
