
SetupTitle, Transfer sat
PrimitiveTest, I/V Sweep
TestParameter, Context.MainFrame, 4155C
TestParameter, Channel.UnitType, SMU, SMU, SMU
TestParameter, Channel.Unit, SMU3:MP, SMU1:MP, SMU4:MP
TestParameter, Channel.IName, ID, IS, IG
TestParameter, Channel.VName, VD, VS, VG
TestParameter, Channel.Mode, V, COMMON, V
TestParameter, Channel.Func, CONST, CONST, VAR1
TestParameter, Channel.Index, 
TestParameter, Channel.Time, 
TestParameter, Measurement.Port.Unit, SMU3:MP, SMU1:MP, SMU4:MP
TestParameter, Measurement.Port.SeriesResistor, NONE, NONE, NONE
TestParameter, Measurement.Port.Filter, ON, ON, ON
TestParameter, Measurement.Primary.Locus, Double
TestParameter, Measurement.Primary.Scale, LINEAR
TestParameter, Measurement.Primary.Start, -2
TestParameter, Measurement.Primary.Stop, 3
TestParameter, Measurement.Primary.Step, 0.05
TestParameter, Measurement.Primary.Compliance, 0.001
TestParameter, Measurement.Primary.PowerCompliance, 0
TestParameter, Measurement.Aborting.Condition, CONTINUE AT ANY
TestParameter, Measurement.PostOutput.Value, START
TestParameter, Measurement.PostOutput.Retention, OFF
TestParameter, Measurement.Bias.Source, 5, 0, -2
TestParameter, Measurement.Bias.Compliance, 0.001, 0.1, 0.001
TestParameter, Measurement.Monitor.Unit, SMU3:MP, SMU1:MP, SMU4:MP
TestParameter, Measurement.Monitor.Adc, HR ADC, HR ADC, HR ADC
TestParameter, Measurement.Monitor.RangingMode, AUTO, AUTO, AUTO
TestParameter, Measurement.Monitor.RangeBoundary, , , 
TestParameter, Measurement.Monitor.RangeRating, BY FULL RANGE, BY FULL RANGE, BY FULL RANGE
TestParameter, Measurement.Monitor.RangeRatingCoeff, 50, 50, 50
TestParameter, Measurement.Timing.Hold, 0.5
TestParameter, Measurement.Timing.Delay, 0.05
TestParameter, Measurement.Adc.HighResolution.AutoZero, OFF
TestParameter, Measurement.Adc.HighResolution.Mode, AUTO
TestParameter, Measurement.Adc.HighResolution.Coeff, 1
TestParameter, Measurement.Ag16440ASelector.SemiconductorRelay.Channel1, DEFAULT
TestParameter, Measurement.Ag16440ASelector.SemiconductorRelay.Channel3, DEFAULT
TestParameter, Function.User.Name, absID, sqrtID, gm2, absIG
TestParameter, Function.User.Unit, A, A, A/V, A
TestParameter, Function.User.Definition, abs(ID), sqrt(abs(ID)), (delta(sqrtID)/delta(VG))^2, abs(IG)
TestParameter, Output.Graph.Enabled, true
TestParameter, Output.Graph.XAxis.Data, VG
TestParameter, Output.Graph.XAxis.Scale, Linear
TestParameter, Output.Graph.XAxis.Left, -5
TestParameter, Output.Graph.XAxis.Right, 7
TestParameter, Output.Graph.YAxis.Data, ID, absIG, gm2
TestParameter, Output.Graph.YAxis.Scale, Log, Log, Linear
TestParameter, Output.Graph.YAxis.Bottom, 1E-14, 1E-14, 0
TestParameter, Output.Graph.YAxis.Top, 0.01, 0.01, 1E-05
TestParameter, Output.Graph.YAxis.Group, , , 
TestParameter, Output.List.Data, VG, IG, VD, ID, VS, IS, sqrtID, gm2, absIG
TestParameter, AutoAnalysis.Interpolation, false
TestParameter, AutoAnalysis.Line1.Enabled, false
TestParameter, AutoAnalysis.Line1.Type, 1
TestParameter, AutoAnalysis.Line1.Fix, True
TestParameter, AutoAnalysis.Line1.YAxis, 0
TestParameter, AutoAnalysis.Line1.Point1.Type, 0
TestParameter, AutoAnalysis.Line1.Point1.XY.X, 
TestParameter, AutoAnalysis.Line1.Point1.XY.Y, 
TestParameter, AutoAnalysis.Line1.Point1.Data.Var, 
TestParameter, AutoAnalysis.Line1.Point1.Data.Condition, 
TestParameter, AutoAnalysis.Line1.Point1.Data.Start, false
TestParameter, AutoAnalysis.Line1.Point1.Data.StartVar, 
TestParameter, AutoAnalysis.Line1.Point1.Data.StartCondition, 
TestParameter, AutoAnalysis.Line1.Point2.Type, 0
TestParameter, AutoAnalysis.Line1.Point2.XY.X, 
TestParameter, AutoAnalysis.Line1.Point2.XY.Y, 
TestParameter, AutoAnalysis.Line1.Point2.Data.Var, 
TestParameter, AutoAnalysis.Line1.Point2.Data.Condition, 
TestParameter, AutoAnalysis.Line1.Point2.Data.Start, false
TestParameter, AutoAnalysis.Line1.Point2.Data.StartVar, 
TestParameter, AutoAnalysis.Line1.Point2.Data.StartCondition, 
TestParameter, AutoAnalysis.Line1.GradientExpr, 0
TestParameter, AutoAnalysis.Line2.Enabled, false
TestParameter, AutoAnalysis.Line2.Type, 1
TestParameter, AutoAnalysis.Line2.Fix, True
TestParameter, AutoAnalysis.Line2.YAxis, 0
TestParameter, AutoAnalysis.Line2.Point1.Type, 0
TestParameter, AutoAnalysis.Line2.Point1.XY.X, 
TestParameter, AutoAnalysis.Line2.Point1.XY.Y, 
TestParameter, AutoAnalysis.Line2.Point1.Data.Var, 
TestParameter, AutoAnalysis.Line2.Point1.Data.Condition, 
TestParameter, AutoAnalysis.Line2.Point1.Data.Start, false
TestParameter, AutoAnalysis.Line2.Point1.Data.StartVar, 
TestParameter, AutoAnalysis.Line2.Point1.Data.StartCondition, 
TestParameter, AutoAnalysis.Line2.Point2.Type, 0
TestParameter, AutoAnalysis.Line2.Point2.XY.X, 
TestParameter, AutoAnalysis.Line2.Point2.XY.Y, 
TestParameter, AutoAnalysis.Line2.Point2.Data.Var, 
TestParameter, AutoAnalysis.Line2.Point2.Data.Condition, 
TestParameter, AutoAnalysis.Line2.Point2.Data.Start, false
TestParameter, AutoAnalysis.Line2.Point2.Data.StartVar, 
TestParameter, AutoAnalysis.Line2.Point2.Data.StartCondition, 
TestParameter, AutoAnalysis.Line2.GradientExpr, 0
TestParameter, AutoAnalysis.Marker.Enabled, false
TestParameter, AutoAnalysis.Marker.Data.Var, 
TestParameter, AutoAnalysis.Marker.Data.Condition, 
TestParameter, AutoAnalysis.Marker.Data.Start, false
TestParameter, AutoAnalysis.Marker.Data.StartVar, 
TestParameter, AutoAnalysis.Marker.Data.StartCondition, 
MetaData, TestRecord.EntryPoint, true
MetaData, TestRecord.RecordTime, 05/02/2019 11:00:16
MetaData, TestRecord.TestTarget, 250-300-100-5
MetaData, TestRecord.IterationIndex, 1
MetaData, TestRecord.Preservation, true
MetaData, TestRecord.Flag, 
MetaData, TestRecord.Remarks, bad
MetaData, TestRecord.LinkKey, 9b478011-d7a6-4c8b-83e2-a8f7039d482f
Dimension1, 202, 202, 202, 202, 202, 202, 202, 202, 202, 202
Dimension2, 1, 1, 1, 1, 1, 1, 1, 1, 1, 1
DataName, VG, VD, VS, ID, IS, IG, absID, sqrtID, gm2, absIG
DataValue, -2, 5, 0, 0.001000148, -0.00091822700000000008, -8.1864700000000009E-05, 0.001000148, 0.031625116600575563, 0, 8.1864700000000009E-05
DataValue, -1.9500000000000002, 5, 0, 0.001000148, -0.0009210170000000001, -7.8285100000000007E-05, 0.001000148, 0.031625116600575563, 0, 7.8285100000000007E-05
DataValue, -1.9000000000000001, 5, 0, 0.001000148, -0.000923898, -7.6008400000000009E-05, 0.001000148, 0.031625116600575563, 0, 7.6008400000000009E-05
DataValue, -1.85, 5, 0, 0.001000148, -0.00092591000000000006, -7.391E-05, 0.001000148, 0.031625116600575563, 2.4996288052025566E-14, 7.391E-05
DataValue, -1.8, 5, 0, 0.001000149, -0.00092821700000000006, -7.22817E-05, 0.001000149, 0.03162513241079, 0, 7.22817E-05
DataValue, -1.75, 5, 0, 0.001000148, -0.00092971, -7.06257E-05, 0.001000148, 0.031625116600575563, 9.9985202189889452E-14, 7.06257E-05
DataValue, -1.7000000000000002, 5, 0, 0.001000147, -0.00093143400000000008, -6.88532E-05, 0.001000147, 0.031625100790353224, 0, 6.88532E-05
DataValue, -1.6500000000000001, 5, 0, 0.001000148, -0.000933126, -6.69481E-05, 0.001000148, 0.031625116600575563, 9.9985202189889022E-14, 6.69481E-05
DataValue, -1.6, 5, 0, 0.001000149, -0.00093481500000000008, -6.53446E-05, 0.001000149, 0.03162513241079, 2.4996313042922063E-14, 6.53446E-05
DataValue, -1.55, 5, 0, 0.001000147, -0.00093673600000000008, -6.36884E-05, 0.001000147, 0.031625100790353224, 9.9985202189889022E-14, 6.36884E-05
DataValue, -1.5, 5, 0, 0.001000147, -0.00093777600000000008, -6.2391400000000007E-05, 0.001000147, 0.031625100790353224, 2.4996313042922173E-14, 6.2391400000000007E-05
DataValue, -1.4500000000000002, 5, 0, 0.001000148, -0.000939452, -6.0733800000000005E-05, 0.001000148, 0.031625116600575563, 2.4996313042922173E-14, 6.0733800000000005E-05
DataValue, -1.4000000000000001, 5, 0, 0.001000148, -0.00094115600000000007, -5.93575E-05, 0.001000148, 0.031625116600575563, 2.4996313042922063E-14, 5.93575E-05
DataValue, -1.35, 5, 0, 0.001000147, -0.00094241700000000008, -5.75709E-05, 0.001000147, 0.031625100790353224, 0, 5.75709E-05
DataValue, -1.3, 5, 0, 0.001000148, -0.000943805, -5.6305700000000005E-05, 0.001000148, 0.031625116600575563, 9.9985202189889022E-14, 5.6305700000000005E-05
DataValue, -1.25, 5, 0, 0.001000149, -0.00094539100000000007, -5.4866E-05, 0.001000149, 0.03162513241079, 0, 5.4866E-05
DataValue, -1.2, 5, 0, 0.001000148, -0.00094656400000000011, -5.35973E-05, 0.001000148, 0.031625116600575563, 2.4996288052025677E-14, 5.35973E-05
DataValue, -1.1500000000000001, 5, 0, 0.001000148, -0.000947811, -5.20485E-05, 0.001000148, 0.031625116600575563, 0, 5.20485E-05
DataValue, -1.1, 5, 0, 0.001000148, -0.00094917900000000008, -5.1082700000000005E-05, 0.001000148, 0.031625116600575563, 2.4996313042922063E-14, 5.1082700000000005E-05
DataValue, -1.05, 5, 0, 0.001000147, -0.00095041000000000006, -4.9772300000000005E-05, 0.001000147, 0.031625100790353224, 0, 4.9772300000000005E-05
DataValue, -1, 5, 0, 0.001000148, -0.00095186300000000006, -4.8264400000000005E-05, 0.001000148, 0.031625116600575563, 2.4996313042922113E-14, 4.8264400000000005E-05
DataValue, -0.95000000000000007, 5, 0, 0.001000148, -0.000952817, -4.7297000000000005E-05, 0.001000148, 0.031625116600575563, 2.4996288052025617E-14, 4.7297000000000005E-05
DataValue, -0.9, 5, 0, 0.001000149, -0.000954139, -4.60152E-05, 0.001000149, 0.03162513241079, 2.4996288052025617E-14, 4.60152E-05
DataValue, -0.85000000000000009, 5, 0, 0.001000149, -0.000955484, -4.4704000000000004E-05, 0.001000149, 0.03162513241079, 0, 4.4704000000000004E-05
DataValue, -0.8, 5, 0, 0.001000149, -0.000956662, -4.33821E-05, 0.001000149, 0.03162513241079, 0, 4.33821E-05
DataValue, -0.75, 5, 0, 0.001000149, -0.00095798500000000006, -4.21501E-05, 0.001000149, 0.03162513241079, 0, 4.21501E-05
DataValue, -0.70000000000000007, 5, 0, 0.001000149, -0.00095924500000000006, -4.0992400000000004E-05, 0.001000149, 0.03162513241079, 0, 4.0992400000000004E-05
DataValue, -0.65, 5, 0, 0.001000149, -0.00096008700000000009, -4.00545E-05, 0.001000149, 0.03162513241079, 0, 4.00545E-05
DataValue, -0.6, 5, 0, 0.001000149, -0.0009611960000000001, -3.8817000000000005E-05, 0.001000149, 0.03162513241079, 0, 3.8817000000000005E-05
DataValue, -0.55, 5, 0, 0.001000149, -0.00096228200000000007, -3.77644E-05, 0.001000149, 0.03162513241079, 0, 3.77644E-05
DataValue, -0.5, 5, 0, 0.001000149, -0.00096348100000000008, -3.6625800000000004E-05, 0.001000149, 0.03162513241079, 2.4996288052025591E-14, 3.6625800000000004E-05
DataValue, -0.45, 5, 0, 0.001000148, -0.000964592, -3.56868E-05, 0.001000148, 0.031625116600575563, 0, 3.56868E-05
DataValue, -0.4, 5, 0, 0.001000149, -0.0009656030000000001, -3.45658E-05, 0.001000149, 0.03162513241079, 9.9985102226328217E-14, 3.45658E-05
DataValue, -0.35000000000000003, 5, 0, 0.00100015, -0.00096664100000000007, -3.34813E-05, 0.00100015, 0.031625148220996532, 0, 3.34813E-05
DataValue, -0.3, 5, 0, 0.001000149, -0.000967664, -3.24949E-05, 0.001000149, 0.03162513241079, 2.4996263061141591E-14, 3.24949E-05
DataValue, -0.25, 5, 0, 0.001000149, -0.00096870000000000007, -3.15035E-05, 0.001000149, 0.03162513241079, 0, 3.15035E-05
DataValue, -0.2, 5, 0, 0.001000149, -0.000969704, -3.05301E-05, 0.001000149, 0.03162513241079, 0, 3.05301E-05
DataValue, -0.15, 5, 0, 0.001000149, -0.00097071000000000006, -2.94697E-05, 0.001000149, 0.03162513241079, 0, 2.94697E-05
DataValue, -0.1, 5, 0, 0.001000149, -0.000971678, -2.84985E-05, 0.001000149, 0.03162513241079, 0, 2.84985E-05
DataValue, -0.05, 5, 0, 0.001000149, -0.000972658, -2.76615E-05, 0.001000149, 0.03162513241079, 0, 2.76615E-05
DataValue, 0, 5, 0, 0.001000149, -0.000973682, -2.6562800000000003E-05, 0.001000149, 0.03162513241079, 2.499628805202561E-14, 2.6562800000000003E-05
DataValue, 0.05, 5, 0, 0.001000148, -0.000974599, -2.56028E-05, 0.001000148, 0.031625116600575563, 0, 2.56028E-05
DataValue, 0.1, 5, 0, 0.001000149, -0.0009755600000000001, -2.47372E-05, 0.001000149, 0.03162513241079, 2.499628805202561E-14, 2.47372E-05
DataValue, 0.15, 5, 0, 0.001000149, -0.00097638500000000008, -2.37818E-05, 0.001000149, 0.03162513241079, 0, 2.37818E-05
DataValue, 0.2, 5, 0, 0.001000149, -0.000977304, -2.28869E-05, 0.001000149, 0.03162513241079, 0, 2.28869E-05
DataValue, 0.25, 5, 0, 0.001000149, -0.000978203, -2.1996600000000002E-05, 0.001000149, 0.03162513241079, 0, 2.1996600000000002E-05
DataValue, 0.3, 5, 0, 0.001000149, -0.000979089, -2.10827E-05, 0.001000149, 0.03162513241079, 0, 2.10827E-05
DataValue, 0.35000000000000003, 5, 0, 0.001000149, -0.00097989300000000013, -2.02781E-05, 0.001000149, 0.03162513241079, 2.4996263061141591E-14, 2.02781E-05
DataValue, 0.4, 5, 0, 0.00100015, -0.00098067000000000011, -1.95302E-05, 0.00100015, 0.031625148220996532, 2.4996288052025617E-14, 1.95302E-05
DataValue, 0.45, 5, 0, 0.001000148, -0.00098153, -1.8680600000000002E-05, 0.001000148, 0.031625116600575563, 0, 1.8680600000000002E-05
DataValue, 0.5, 5, 0, 0.00100015, -0.000982405, -1.77981E-05, 0.00100015, 0.031625148220996532, 2.4996288052025591E-14, 1.77981E-05
DataValue, 0.55, 5, 0, 0.001000149, -0.000983264, -1.69582E-05, 0.001000149, 0.03162513241079, 2.4996263061141613E-14, 1.69582E-05
DataValue, 0.6, 5, 0, 0.001000149, -0.000984096, -1.60845E-05, 0.001000149, 0.03162513241079, 2.4996263061141616E-14, 1.60845E-05
DataValue, 0.65, 5, 0, 0.00100015, -0.000984969, -1.5247600000000001E-05, 0.00100015, 0.031625148220996532, 0, 1.5247600000000001E-05
DataValue, 0.70000000000000007, 5, 0, 0.001000149, -0.000985778, -1.4432400000000001E-05, 0.001000149, 0.03162513241079, 0, 1.4432400000000001E-05
DataValue, 0.75, 5, 0, 0.00100015, -0.000986611, -1.36075E-05, 0.00100015, 0.031625148220996532, 0, 1.36075E-05
DataValue, 0.8, 5, 0, 0.001000149, -0.000987412, -1.27437E-05, 0.001000149, 0.03162513241079, 2.4996263061141565E-14, 1.27437E-05
DataValue, 0.85000000000000009, 5, 0, 0.001000149, -0.000988228, -1.19489E-05, 0.001000149, 0.03162513241079, 0, 1.19489E-05
DataValue, 0.9, 5, 0, 0.001000149, -0.00098905100000000012, -1.1118100000000001E-05, 0.001000149, 0.03162513241079, 2.4996263061141616E-14, 1.1118100000000001E-05
DataValue, 0.95000000000000007, 5, 0, 0.00100015, -0.000989846, -1.03336E-05, 0.00100015, 0.031625148220996532, 2.4996263061141616E-14, 1.03336E-05
DataValue, 1, 5, 0, 0.00100015, -0.00099066, -9.481530000000001E-06, 0.00100015, 0.031625148220996532, 0, 9.481530000000001E-06
DataValue, 1.05, 5, 0, 0.00100015, -0.000991399, -8.7894100000000016E-06, 0.00100015, 0.031625148220996532, 2.4996263061141565E-14, 8.7894100000000016E-06
DataValue, 1.1, 5, 0, 0.001000149, -0.000992175, -7.9166200000000011E-06, 0.001000149, 0.03162513241079, 0, 7.9166200000000011E-06
DataValue, 1.1500000000000001, 5, 0, 0.00100015, -0.000993023, -7.1390100000000004E-06, 0.00100015, 0.031625148220996532, 2.4996263061141673E-14, 7.1390100000000004E-06
DataValue, 1.2, 5, 0, 0.00100015, -0.000993774, -6.4383500000000008E-06, 0.00100015, 0.031625148220996532, 2.4996263061141673E-14, 6.4383500000000008E-06
DataValue, 1.25, 5, 0, 0.001000149, -0.000994548, -5.6291600000000008E-06, 0.001000149, 0.03162513241079, 2.4996263061141565E-14, 5.6291600000000008E-06
DataValue, 1.3, 5, 0, 0.001000149, -0.000995261, -4.91305E-06, 0.001000149, 0.03162513241079, 2.4996288052025566E-14, 4.91305E-06
DataValue, 1.35, 5, 0, 0.001000148, -0.00099609800000000017, -4.0824300000000005E-06, 0.001000148, 0.031625116600575563, 0, 4.0824300000000005E-06
DataValue, 1.4000000000000001, 5, 0, 0.001000149, -0.000996874, -3.3030200000000005E-06, 0.001000149, 0.03162513241079, 2.4996288052025566E-14, 3.3030200000000005E-06
DataValue, 1.4500000000000002, 5, 0, 0.001000149, -0.000997704, -2.5420900000000003E-06, 0.001000149, 0.03162513241079, 2.4996288052025677E-14, 2.5420900000000003E-06
DataValue, 1.5, 5, 0, 0.001000148, -0.00099842, -1.7909400000000001E-06, 0.001000148, 0.031625116600575563, 2.4996288052025677E-14, 1.7909400000000001E-06
DataValue, 1.55, 5, 0, 0.001000148, -0.000999172, -1.081811E-06, 0.001000148, 0.031625116600575563, 0, 1.081811E-06
DataValue, 1.6, 5, 0, 0.001000148, -0.000999881, -2.1474599999999998E-07, 0.001000148, 0.031625116600575563, 2.4996288052025566E-14, 2.1474599999999998E-07
DataValue, 1.6500000000000001, 5, 0, 0.001000149, -0.001000603, 4.45731E-07, 0.001000149, 0.03162513241079, 2.4996288052025566E-14, 4.45731E-07
DataValue, 1.7000000000000002, 5, 0, 0.001000149, -0.001001382, 1.19531E-06, 0.001000149, 0.03162513241079, 0, 1.19531E-06
DataValue, 1.75, 5, 0, 0.001000149, -0.001002193, 1.9784300000000004E-06, 0.001000149, 0.03162513241079, 2.4996263061141673E-14, 1.9784300000000004E-06
DataValue, 1.8, 5, 0, 0.00100015, -0.0010029260000000001, 2.77376E-06, 0.00100015, 0.031625148220996532, 0, 2.77376E-06
DataValue, 1.85, 5, 0, 0.001000149, -0.001003694, 3.5586000000000005E-06, 0.001000149, 0.03162513241079, 0, 3.5586000000000005E-06
DataValue, 1.9000000000000001, 5, 0, 0.00100015, -0.00100453, 4.29174E-06, 0.00100015, 0.031625148220996532, 0, 4.29174E-06
DataValue, 1.9500000000000002, 5, 0, 0.001000149, -0.0010054270000000001, 5.13194E-06, 0.001000149, 0.03162513241079, 0, 5.13194E-06
DataValue, 2, 5, 0, 0.00100015, -0.0010061310000000002, 5.9421400000000005E-06, 0.00100015, 0.031625148220996532, 0, 5.9421400000000005E-06
DataValue, 2.05, 5, 0, 0.001000149, -0.00100686, 6.6451600000000009E-06, 0.001000149, 0.03162513241079, 2.4996263061141565E-14, 6.6451600000000009E-06
DataValue, 2.1, 5, 0, 0.001000149, -0.00100751, 7.33406E-06, 0.001000149, 0.03162513241079, 0, 7.33406E-06
DataValue, 2.15, 5, 0, 0.001000149, -0.0010082560000000001, 8.08578E-06, 0.001000149, 0.03162513241079, 2.4996263061141565E-14, 8.08578E-06
DataValue, 2.2, 5, 0, 0.00100015, -0.001009051, 8.967440000000001E-06, 0.00100015, 0.031625148220996532, 2.4996263061141565E-14, 8.967440000000001E-06
DataValue, 2.25, 5, 0, 0.00100015, -0.001009899, 9.62152E-06, 0.00100015, 0.031625148220996532, 2.4996263061141565E-14, 9.62152E-06
DataValue, 2.3000000000000003, 5, 0, 0.001000149, -0.001010653, 1.0489930000000001E-05, 0.001000149, 0.03162513241079, 2.4996263061141565E-14, 1.0489930000000001E-05
DataValue, 2.35, 5, 0, 0.001000149, -0.001011332, 1.1173710000000002E-05, 0.001000149, 0.03162513241079, 2.4996263061141783E-14, 1.1173710000000002E-05
DataValue, 2.4, 5, 0, 0.00100015, -0.001012076, 1.1909900000000001E-05, 0.00100015, 0.031625148220996532, 0, 1.1909900000000001E-05
DataValue, 2.45, 5, 0, 0.001000149, -0.001012916, 1.2752100000000001E-05, 0.001000149, 0.03162513241079, 2.4996263061141565E-14, 1.2752100000000001E-05
DataValue, 2.5, 5, 0, 0.001000149, -0.0010137170000000001, 1.35737E-05, 0.001000149, 0.03162513241079, 2.4996263061141565E-14, 1.35737E-05
DataValue, 2.5500000000000003, 5, 0, 0.00100015, -0.0010145500000000001, 1.44578E-05, 0.00100015, 0.031625148220996532, 9.998500226281699E-14, 1.44578E-05
DataValue, 2.6, 5, 0, 0.0010001510000000001, -0.001015463, 1.53181E-05, 0.0010001510000000001, 0.031625164031195162, 2.4996263061141783E-14, 1.53181E-05
DataValue, 2.65, 5, 0, 0.001000149, -0.001016449, 1.6123400000000002E-05, 0.001000149, 0.03162513241079, 9.998500226281699E-14, 1.6123400000000002E-05
DataValue, 2.7, 5, 0, 0.001000149, -0.001017246, 1.70244E-05, 0.001000149, 0.03162513241079, 0, 1.70244E-05
DataValue, 2.75, 5, 0, 0.001000149, -0.001017986, 1.761E-05, 0.001000149, 0.03162513241079, 2.4996263061141565E-14, 1.761E-05
DataValue, 2.8000000000000003, 5, 0, 0.00100015, -0.0010188320000000001, 1.87339E-05, 0.00100015, 0.031625148220996532, 2.4996263061141565E-14, 1.87339E-05
DataValue, 2.85, 5, 0, 0.00100015, -0.001019841, 1.96145E-05, 0.00100015, 0.031625148220996532, 0, 1.96145E-05
DataValue, 2.9, 5, 0, 0.00100015, -0.001020695, 2.03273E-05, 0.00100015, 0.031625148220996532, 2.4996263061141565E-14, 2.03273E-05
DataValue, 2.95, 5, 0, 0.001000149, -0.001021522, 2.12823E-05, 0.001000149, 0.03162513241079, 0, 2.12823E-05
DataValue, 3, 5, 0, 0.00100015, -0.001022603, 2.23142E-05, 0.00100015, 0.031625148220996532, 0, 2.23142E-05
DataValue, 3, 5, 0, 0.001000149, -0.001022638, 2.25151E-05, 0.001000149, 0.03162513241079, 9.9985052244567132E-14, 2.25151E-05
