
SetupTitle, Transfer stab
PrimitiveTest, I/V Sweep
TestParameter, Context.MainFrame, 4155C
TestParameter, Channel.UnitType, SMU, SMU, SMU
TestParameter, Channel.Unit, SMU3:MP, SMU1:MP, SMU4:MP
TestParameter, Channel.IName, ID, IS, IG
TestParameter, Channel.VName, VD, VS, VG
TestParameter, Channel.Mode, V, COMMON, V
TestParameter, Channel.Func, CONST, CONST, VAR1
TestParameter, Channel.Index, 
TestParameter, Channel.Time, 
TestParameter, Measurement.Port.Unit, SMU3:MP, SMU1:MP, SMU4:MP
TestParameter, Measurement.Port.SeriesResistor, NONE, NONE, NONE
TestParameter, Measurement.Port.Filter, ON, ON, ON
TestParameter, Measurement.Primary.Locus, Single
TestParameter, Measurement.Primary.Scale, LINEAR
TestParameter, Measurement.Primary.Start, -2
TestParameter, Measurement.Primary.Stop, 3
TestParameter, Measurement.Primary.Step, 0.05
TestParameter, Measurement.Primary.Compliance, 0.1
TestParameter, Measurement.Primary.PowerCompliance, 0
TestParameter, Measurement.Aborting.Condition, CONTINUE AT ANY
TestParameter, Measurement.PostOutput.Value, START
TestParameter, Measurement.PostOutput.Retention, OFF
TestParameter, Measurement.Bias.Source, 3, 0, -2
TestParameter, Measurement.Bias.Compliance, 0.1, 0.1, 0.1
TestParameter, Measurement.Monitor.Unit, SMU3:MP, SMU1:MP, SMU4:MP
TestParameter, Measurement.Monitor.Adc, HR ADC, HR ADC, HR ADC
TestParameter, Measurement.Monitor.RangingMode, AUTO, AUTO, AUTO
TestParameter, Measurement.Monitor.RangeBoundary, , , 
TestParameter, Measurement.Monitor.RangeRating, BY FULL RANGE, BY FULL RANGE, BY FULL RANGE
TestParameter, Measurement.Monitor.RangeRatingCoeff, 50, 50, 50
TestParameter, Measurement.Timing.Hold, 0.5
TestParameter, Measurement.Timing.Delay, 0.05
TestParameter, Measurement.Adc.HighResolution.AutoZero, OFF
TestParameter, Measurement.Adc.HighResolution.Mode, AUTO
TestParameter, Measurement.Adc.HighResolution.Coeff, 1
TestParameter, Measurement.Ag16440ASelector.SemiconductorRelay.Channel1, DEFAULT
TestParameter, Measurement.Ag16440ASelector.SemiconductorRelay.Channel3, DEFAULT
TestParameter, Function.User.Name, absID, sqrtID, gm2, absIG
TestParameter, Function.User.Unit, A, A, A/V, A
TestParameter, Function.User.Definition, abs(ID), sqrt(abs(ID)), (delta(sqrtID)/delta(VG))^2, abs(IG)
TestParameter, Output.Graph.Enabled, true
TestParameter, Output.Graph.XAxis.Data, VG
TestParameter, Output.Graph.XAxis.Scale, Linear
TestParameter, Output.Graph.XAxis.Left, -5
TestParameter, Output.Graph.XAxis.Right, 7
TestParameter, Output.Graph.YAxis.Data, ID, absIG, gm2
TestParameter, Output.Graph.YAxis.Scale, Log, Log, Linear
TestParameter, Output.Graph.YAxis.Bottom, 1E-14, 1E-14, 0
TestParameter, Output.Graph.YAxis.Top, 0.01, 0.01, 1E-05
TestParameter, Output.Graph.YAxis.Group, , , 
TestParameter, Output.List.Data, VG, IG, VD, ID, VS, IS, sqrtID, gm2, absIG
TestParameter, AutoAnalysis.Interpolation, false
TestParameter, AutoAnalysis.Line1.Enabled, false
TestParameter, AutoAnalysis.Line1.Type, 1
TestParameter, AutoAnalysis.Line1.Fix, True
TestParameter, AutoAnalysis.Line1.YAxis, 0
TestParameter, AutoAnalysis.Line1.Point1.Type, 0
TestParameter, AutoAnalysis.Line1.Point1.XY.X, 
TestParameter, AutoAnalysis.Line1.Point1.XY.Y, 
TestParameter, AutoAnalysis.Line1.Point1.Data.Var, 
TestParameter, AutoAnalysis.Line1.Point1.Data.Condition, 
TestParameter, AutoAnalysis.Line1.Point1.Data.Start, false
TestParameter, AutoAnalysis.Line1.Point1.Data.StartVar, 
TestParameter, AutoAnalysis.Line1.Point1.Data.StartCondition, 
TestParameter, AutoAnalysis.Line1.Point2.Type, 0
TestParameter, AutoAnalysis.Line1.Point2.XY.X, 
TestParameter, AutoAnalysis.Line1.Point2.XY.Y, 
TestParameter, AutoAnalysis.Line1.Point2.Data.Var, 
TestParameter, AutoAnalysis.Line1.Point2.Data.Condition, 
TestParameter, AutoAnalysis.Line1.Point2.Data.Start, false
TestParameter, AutoAnalysis.Line1.Point2.Data.StartVar, 
TestParameter, AutoAnalysis.Line1.Point2.Data.StartCondition, 
TestParameter, AutoAnalysis.Line1.GradientExpr, 0
TestParameter, AutoAnalysis.Line2.Enabled, false
TestParameter, AutoAnalysis.Line2.Type, 1
TestParameter, AutoAnalysis.Line2.Fix, True
TestParameter, AutoAnalysis.Line2.YAxis, 0
TestParameter, AutoAnalysis.Line2.Point1.Type, 0
TestParameter, AutoAnalysis.Line2.Point1.XY.X, 
TestParameter, AutoAnalysis.Line2.Point1.XY.Y, 
TestParameter, AutoAnalysis.Line2.Point1.Data.Var, 
TestParameter, AutoAnalysis.Line2.Point1.Data.Condition, 
TestParameter, AutoAnalysis.Line2.Point1.Data.Start, false
TestParameter, AutoAnalysis.Line2.Point1.Data.StartVar, 
TestParameter, AutoAnalysis.Line2.Point1.Data.StartCondition, 
TestParameter, AutoAnalysis.Line2.Point2.Type, 0
TestParameter, AutoAnalysis.Line2.Point2.XY.X, 
TestParameter, AutoAnalysis.Line2.Point2.XY.Y, 
TestParameter, AutoAnalysis.Line2.Point2.Data.Var, 
TestParameter, AutoAnalysis.Line2.Point2.Data.Condition, 
TestParameter, AutoAnalysis.Line2.Point2.Data.Start, false
TestParameter, AutoAnalysis.Line2.Point2.Data.StartVar, 
TestParameter, AutoAnalysis.Line2.Point2.Data.StartCondition, 
TestParameter, AutoAnalysis.Line2.GradientExpr, 0
TestParameter, AutoAnalysis.Marker.Enabled, false
TestParameter, AutoAnalysis.Marker.Data.Var, 
TestParameter, AutoAnalysis.Marker.Data.Condition, 
TestParameter, AutoAnalysis.Marker.Data.Start, false
TestParameter, AutoAnalysis.Marker.Data.StartVar, 
TestParameter, AutoAnalysis.Marker.Data.StartCondition, 
MetaData, TestRecord.EntryPoint, true
MetaData, TestRecord.RecordTime, 05/02/2019 16:14:06
MetaData, TestRecord.TestTarget, br-br-50-5
MetaData, TestRecord.IterationIndex, 3
MetaData, TestRecord.Preservation, true
MetaData, TestRecord.Flag, 
MetaData, TestRecord.Remarks, good
MetaData, TestRecord.LinkKey, c357d243-a326-4288-b04c-89e7b7d99c1a
Dimension1, 101, 101, 101, 101, 101, 101, 101, 101, 101, 101
Dimension2, 1, 1, 1, 1, 1, 1, 1, 1, 1, 1
DataName, VG, VD, VS, ID, IS, IG, absID, sqrtID, gm2, absIG
DataValue, -2, 3, 0, 8.4100000000000005E-13, 5.7E-13, -4.0870000000000007E-12, 8.4100000000000005E-13, 9.1706052144883007E-07, 1.9136056666454468E-10, 4.0870000000000007E-12
DataValue, -1.9500000000000002, 3, 0, 2.5880000000000003E-12, -3.06E-13, 1.172E-12, 2.5880000000000003E-12, 1.6087262041752165E-06, 2.5629732384044531E-12, 1.172E-12
DataValue, -1.9000000000000001, 3, 0, -5.7300000000000008E-13, -3.0100000000000003E-13, -1.6770000000000002E-12, 5.7300000000000008E-13, 7.5696763471102257E-07, 1.3185736602854643E-10, 1.6770000000000002E-12
DataValue, -1.85, 3, 0, -2.12E-13, -1.5400000000000001E-12, 1.8280000000000003E-12, 2.12E-13, 4.6043457732885353E-07, 2.1652762787443882E-11, 1.8280000000000003E-12
DataValue, -1.8, 3, 0, -1.494E-12, -1.2250000000000001E-12, 6.6600000000000009E-13, 1.494E-12, 1.2222929272478018E-06, 2.2837501248529476E-12, 6.6600000000000009E-13
DataValue, -1.75, 3, 0, -3.74E-13, 1.193E-12, 8.9000000000000012E-14, 3.74E-13, 6.1155539405682625E-07, 1.0110264157526367E-10, 8.9000000000000012E-14
DataValue, -1.7000000000000002, 3, 0, -4.7E-14, 1.339E-12, 2.3920000000000003E-12, 4.7E-14, 2.16794833886788E-07, 2.1458335247282353E-11, 2.3920000000000003E-12
DataValue, -1.6500000000000001, 3, 0, 2.2E-14, 5.38E-13, -1.523E-12, 2.2E-14, 1.4832396974191327E-07, 2.3100031269546478E-12, 1.523E-12
DataValue, -1.6, 3, 0, 1.36E-13, 3.0100000000000003E-13, 2.0300000000000002E-13, 1.36E-13, 3.6878177829171549E-07, 9.9450009087604662E-12, 2.0300000000000002E-13
DataValue, -1.55, 3, 0, 2.1500000000000002E-13, -4.24E-13, 1.1940000000000002E-12, 2.1500000000000002E-13, 4.6368092477478522E-07, 4.5050562372259091E-13, 1.1940000000000002E-12
DataValue, -1.5, 3, 0, 9.1E-14, -5.83E-13, -1.6600000000000003E-13, 9.1E-14, 3.0166206257996714E-07, 1.6234584552806589E-11, 1.6600000000000003E-13
DataValue, -1.4500000000000002, 3, 0, -7.51E-13, 3.5E-13, -3.1100000000000004E-13, 7.51E-13, 8.6660256173173182E-07, 8.7548543215822217E-11, 3.1100000000000004E-13
DataValue, -1.4000000000000001, 3, 0, -1.531E-12, 6.14E-13, -1.556E-12, 1.531E-12, 1.2373358476985948E-06, 4.3580953066488358E-11, 1.556E-12
DataValue, -1.35, 3, 0, -2.331E-12, 6.4500000000000008E-13, -8.25E-13, 2.331E-12, 1.5267612779999368E-06, 9.076960883255E-11, 8.25E-13
DataValue, -1.3, 3, 0, -8.1000000000000008E-14, -9.8000000000000012E-14, 8.780000000000001E-13, 8.1000000000000008E-14, 2.8460498941515418E-07, 1.7220923729257661E-10, 8.780000000000001E-13
DataValue, -1.25, 3, 0, 4.6000000000000006E-14, -1.053E-12, -1.228E-12, 4.6000000000000006E-14, 2.1447610589527219E-07, 5.79637925292515E-11, 1.228E-12
DataValue, -1.2, 3, 0, 1.0940000000000002E-12, -1.8950000000000003E-12, -7.9E-14, 1.0940000000000002E-12, 1.0459445491994307E-06, 3.2944277743920478E-10, 7.9E-14
DataValue, -1.1500000000000001, 3, 0, 4.1190000000000005E-12, -3.635E-12, 2.6300000000000004E-13, 4.1190000000000005E-12, 2.0295319657497394E-06, 3.8548386835602167E-10, 2.6300000000000004E-13
DataValue, -1.1, 3, 0, 9.056E-12, -8.294E-12, 2.11E-13, 9.056E-12, 3.0093188598086446E-06, 5.8355590864713275E-10, 2.11E-13
DataValue, -1.05, 3, 0, 1.976E-11, -1.7992000000000002E-11, 4.8500000000000005E-13, 1.976E-11, 4.4452221541785739E-06, 9.88660967912773E-10, 4.8500000000000005E-13
DataValue, -1, 3, 0, 3.7867E-11, -3.6841E-11, -4.2500000000000006E-13, 3.7867E-11, 6.1536168226499124E-06, 1.6082100627952369E-09, 4.2500000000000006E-13
DataValue, -0.95000000000000007, 3, 0, 7.1495000000000007E-11, -6.9112000000000012E-11, 2.278E-12, 7.1495000000000007E-11, 8.4554716012768912E-06, 2.8893885942578405E-09, 2.278E-12
DataValue, -0.9, 3, 0, 1.32916E-10, -1.25499E-10, 3.247E-12, 1.32916E-10, 1.1528920157586313E-05, 4.745616210643749E-09, 3.247E-12
DataValue, -0.85000000000000009, 3, 0, 2.3544800000000003E-10, -2.2744100000000003E-10, -9.52E-13, 2.3544800000000003E-10, 1.5344314908134543E-05, 7.2236996002650511E-09, 9.52E-13
DataValue, -0.8, 3, 0, 4.01127E-10, -3.91003E-10, 4.9000000000000006E-14, 4.01127E-10, 2.0028155182142962E-05, 1.1510043358040776E-08, 4.9000000000000006E-14
DataValue, -0.75, 3, 0, 6.797910000000001E-10, -6.5794800000000007E-10, -1.2588000000000001E-11, 6.797910000000001E-10, 2.6072801920775607E-05, 1.5102768946036969E-08, 1.2588000000000001E-11
DataValue, -0.70000000000000007, 3, 0, 1.04442E-09, -1.02051E-09, 1.2710000000000001E-12, 1.04442E-09, 3.2317487526105738E-05, 2.5057197234829565E-08, 1.2710000000000001E-12
DataValue, -0.65, 3, 0, 1.7558E-09, -1.7374E-09, -2.0070000000000002E-12, 1.7558E-09, 4.1902267241761516E-05, 4.0606964369227858E-08, 2.0070000000000002E-12
DataValue, -0.6, 3, 0, 2.75296E-09, -2.71315E-09, 6.644E-12, 2.75296E-09, 5.2468657310817477E-05, 4.7001397533586581E-08, 6.644E-12
DataValue, -0.55, 3, 0, 4.04268E-09, -3.95206E-09, -6.8830000000000005E-12, 4.04268E-09, 6.3582072945131315E-05, 5.6147396416220516E-08, 6.8830000000000005E-12
DataValue, -0.5, 3, 0, 5.80097E-09, -5.66454E-09, 9.563E-12, 5.80097E-09, 7.6164099154391632E-05, 6.2578373002761747E-08, 9.563E-12
DataValue, -0.45, 3, 0, 7.84956E-09, -7.71549E-09, 6.113E-12, 7.84956E-09, 8.8597742634900127E-05, 4.0831472350231085E-08, 6.113E-12
DataValue, -0.4, 3, 0, 9.28735E-09, -9.05344E-09, 2.552E-12, 9.28735E-09, 9.6370898096884E-05, 3.4688775226507666E-08, 2.552E-12
DataValue, -0.35000000000000003, 3, 0, 1.1496699999999999E-08, -1.10079E-08, 3.1140000000000003E-12, 1.1496699999999999E-08, 0.00010722266551433983, 6.7948020926637633E-08, 3.1140000000000003E-12
DataValue, -0.3, 3, 0, 1.4991E-08, -1.4786599999999999E-08, 2.038E-12, 1.4991E-08, 0.00012243773928001121, 9.9189172224727877E-08, 2.038E-12
DataValue, -0.25, 3, 0, 1.92424E-08, -1.8751299999999997E-08, -1.3840000000000002E-12, 1.92424E-08, 0.00013871697805243596, 9.1737257453116386E-08, 1.3840000000000002E-12
DataValue, -0.2, 3, 0, 2.3325199999999996E-08, -2.27371E-08, 5.2700000000000008E-13, 2.3325199999999996E-08, 0.00015272589826221354, 8.25414537032335E-08, 5.2700000000000008E-13
DataValue, -0.15, 3, 0, 2.8038499999999997E-08, -2.7731499999999996E-08, 8.2E-13, 2.8038499999999997E-08, 0.00016744700654236849, 8.2366523368595257E-08, 8.2E-13
DataValue, -0.1, 3, 0, 3.29152E-08, -3.24016E-08, 3.52E-13, 3.29152E-08, 0.00018142546679008435, 9.26183331625225E-08, 3.52E-13
DataValue, -0.05, 3, 0, 3.9156599999999996E-08, -3.82121E-08, 4.13E-13, 3.9156599999999996E-08, 0.00019788026682820092, 1.077562972890705E-07, 4.13E-13
DataValue, 0, 3, 0, 4.5903799999999994E-08, -4.4293E-08, 3.2200000000000004E-13, 4.5903799999999994E-08, 0.00021425172111327366, 9.2580125128660112E-08, 3.2200000000000004E-13
DataValue, 0.05, 3, 0, 5.2124199999999995E-08, -5.1170499999999995E-08, -3.1100000000000004E-13, 5.2124199999999995E-08, 0.00022830724911837555, 1.0245055336226403E-07, 3.1100000000000004E-13
DataValue, 0.1, 3, 0, 6.06438E-08, -5.8964299999999994E-08, -2.031E-12, 6.06438E-08, 0.00024625961910146777, 1.271904634581489E-07, 2.031E-12
DataValue, 0.15, 3, 0, 6.96807E-08, -6.81634E-08, -1.339E-12, 6.96807E-08, 0.00026397102113679067, 1.2289882415355552E-07, 1.339E-12
DataValue, 0.2, 3, 0, 7.9138999999999992E-08, -7.7811599999999987E-08, 8.2E-13, 7.9138999999999992E-08, 0.00028131654768249944, 8.2130603386349116E-08, 8.2E-13
DataValue, 0.25, 3, 0, 8.5632E-08, -8.1286999999999992E-08, 3.43E-13, 8.5632E-08, 0.00029262945853075008, 5.1979692426605273E-08, 3.43E-13
DataValue, 0.3, 3, 0, 9.2486299999999988E-08, -8.89015E-08, -1.113E-12, 9.2486299999999988E-08, 0.0003041156030196412, 8.0630229741749781E-08, 1.113E-12
DataValue, 0.35000000000000003, 3, 0, 1.03057E-07, -9.8569099999999993E-08, 0, 1.03057E-07, 0.000321024921150991, 1.8216820538890649E-07, 0
DataValue, 0.4, 3, 0, 1.20268E-07, -1.15046E-07, 2.552E-12, 1.20268E-07, 0.00034679677045785763, 2.7194098402476895E-07, 2.552E-12
DataValue, 0.45, 3, 0, 1.39258E-07, -1.36283E-07, 1.5070000000000001E-12, 1.39258E-07, 0.0003731728821873315, 2.842698583308443E-07, 1.5070000000000001E-12
DataValue, 0.5, 3, 0, 1.60091E-07, -1.57072E-07, -1.304E-12, 1.60091E-07, 0.00040011373383076965, 3.1437858695383871E-07, 1.304E-12
DataValue, 0.55, 3, 0, 1.84249E-07, -1.8105E-07, 2.1400000000000002E-13, 1.84249E-07, 0.00042924235578516715, 3.344502952910358E-07, 2.1400000000000002E-13
DataValue, 0.6, 3, 0, 2.09714E-07, -2.05377E-07, 5.7300000000000008E-13, 2.09714E-07, 0.00045794541159400212, 3.4664401567306148E-07, 5.7300000000000008E-13
DataValue, 0.65, 3, 0, 2.3826E-07, -2.3293099999999998E-07, 1.485E-12, 2.3826E-07, 0.00048811883798927487, 3.8176595634155492E-07, 1.485E-12
DataValue, 0.70000000000000007, 3, 0, 2.70122E-07, -2.64813E-07, 4.7E-13, 2.70122E-07, 0.00051973262356715686, 4.2285908942627732E-07, 4.7E-13
DataValue, 0.75, 3, 0, 3.05971E-07, -3.01284E-07, 3.534E-12, 3.05971E-07, 0.0005531464543861779, 4.5731431622769563E-07, 3.534E-12
DataValue, 0.8, 3, 0, 3.44989E-07, -3.39361E-07, -2.662E-12, 3.44989E-07, 0.0005873576423270578, 4.6293746635985063E-07, 2.662E-12
DataValue, 0.85000000000000009, 3, 0, 3.85872E-07, -3.80116E-07, -9.470000000000001E-13, 3.85872E-07, 0.00062118596249432427, 5.2597545483784023E-07, 9.470000000000001E-13
DataValue, 0.9, 3, 0, 4.35444E-07, -4.29185E-07, -1.2752E-11, 4.35444E-07, 0.00065988180759890634, 6.5582172378487953E-07, 1.2752E-11
DataValue, 0.95000000000000007, 3, 0, 4.93041E-07, -4.8152599999999994E-07, 9.466E-12, 4.93041E-07, 0.00070216878312838709, 7.3770242643580561E-07, 9.466E-12
DataValue, 1, 3, 0, 5.56175E-07, -5.45331E-07, -5.387E-12, 5.56175E-07, 0.00074577141269962881, 7.0468826218166367E-07, 5.387E-12
DataValue, 1.05, 3, 0, 6.17976E-07, -6.05938E-07, 2.544E-12, 6.17976E-07, 0.000786114495477599, 7.9246987394431385E-07, 2.544E-12
DataValue, 1.1, 3, 0, 6.96878E-07, -6.8478E-07, -1.822E-12, 6.96878E-07, 0.0008347921897095109, 9.0713333488890557E-07, 1.822E-12
DataValue, 1.1500000000000001, 3, 0, 7.76792E-07, -7.68221E-07, -2.8260000000000003E-12, 7.76792E-07, 0.00088135804302224413, 9.4916422474494492E-07, 2.8260000000000003E-12
DataValue, 1.2, 3, 0, 8.69029E-07, -8.50485E-07, 6.32E-13, 8.69029E-07, 0.0009322172493576806, 9.96989797466755E-07, 6.32E-13
DataValue, 1.25, 3, 0, 9.6276799999999988E-07, -9.55382E-07, -5.574E-12, 9.6276799999999988E-07, 0.00098120741945829167, 7.3389741698196468E-07, 5.574E-12
DataValue, 1.3, 3, 0, 1.03609E-06, -1.0155500000000002E-06, -2.3840000000000003E-12, 1.03609E-06, 0.0010178850622737325, 1.0885566894004541E-06, 2.3840000000000003E-12
DataValue, 1.35, 3, 0, 1.1784E-06, -1.15692E-06, 5.251E-12, 1.1784E-06, 0.0010855413396089529, 1.4958150666782923E-06, 5.251E-12
DataValue, 1.4000000000000001, 3, 0, 1.30003E-06, -1.2853500000000001E-06, -2.5170000000000003E-12, 1.30003E-06, 0.0011401885808935291, 1.3532212344194439E-06, 2.5170000000000003E-12
DataValue, 1.4500000000000002, 3, 0, 1.4444900000000003E-06, -1.4261000000000002E-06, -3.773E-12, 1.4444900000000003E-06, 0.0012018693772619386, 1.6724473573130869E-06, 3.773E-12
DataValue, 1.5, 3, 0, 1.6116600000000001E-06, -1.5936100000000002E-06, -3.414E-12, 1.6116600000000001E-06, 0.0012695117171574275, 1.8346386817022435E-06, 3.414E-12
DataValue, 1.55, 3, 0, 1.7884200000000002E-06, -1.7666500000000003E-06, 1.042E-12, 1.7884200000000002E-06, 0.0013373182119450853, 1.836430790191148E-06, 1.042E-12
DataValue, 1.6, 3, 0, 1.9741000000000003E-06, -1.95663E-06, 3.8140000000000005E-12, 1.9741000000000003E-06, 0.0014050266901379492, 1.8463100309066602E-06, 3.8140000000000005E-12
DataValue, 1.6500000000000001, 3, 0, 2.17031E-06, -2.1393100000000003E-06, -1.1540000000000001E-12, 2.17031E-06, 0.0014731972033641661, 1.8817331696589642E-06, 1.1540000000000001E-12
DataValue, 1.7000000000000002, 3, 0, 2.37839E-06, -2.35093E-06, 1.6790000000000002E-12, 2.37839E-06, 0.0015422029697805669, 2.1268272785519603E-06, 1.6790000000000002E-12
DataValue, 1.75, 3, 0, 2.6212700000000002E-06, -2.60046E-06, -1.75E-13, 2.6212700000000002E-06, 0.0016190336624048311, 2.3398792418363182E-06, 1.75E-13
DataValue, 1.8, 3, 0, 2.8736000000000003E-06, -2.8409800000000003E-06, -3.54E-13, 2.8736000000000003E-06, 0.0016951696080333674, 2.3484751412112314E-06, 3.54E-13
DataValue, 1.85, 3, 0, 3.1409800000000004E-06, -3.1144800000000003E-06, 3.8030000000000007E-12, 3.1409800000000004E-06, 0.0017722810160919742, 2.557548796627E-06, 3.8030000000000007E-12
DataValue, 1.9000000000000001, 3, 0, 3.4413700000000002E-06, -3.40786E-06, 5.0300000000000008E-13, 3.4413700000000002E-06, 0.0018550929895830022, 2.5920543039701094E-06, 5.0300000000000008E-13
DataValue, 1.9500000000000002, 3, 0, 3.7375700000000005E-06, -3.7066200000000004E-06, -2.3920000000000003E-12, 3.7375700000000005E-06, 0.0019332795969543568, 2.6152986743437906E-06, 2.3920000000000003E-12
DataValue, 2, 3, 0, 4.06753E-06, -4.04127E-06, 5.69E-13, 4.06753E-06, 0.0020168118405047108, 2.6263596231740777E-06, 5.69E-13
DataValue, 2.05, 3, 0, 4.3904500000000005E-06, -4.3620800000000004E-06, 8.02E-13, 4.3904500000000005E-06, 0.00209534006786488, 2.8474203071429607E-06, 8.02E-13
DataValue, 2.1, 3, 0, 4.77665E-06, -4.7474600000000005E-06, 5.0310000000000007E-12, 4.77665E-06, 0.0021855548494604292, 3.1800367125626605E-06, 5.0310000000000007E-12
DataValue, 2.15, 3, 0, 5.16956E-06, -5.1356400000000007E-06, 7.7E-14, 5.16956E-06, 0.0022736666422323217, 3.0464381810582124E-06, 7.7E-14
DataValue, 2.2, 3, 0, 5.57005E-06, -5.5341100000000008E-06, -4.202E-12, 5.57005E-06, 0.0023600953370573824, 3.2625577180352531E-06, 4.202E-12
DataValue, 2.25, 3, 0, 6.023550000000001E-06, -5.9800900000000007E-06, -2.322E-12, 6.023550000000001E-06, 0.0024542921586477844, 3.4859346668747391E-06, 2.322E-12
DataValue, 2.3000000000000003, 3, 0, 6.4862000000000007E-06, -6.4427700000000008E-06, 1.4210000000000001E-12, 6.4862000000000007E-06, 0.0025468019161293248, 3.4319470981236953E-06, 1.4210000000000001E-12
DataValue, 2.35, 3, 0, 6.9672100000000007E-06, -6.926010000000001E-06, 1.3610000000000002E-12, 6.9672100000000007E-06, 0.0026395473096726264, 3.4772741403766581E-06, 1.3610000000000002E-12
DataValue, 2.4, 3, 0, 7.4708000000000005E-06, -7.4338500000000008E-06, 7.23E-13, 7.4708000000000005E-06, 0.0027332764221717496, 3.5254041843337129E-06, 7.23E-13
