
SetupTitle, Transfer lin
PrimitiveTest, I/V Sweep
TestParameter, Context.MainFrame, 4155C
TestParameter, Channel.UnitType, SMU, SMU, SMU
TestParameter, Channel.Unit, SMU3:MP, SMU1:MP, SMU4:MP
TestParameter, Channel.IName, ID, IS, IG
TestParameter, Channel.VName, VD, VS, VG
TestParameter, Channel.Mode, V, COMMON, V
TestParameter, Channel.Func, CONST, CONST, VAR1
TestParameter, Channel.Index, 
TestParameter, Channel.Time, 
TestParameter, Measurement.Port.Unit, SMU3:MP, SMU1:MP, SMU4:MP
TestParameter, Measurement.Port.SeriesResistor, NONE, NONE, NONE
TestParameter, Measurement.Port.Filter, ON, ON, ON
TestParameter, Measurement.Primary.Locus, Double
TestParameter, Measurement.Primary.Scale, LINEAR
TestParameter, Measurement.Primary.Start, -2
TestParameter, Measurement.Primary.Stop, 3
TestParameter, Measurement.Primary.Step, 0.05
TestParameter, Measurement.Primary.Compliance, 0.001
TestParameter, Measurement.Primary.PowerCompliance, 0
TestParameter, Measurement.Aborting.Condition, CONTINUE AT ANY
TestParameter, Measurement.PostOutput.Value, START
TestParameter, Measurement.PostOutput.Retention, OFF
TestParameter, Measurement.Bias.Source, 0.1, 0, -2
TestParameter, Measurement.Bias.Compliance, 0.001, 0.1, 0.001
TestParameter, Measurement.Monitor.Unit, SMU3:MP, SMU1:MP, SMU4:MP
TestParameter, Measurement.Monitor.Adc, HR ADC, HR ADC, HR ADC
TestParameter, Measurement.Monitor.RangingMode, AUTO, AUTO, AUTO
TestParameter, Measurement.Monitor.RangeBoundary, , , 
TestParameter, Measurement.Monitor.RangeRating, BY FULL RANGE, BY FULL RANGE, BY FULL RANGE
TestParameter, Measurement.Monitor.RangeRatingCoeff, 50, 50, 50
TestParameter, Measurement.Timing.Hold, 0.5
TestParameter, Measurement.Timing.Delay, 0.05
TestParameter, Measurement.Adc.HighResolution.AutoZero, OFF
TestParameter, Measurement.Adc.HighResolution.Mode, AUTO
TestParameter, Measurement.Adc.HighResolution.Coeff, 1
TestParameter, Measurement.Ag16440ASelector.SemiconductorRelay.Channel1, DEFAULT
TestParameter, Measurement.Ag16440ASelector.SemiconductorRelay.Channel3, DEFAULT
TestParameter, Function.User.Name, absID, sqrtID, gm2, absIG
TestParameter, Function.User.Unit, A, A, A/V, A
TestParameter, Function.User.Definition, abs(ID), sqrt(abs(ID)), (delta(sqrtID)/delta(VG))^2, abs(IG)
TestParameter, Output.Graph.Enabled, true
TestParameter, Output.Graph.XAxis.Data, VG
TestParameter, Output.Graph.XAxis.Scale, Linear
TestParameter, Output.Graph.XAxis.Left, -5
TestParameter, Output.Graph.XAxis.Right, 7
TestParameter, Output.Graph.YAxis.Data, ID, absIG, gm2
TestParameter, Output.Graph.YAxis.Scale, Log, Log, Linear
TestParameter, Output.Graph.YAxis.Bottom, 1E-14, 1E-14, 0
TestParameter, Output.Graph.YAxis.Top, 0.01, 0.01, 1E-05
TestParameter, Output.Graph.YAxis.Group, , , 
TestParameter, Output.List.Data, VG, IG, VD, ID, VS, IS, sqrtID, gm2, absIG
TestParameter, AutoAnalysis.Interpolation, false
TestParameter, AutoAnalysis.Line1.Enabled, false
TestParameter, AutoAnalysis.Line1.Type, 1
TestParameter, AutoAnalysis.Line1.Fix, True
TestParameter, AutoAnalysis.Line1.YAxis, 0
TestParameter, AutoAnalysis.Line1.Point1.Type, 0
TestParameter, AutoAnalysis.Line1.Point1.XY.X, 
TestParameter, AutoAnalysis.Line1.Point1.XY.Y, 
TestParameter, AutoAnalysis.Line1.Point1.Data.Var, 
TestParameter, AutoAnalysis.Line1.Point1.Data.Condition, 
TestParameter, AutoAnalysis.Line1.Point1.Data.Start, false
TestParameter, AutoAnalysis.Line1.Point1.Data.StartVar, 
TestParameter, AutoAnalysis.Line1.Point1.Data.StartCondition, 
TestParameter, AutoAnalysis.Line1.Point2.Type, 0
TestParameter, AutoAnalysis.Line1.Point2.XY.X, 
TestParameter, AutoAnalysis.Line1.Point2.XY.Y, 
TestParameter, AutoAnalysis.Line1.Point2.Data.Var, 
TestParameter, AutoAnalysis.Line1.Point2.Data.Condition, 
TestParameter, AutoAnalysis.Line1.Point2.Data.Start, false
TestParameter, AutoAnalysis.Line1.Point2.Data.StartVar, 
TestParameter, AutoAnalysis.Line1.Point2.Data.StartCondition, 
TestParameter, AutoAnalysis.Line1.GradientExpr, 0
TestParameter, AutoAnalysis.Line2.Enabled, false
TestParameter, AutoAnalysis.Line2.Type, 1
TestParameter, AutoAnalysis.Line2.Fix, True
TestParameter, AutoAnalysis.Line2.YAxis, 0
TestParameter, AutoAnalysis.Line2.Point1.Type, 0
TestParameter, AutoAnalysis.Line2.Point1.XY.X, 
TestParameter, AutoAnalysis.Line2.Point1.XY.Y, 
TestParameter, AutoAnalysis.Line2.Point1.Data.Var, 
TestParameter, AutoAnalysis.Line2.Point1.Data.Condition, 
TestParameter, AutoAnalysis.Line2.Point1.Data.Start, false
TestParameter, AutoAnalysis.Line2.Point1.Data.StartVar, 
TestParameter, AutoAnalysis.Line2.Point1.Data.StartCondition, 
TestParameter, AutoAnalysis.Line2.Point2.Type, 0
TestParameter, AutoAnalysis.Line2.Point2.XY.X, 
TestParameter, AutoAnalysis.Line2.Point2.XY.Y, 
TestParameter, AutoAnalysis.Line2.Point2.Data.Var, 
TestParameter, AutoAnalysis.Line2.Point2.Data.Condition, 
TestParameter, AutoAnalysis.Line2.Point2.Data.Start, false
TestParameter, AutoAnalysis.Line2.Point2.Data.StartVar, 
TestParameter, AutoAnalysis.Line2.Point2.Data.StartCondition, 
TestParameter, AutoAnalysis.Line2.GradientExpr, 0
TestParameter, AutoAnalysis.Marker.Enabled, false
TestParameter, AutoAnalysis.Marker.Data.Var, 
TestParameter, AutoAnalysis.Marker.Data.Condition, 
TestParameter, AutoAnalysis.Marker.Data.Start, false
TestParameter, AutoAnalysis.Marker.Data.StartVar, 
TestParameter, AutoAnalysis.Marker.Data.StartCondition, 
MetaData, TestRecord.EntryPoint, true
MetaData, TestRecord.RecordTime, 05/02/2019 10:22:57
MetaData, TestRecord.TestTarget, 250-300-10-10
MetaData, TestRecord.IterationIndex, 1
MetaData, TestRecord.Preservation, true
MetaData, TestRecord.Flag, 
MetaData, TestRecord.Remarks, good
MetaData, TestRecord.LinkKey, 025b9324-1b40-489f-af14-71e190cb8638
Dimension1, 202, 202, 202, 202, 202, 202, 202, 202, 202, 202
Dimension2, 1, 1, 1, 1, 1, 1, 1, 1, 1, 1
DataName, VG, VD, VS, ID, IS, IG, absID, sqrtID, gm2, absIG
DataValue, -2, 0.1, 0, 1.493E-11, 1.0827000000000001E-11, -3.1545E-11, 1.493E-11, 3.8639358172723315E-06, 3.7615963945499525E-12, 3.1545E-11
DataValue, -1.9500000000000002, 0.1, 0, 1.4190000000000002E-11, 1.2346000000000001E-11, -3.2578E-11, 1.4190000000000002E-11, 3.7669616403674728E-06, 6.755335893663136E-12, 3.2578E-11
DataValue, -1.9000000000000001, 0.1, 0, 1.2989000000000001E-11, 1.0141E-11, -2.7291000000000002E-11, 1.2989000000000001E-11, 3.6040255271016051E-06, 1.5662603629909505E-11, 2.7291000000000002E-11
DataValue, -1.85, 0.1, 0, 1.1365000000000001E-11, 1.0291000000000001E-11, -2.6877000000000002E-11, 1.1365000000000001E-11, 3.371201566207515E-06, 3.5798489489853133E-12, 2.6877000000000002E-11
DataValue, -1.8, 0.1, 0, 1.1661E-11, 1.0738E-11, -2.7085000000000003E-11, 1.1661E-11, 3.4148206395065612E-06, 6.9457461166788758E-14, 2.7085000000000003E-11
DataValue, -1.75, 0.1, 0, 1.1188000000000001E-11, 1.078E-11, -2.5664E-11, 1.1188000000000001E-11, 3.3448467827390839E-06, 6.07043552707104E-12, 2.5664E-11
DataValue, -1.7000000000000002, 0.1, 0, 1.0039000000000001E-11, 1.0596E-11, -2.5128E-11, 1.0039000000000001E-11, 3.1684381010207541E-06, 2.607609920349798E-13, 2.5128E-11
DataValue, -1.6500000000000001, 0.1, 0, 1.0849000000000001E-11, 9.233E-12, -2.5348E-11, 1.0849000000000001E-11, 3.2937820207172181E-06, 4.1468184975994139E-11, 2.5348E-11
DataValue, -1.6, 0.1, 0, 6.3730000000000004E-12, 9.579E-12, -2.4914000000000003E-11, 6.3730000000000004E-12, 2.5244801445050028E-06, 1.3534704730932108E-13, 2.4914000000000003E-11
DataValue, -1.55, 0.1, 0, 1.0608E-11, 8.9940000000000015E-12, -2.3472000000000002E-11, 1.0608E-11, 3.256992477731565E-06, 6.34275996162587E-12, 2.3472000000000002E-11
DataValue, -1.5, 0.1, 0, 7.708E-12, 8.4540000000000009E-12, -2.3214000000000002E-11, 7.708E-12, 2.776328510821441E-06, 6.0104533848986729E-13, 2.3214000000000002E-11
DataValue, -1.4500000000000002, 0.1, 0, 1.0109E-11, 7.557000000000001E-12, -2.1717E-11, 1.0109E-11, 3.1794653638622957E-06, 7.6564422773935939E-12, 2.1717E-11
DataValue, -1.4000000000000001, 0.1, 0, 9.321E-12, 7.8180000000000008E-12, -2.1907000000000002E-11, 9.321E-12, 3.053031280547253E-06, 4.6446843157597795E-12, 2.1907000000000002E-11
DataValue, -1.35, 0.1, 0, 8.785E-12, 7.324E-12, -1.9439E-11, 8.785E-12, 2.9639500670557862E-06, 4.5646630189835894E-14, 1.9439E-11
DataValue, -1.3, 0.1, 0, 9.191E-12, 7.868E-12, -2.1972E-11, 9.191E-12, 3.0316662085394557E-06, 8.42094651064866E-12, 2.1972E-11
DataValue, -1.25, 0.1, 0, 7.149E-12, 5.6490000000000007E-12, -1.9373E-11, 7.149E-12, 2.6737613954876377E-06, 4.5435464880914474E-12, 1.9373E-11
DataValue, -1.2, 0.1, 0, 7.9440000000000009E-12, 6.91E-12, -1.5771E-11, 7.9440000000000009E-12, 2.8185102447924507E-06, 4.0881150192710975E-13, 1.5771E-11
DataValue, -1.1500000000000001, 0.1, 0, 7.495E-12, 6.318E-12, -1.5927E-11, 7.495E-12, 2.7376997644007644E-06, 2.24970167860695E-12, 1.5927E-11
DataValue, -1.1, 0.1, 0, 7.1210000000000009E-12, 6.1780000000000005E-12, -1.8323E-11, 7.1210000000000009E-12, 2.6685201891685212E-06, 3.1887145158084617E-13, 1.8323E-11
DataValue, -1.05, 0.1, 0, 7.189E-12, 5.2230000000000007E-12, -1.2933E-11, 7.189E-12, 2.6812310605391698E-06, 2.0068812276995737E-12, 1.2933E-11
DataValue, -1, 0.1, 0, 6.3850000000000008E-12, 9.3940000000000014E-12, -1.7146E-11, 6.3850000000000008E-12, 2.5268557536986554E-06, 3.3479374911483078E-11, 1.7146E-11
DataValue, -0.95000000000000007, 0.1, 0, 4.4210000000000006E-12, 6.0830000000000006E-12, -1.4333E-11, 4.4210000000000006E-12, 2.10261741645978E-06, 4.0595602104367286E-11, 1.4333E-11
DataValue, -0.9, 0.1, 0, 3.5710000000000004E-12, 5.201E-12, -1.3370000000000001E-11, 3.5710000000000004E-12, 1.8897089723023491E-06, 1.5721692680913857E-12, 1.3370000000000001E-11
DataValue, -0.85000000000000009, 0.1, 0, 4.964E-12, 4.9160000000000005E-12, -8.0450000000000014E-12, 4.964E-12, 2.2280035906613796E-06, 8.3635237813528122E-13, 8.0450000000000014E-12
DataValue, -0.8, 0.1, 0, 3.925E-12, 3.779E-12, -8.3570000000000008E-12, 3.925E-12, 1.981161275615895E-06, 9.8499393016393564E-12, 8.3570000000000008E-12
DataValue, -0.75, 0.1, 0, 6.4610000000000008E-12, 4.5740000000000005E-12, -9.018E-12, 6.4610000000000008E-12, 2.5418497201841025E-06, 3.8143554070487724E-12, 9.018E-12
DataValue, -0.70000000000000007, 0.1, 0, 4.7370000000000005E-12, 2.903E-12, -9.4710000000000011E-12, 4.7370000000000005E-12, 2.176465023840264E-06, 2.1118005065266582E-11, 9.4710000000000011E-12
DataValue, -0.65, 0.1, 0, 4.336E-12, 1.59E-13, -8.56E-12, 4.336E-12, 2.0823064135712592E-06, 2.1514845499153956E-12, 8.56E-12
DataValue, -0.6, 0.1, 0, 5.3970000000000005E-12, 1.124E-12, -1.2245E-11, 5.3970000000000005E-12, 2.3231444208227782E-06, 4.0541504546028392E-12, 1.2245E-11
DataValue, -0.55, 0.1, 0, 3.5380000000000005E-12, 2.2000000000000003E-12, -7.798E-12, 3.5380000000000005E-12, 1.8809572031282371E-06, 2.7885806200849762E-12, 7.798E-12
DataValue, -0.5, 0.1, 0, 4.649E-12, 1.86E-12, -7.553E-12, 4.649E-12, 2.1561539833694625E-06, 5.3309148078227182E-13, 7.553E-12
DataValue, -0.45, 0.1, 0, 3.818E-12, 1.3530000000000002E-12, -8.83E-12, 3.818E-12, 1.953970317072396E-06, 7.442305952840214E-12, 8.83E-12
DataValue, -0.4, 0.1, 0, 3.547E-12, 1.3940000000000001E-12, -6.6190000000000008E-12, 3.547E-12, 1.8833480825381166E-06, 1.01981214805329E-11, 6.6190000000000008E-12
DataValue, -0.35000000000000003, 0.1, 0, 2.6720000000000003E-12, 1.508E-12, -7.0480000000000007E-12, 2.6720000000000003E-12, 1.634625339336204E-06, 2.3884285405433528E-11, 7.0480000000000007E-12
DataValue, -0.3, 0.1, 0, 1.9450000000000003E-12, 1.833E-12, -5.122E-12, 1.9450000000000003E-12, 1.3946325680981355E-06, 1.8563348683134734E-13, 5.122E-12
DataValue, -0.25, 0.1, 0, 2.5330000000000002E-12, 4.0400000000000005E-13, -4.48E-12, 2.5330000000000002E-12, 1.5915401345866212E-06, 4.6103397689501836E-13, 4.48E-12
DataValue, -0.2, 0.1, 0, -2.139E-12, 6.2E-14, -4.809E-12, 2.139E-12, 1.4625320509308507E-06, 1.3316354552053904E-12, 4.809E-12
DataValue, -0.15, 0.1, 0, 2.1790000000000003E-12, 2.6500000000000003E-13, -2.9150000000000004E-12, 2.1790000000000003E-12, 1.4761436244485156E-06, 2.3319693354903851E-12, 2.9150000000000004E-12
DataValue, -0.1, 0.1, 0, 2.6090000000000003E-12, -8.780000000000001E-13, -1.8690000000000002E-12, 2.6090000000000003E-12, 1.6152399202595262E-06, 1.1515522612827892E-11, 1.8690000000000002E-12
DataValue, -0.05, 0.1, 0, 3.296E-12, -2.715E-12, -1.109E-12, 3.296E-12, 1.8154889148656347E-06, 5.9860069712600661E-11, 1.109E-12
DataValue, 0, 0.1, 0, 5.7070000000000006E-12, -5.6570000000000006E-12, -1.2040000000000001E-12, 5.7070000000000006E-12, 2.3889328161335976E-06, 3.6346390458150046E-10, 1.2040000000000001E-12
DataValue, 0.05, 0.1, 0, 1.3853000000000001E-11, -1.3512000000000001E-11, -8.65E-13, 1.3853000000000001E-11, 3.7219618482730315E-06, 1.0593884461586298E-09, 8.65E-13
DataValue, 0.1, 0.1, 0, 3.1852E-11, -3.3217E-11, 1.9070000000000003E-12, 3.1852E-11, 5.6437576135053851E-06, 2.7520317278342849E-09, 1.9070000000000003E-12
DataValue, 0.15, 0.1, 0, 8.0424E-11, -7.8944000000000009E-11, 8.6000000000000007E-13, 8.0424E-11, 8.9679429079360231E-06, 6.0294772875803882E-09, 8.6000000000000007E-13
DataValue, 0.2, 0.1, 0, 1.7979400000000002E-10, -1.7048700000000002E-10, 1.732E-12, 1.7979400000000002E-10, 1.3408728500495489E-05, 1.0200446655548264E-08, 1.732E-12
DataValue, 0.25, 0.1, 0, 3.63576E-10, -3.5017100000000005E-10, 2.8840000000000002E-12, 3.63576E-10, 1.906766897132421E-05, 1.5302561270621518E-08, 2.8840000000000002E-12
DataValue, 0.3, 0.1, 0, 6.64561E-10, -6.4218100000000006E-10, 2.9470000000000003E-12, 6.64561E-10, 2.5779080666307711E-05, 1.8765231827199976E-08, 2.9470000000000003E-12
DataValue, 0.35000000000000003, 0.1, 0, 1.07363E-09, -1.03941E-09, 3.396E-12, 1.07363E-09, 3.2766293656744271E-05, 2.68262407834536E-08, 3.396E-12
DataValue, 0.4, 0.1, 0, 1.77728E-09, -1.75153E-09, 5.0230000000000007E-12, 1.77728E-09, 4.2157798804017273E-05, 3.5373803184574709E-08, 5.0230000000000007E-12
DataValue, 0.45, 0.1, 0, 2.6599E-09, -2.61877E-09, 4.343E-12, 2.6599E-09, 5.1574218365380971E-05, 3.62692551174882E-08, 4.343E-12
DataValue, 0.5, 0.1, 0, 3.74572E-09, -3.70866E-09, 5.1520000000000007E-12, 3.74572E-09, 6.1202287538947433E-05, 3.6612561213709021E-08, 5.1520000000000007E-12
DataValue, 0.55, 0.1, 0, 4.99971E-09, -4.96004E-09, 6.3360000000000005E-12, 4.99971E-09, 7.07086274792546E-05, 3.640878270643135E-08, 6.3360000000000005E-12
DataValue, 0.6, 0.1, 0, 6.44542E-09, -6.39829E-09, 7.2590000000000005E-12, 6.44542E-09, 8.0283373122957407E-05, 3.6603164670876736E-08, 7.2590000000000005E-12
DataValue, 0.65, 0.1, 0, 8.07133E-09, -8.00808E-09, 8.063E-12, 8.07133E-09, 8.9840581031068575E-05, 3.5315262482680004E-08, 8.063E-12
DataValue, 0.70000000000000007, 0.1, 0, 9.816E-09, -9.75895E-09, 9.486E-12, 9.816E-09, 9.9075728612006689E-05, 3.0780039183406678E-08, 9.486E-12
DataValue, 0.75, 0.1, 0, 1.1531499999999998E-08, -1.1313499999999999E-08, 9.9170000000000015E-12, 1.1531499999999998E-08, 0.00010738482201875644, 2.7917576234346845E-08, 9.9170000000000015E-12
DataValue, 0.8, 0.1, 0, 1.3406E-08, -1.3312699999999999E-08, 9.4060000000000009E-12, 1.3406E-08, 0.00011578428218026832, 2.9658897846776281E-08, 9.4060000000000009E-12
DataValue, 0.85000000000000009, 0.1, 0, 1.55268E-08, -1.54476E-08, 1.2164E-11, 1.55268E-08, 0.0001246065808856017, 2.9974172195989643E-08, 1.2164E-11
DataValue, 0.9, 0.1, 0, 1.7714899999999998E-08, -1.76407E-08, 1.1091000000000001E-11, 1.7714899999999998E-08, 0.00013309733280573281, 2.8600274978603322E-08, 1.1091000000000001E-11
DataValue, 0.95000000000000007, 0.1, 0, 2.00274E-08, -1.99689E-08, 1.3004E-11, 2.00274E-08, 0.00014151819670982243, 2.828555559840234E-08, 1.3004E-11
DataValue, 1, 0.1, 0, 2.2474699999999998E-08, -2.23937E-08, 1.242E-11, 2.2474699999999998E-08, 0.00014991564294629162, 2.7595233421147771E-08, 1.242E-11
DataValue, 1.05, 0.1, 0, 2.5005099999999997E-08, -2.4889499999999996E-08, 1.4764E-11, 2.5005099999999997E-08, 0.00015813000980206127, 2.4719753793033131E-08, 1.4764E-11
DataValue, 1.1, 0.1, 0, 2.7435999999999998E-08, -2.7363399999999997E-08, 1.4752000000000002E-11, 2.7435999999999998E-08, 0.00016563815985454558, 2.4094852822823062E-08, 1.4752000000000002E-11
DataValue, 1.1500000000000001, 0.1, 0, 3.01552E-08, -2.9984E-08, 1.6056000000000002E-11, 3.01552E-08, 0.00017365252661565278, 2.3328582422187438E-08, 1.6056000000000002E-11
DataValue, 1.2, 0.1, 0, 3.2729099999999994E-08, -3.27424E-08, 1.3159E-11, 3.2729099999999994E-08, 0.00018091185699118783, 2.2461247285112456E-08, 1.3159E-11
DataValue, 1.25, 0.1, 0, 3.55849E-08, -3.55106E-08, 1.5296000000000003E-11, 3.55849E-08, 0.00018863960347710658, 2.1993082602497044E-08, 1.5296000000000003E-11
DataValue, 1.3, 0.1, 0, 3.83149E-08, -3.8217199999999995E-08, 1.9708E-11, 3.83149E-08, 0.00019574192192782822, 2.0859001973473472E-08, 1.9708E-11
DataValue, 1.35, 0.1, 0, 4.1242399999999995E-08, -4.1188899999999994E-08, 2.1315000000000003E-11, 4.1242399999999995E-08, 0.00020308224934740109, 2.1607585465563216E-08, 2.1315000000000003E-11
DataValue, 1.4000000000000001, 0.1, 0, 4.4285599999999995E-08, -4.4187299999999994E-08, 2.0633E-11, 4.4285599999999995E-08, 0.000210441440785792, 2.0289817837938281E-08, 2.0633E-11
DataValue, 1.4500000000000002, 0.1, 0, 4.72308E-08, -4.7298399999999993E-08, 2.3265000000000003E-11, 4.72308E-08, 0.00021732648250961039, 2.0300900431478486E-08, 2.3265000000000003E-11
DataValue, 1.5, 0.1, 0, 5.0485399999999994E-08, -5.0321899999999993E-08, 2.8386000000000003E-11, 5.0485399999999994E-08, 0.00022468956362056515, 2.05266889751981E-08, 2.8386000000000003E-11
DataValue, 1.55, 0.1, 0, 5.36634E-08, -5.3623699999999995E-08, 2.8807000000000002E-11, 5.36634E-08, 0.00023165362073578733, 2.0221556695228644E-08, 2.8807000000000002E-11
DataValue, 1.6, 0.1, 0, 5.7077899999999991E-08, -5.6984199999999994E-08, 3.0252E-11, 5.7077899999999991E-08, 0.00023890981562087397, 2.0403188393587545E-08, 3.0252E-11
DataValue, 1.6500000000000001, 0.1, 0, 6.0485299999999992E-08, -6.04815E-08, 3.2279E-11, 6.0485299999999992E-08, 0.00024593759371027436, 1.93870158468962E-08, 3.2279E-11
DataValue, 1.7000000000000002, 0.1, 0, 6.3924799999999988E-08, -6.39335E-08, 3.7287E-11, 6.3924799999999988E-08, 0.00025283354207857782, 1.9332903799569189E-08, 3.7287E-11
DataValue, 1.75, 0.1, 0, 6.75178E-08, -6.7482899999999991E-08, 4.3205E-11, 6.75178E-08, 0.00025984187499323506, 1.9374280293010456E-08, 4.3205E-11
DataValue, 1.8, 0.1, 0, 7.1156999999999993E-08, -7.1056599999999991E-08, 4.1412E-11, 7.1156999999999993E-08, 0.00026675269445686954, 1.8278472718958947E-08, 4.1412E-11
DataValue, 1.85, 0.1, 0, 7.47266E-08, -7.4591899999999992E-08, 5.8711E-11, 7.47266E-08, 0.00027336166519832293, 1.9438375997235356E-08, 5.8711E-11
DataValue, 1.9000000000000001, 0.1, 0, 7.87896E-08, -7.8713599999999991E-08, 6.335200000000001E-11, 7.87896E-08, 0.00028069485210812116, 1.8507862911338595E-08, 6.335200000000001E-11
DataValue, 1.9500000000000002, 0.1, 0, 8.2349499999999992E-08, -8.23736E-08, 8.2864000000000007E-11, 8.2349499999999992E-08, 0.00028696602586369, 1.6359462829488803E-08, 8.2864000000000007E-11
DataValue, 2, 0.1, 0, 8.6133599999999987E-08, -8.61477E-08, 8.6337000000000009E-11, 8.6133599999999987E-08, 0.0002934852636845673, 1.8650439615856215E-08, 8.6337000000000009E-11
DataValue, 2.05, 0.1, 0, 9.0373999999999986E-08, -9.03059E-08, 1.10533E-10, 9.0373999999999986E-08, 0.00030062268710128977, 1.9067210195461848E-08, 1.10533E-10
DataValue, 2.1, 0.1, 0, 9.4429399999999987E-08, -9.4454199999999991E-08, 1.3337200000000002E-10, 9.4429399999999987E-08, 0.00030729367061493472, 1.7382050831992116E-08, 1.3337200000000002E-10
DataValue, 2.15, 0.1, 0, 9.84747E-08, -9.8616499999999988E-08, 1.5386800000000002E-10, 9.84747E-08, 0.00031380678768949531, 1.8344791945121106E-08, 1.5386800000000002E-10
