
SetupTitle, Transfer stab
PrimitiveTest, I/V Sweep
TestParameter, Context.MainFrame, 4155C
TestParameter, Channel.UnitType, SMU, SMU, SMU
TestParameter, Channel.Unit, SMU3:MP, SMU1:MP, SMU4:MP
TestParameter, Channel.IName, ID, IS, IG
TestParameter, Channel.VName, VD, VS, VG
TestParameter, Channel.Mode, V, COMMON, V
TestParameter, Channel.Func, CONST, CONST, VAR1
TestParameter, Channel.Index, 
TestParameter, Channel.Time, 
TestParameter, Measurement.Port.Unit, SMU3:MP, SMU1:MP, SMU4:MP
TestParameter, Measurement.Port.SeriesResistor, NONE, NONE, NONE
TestParameter, Measurement.Port.Filter, ON, ON, ON
TestParameter, Measurement.Primary.Locus, Single
TestParameter, Measurement.Primary.Scale, LINEAR
TestParameter, Measurement.Primary.Start, -2
TestParameter, Measurement.Primary.Stop, 3
TestParameter, Measurement.Primary.Step, 0.05
TestParameter, Measurement.Primary.Compliance, 0.1
TestParameter, Measurement.Primary.PowerCompliance, 0
TestParameter, Measurement.Aborting.Condition, CONTINUE AT ANY
TestParameter, Measurement.PostOutput.Value, START
TestParameter, Measurement.PostOutput.Retention, OFF
TestParameter, Measurement.Bias.Source, 3, 0, -2
TestParameter, Measurement.Bias.Compliance, 0.1, 0.1, 0.1
TestParameter, Measurement.Monitor.Unit, SMU3:MP, SMU1:MP, SMU4:MP
TestParameter, Measurement.Monitor.Adc, HR ADC, HR ADC, HR ADC
TestParameter, Measurement.Monitor.RangingMode, AUTO, AUTO, AUTO
TestParameter, Measurement.Monitor.RangeBoundary, , , 
TestParameter, Measurement.Monitor.RangeRating, BY FULL RANGE, BY FULL RANGE, BY FULL RANGE
TestParameter, Measurement.Monitor.RangeRatingCoeff, 50, 50, 50
TestParameter, Measurement.Timing.Hold, 0.5
TestParameter, Measurement.Timing.Delay, 0.05
TestParameter, Measurement.Adc.HighResolution.AutoZero, OFF
TestParameter, Measurement.Adc.HighResolution.Mode, AUTO
TestParameter, Measurement.Adc.HighResolution.Coeff, 1
TestParameter, Measurement.Ag16440ASelector.SemiconductorRelay.Channel1, DEFAULT
TestParameter, Measurement.Ag16440ASelector.SemiconductorRelay.Channel3, DEFAULT
TestParameter, Function.User.Name, absID, sqrtID, gm2, absIG
TestParameter, Function.User.Unit, A, A, A/V, A
TestParameter, Function.User.Definition, abs(ID), sqrt(abs(ID)), (delta(sqrtID)/delta(VG))^2, abs(IG)
TestParameter, Output.Graph.Enabled, true
TestParameter, Output.Graph.XAxis.Data, VG
TestParameter, Output.Graph.XAxis.Scale, Linear
TestParameter, Output.Graph.XAxis.Left, -5
TestParameter, Output.Graph.XAxis.Right, 7
TestParameter, Output.Graph.YAxis.Data, ID, absIG, gm2
TestParameter, Output.Graph.YAxis.Scale, Log, Log, Linear
TestParameter, Output.Graph.YAxis.Bottom, 1E-14, 1E-14, 0
TestParameter, Output.Graph.YAxis.Top, 0.01, 0.01, 1E-05
TestParameter, Output.Graph.YAxis.Group, , , 
TestParameter, Output.List.Data, VG, IG, VD, ID, VS, IS, sqrtID, gm2, absIG
TestParameter, AutoAnalysis.Interpolation, false
TestParameter, AutoAnalysis.Line1.Enabled, false
TestParameter, AutoAnalysis.Line1.Type, 1
TestParameter, AutoAnalysis.Line1.Fix, True
TestParameter, AutoAnalysis.Line1.YAxis, 0
TestParameter, AutoAnalysis.Line1.Point1.Type, 0
TestParameter, AutoAnalysis.Line1.Point1.XY.X, 
TestParameter, AutoAnalysis.Line1.Point1.XY.Y, 
TestParameter, AutoAnalysis.Line1.Point1.Data.Var, 
TestParameter, AutoAnalysis.Line1.Point1.Data.Condition, 
TestParameter, AutoAnalysis.Line1.Point1.Data.Start, false
TestParameter, AutoAnalysis.Line1.Point1.Data.StartVar, 
TestParameter, AutoAnalysis.Line1.Point1.Data.StartCondition, 
TestParameter, AutoAnalysis.Line1.Point2.Type, 0
TestParameter, AutoAnalysis.Line1.Point2.XY.X, 
TestParameter, AutoAnalysis.Line1.Point2.XY.Y, 
TestParameter, AutoAnalysis.Line1.Point2.Data.Var, 
TestParameter, AutoAnalysis.Line1.Point2.Data.Condition, 
TestParameter, AutoAnalysis.Line1.Point2.Data.Start, false
TestParameter, AutoAnalysis.Line1.Point2.Data.StartVar, 
TestParameter, AutoAnalysis.Line1.Point2.Data.StartCondition, 
TestParameter, AutoAnalysis.Line1.GradientExpr, 0
TestParameter, AutoAnalysis.Line2.Enabled, false
TestParameter, AutoAnalysis.Line2.Type, 1
TestParameter, AutoAnalysis.Line2.Fix, True
TestParameter, AutoAnalysis.Line2.YAxis, 0
TestParameter, AutoAnalysis.Line2.Point1.Type, 0
TestParameter, AutoAnalysis.Line2.Point1.XY.X, 
TestParameter, AutoAnalysis.Line2.Point1.XY.Y, 
TestParameter, AutoAnalysis.Line2.Point1.Data.Var, 
TestParameter, AutoAnalysis.Line2.Point1.Data.Condition, 
TestParameter, AutoAnalysis.Line2.Point1.Data.Start, false
TestParameter, AutoAnalysis.Line2.Point1.Data.StartVar, 
TestParameter, AutoAnalysis.Line2.Point1.Data.StartCondition, 
TestParameter, AutoAnalysis.Line2.Point2.Type, 0
TestParameter, AutoAnalysis.Line2.Point2.XY.X, 
TestParameter, AutoAnalysis.Line2.Point2.XY.Y, 
TestParameter, AutoAnalysis.Line2.Point2.Data.Var, 
TestParameter, AutoAnalysis.Line2.Point2.Data.Condition, 
TestParameter, AutoAnalysis.Line2.Point2.Data.Start, false
TestParameter, AutoAnalysis.Line2.Point2.Data.StartVar, 
TestParameter, AutoAnalysis.Line2.Point2.Data.StartCondition, 
TestParameter, AutoAnalysis.Line2.GradientExpr, 0
TestParameter, AutoAnalysis.Marker.Enabled, false
TestParameter, AutoAnalysis.Marker.Data.Var, 
TestParameter, AutoAnalysis.Marker.Data.Condition, 
TestParameter, AutoAnalysis.Marker.Data.Start, false
TestParameter, AutoAnalysis.Marker.Data.StartVar, 
TestParameter, AutoAnalysis.Marker.Data.StartCondition, 
MetaData, TestRecord.EntryPoint, true
MetaData, TestRecord.RecordTime, 05/02/2019 13:04:10
MetaData, TestRecord.TestTarget, 150-300-01-10
MetaData, TestRecord.IterationIndex, 1
MetaData, TestRecord.Preservation, true
MetaData, TestRecord.Flag, 
MetaData, TestRecord.Remarks, bad
MetaData, TestRecord.LinkKey, eb95b69a-6099-41f3-8235-ad3f1e91b3a7
Dimension1, 101, 101, 101, 101, 101, 101, 101, 101, 101, 101
Dimension2, 1, 1, 1, 1, 1, 1, 1, 1, 1, 1
DataName, VG, VD, VS, ID, IS, IG, absID, sqrtID, gm2, absIG
DataValue, -2, 3, 0, 9.4371999999999993E-08, 9.0800000000000007E-13, -1.10306E-07, 9.4371999999999993E-08, 0.00030720026041655625, 1.1806917938387477E-06, 1.10306E-07
DataValue, -1.9500000000000002, 3, 0, 1.30704E-07, 1.082E-12, -1.10579E-07, 1.30704E-07, 0.00036153008173594629, 2.9138480573942272E-08, 1.10579E-07
DataValue, -1.9000000000000001, 3, 0, 1.0515119999999998E-07, 2.9000000000000003E-13, -1.02387E-07, 1.0515119999999998E-07, 0.00032427025765555492, 1.5631921347891252E-07, 1.02387E-07
DataValue, -1.85, 3, 0, 1.0367939999999999E-07, -1.7900000000000002E-13, -1.09238E-07, 1.0367939999999999E-07, 0.00032199285706363111, 9.62473011382496E-09, 1.09238E-07
DataValue, -1.8, 3, 0, 1.1160999999999999E-07, 4.6200000000000005E-13, -1.05948E-07, 1.1160999999999999E-07, 0.00033408082854303388, 2.3385389575417069E-09, 1.05948E-07
DataValue, -1.75, 3, 0, 1.06817E-07, 8.5000000000000011E-13, -1.06156E-07, 1.06817E-07, 0.00032682870131002875, 1.1599811525703846E-07, 1.06156E-07
DataValue, -1.7000000000000002, 3, 0, 9.00134E-08, 3.54E-13, -9.3897E-08, 9.00134E-08, 0.00030002233250209893, 3.1078479337608122E-08, 9.3897E-08
DataValue, -1.6500000000000001, 3, 0, 9.56044E-08, -1.0700000000000001E-13, -9.2905099999999989E-08, 9.56044E-08, 0.00030919961190143818, 2.1275589875135707E-08, 9.2905099999999989E-08
DataValue, -1.6, 3, 0, 9.8978499999999989E-08, 5.69E-13, -9.23046E-08, 9.8978499999999989E-08, 0.00031460848685310446, 1.0755168792926332E-09, 9.23046E-08
DataValue, -1.55, 3, 0, 9.76432E-08, 5.9700000000000008E-13, -9.29706E-08, 9.76432E-08, 0.00031247911930239435, 2.8897780551523316E-08, 9.29706E-08
DataValue, -1.5, 3, 0, 8.857119999999999E-08, -1.99E-13, -9.0990899999999992E-08, 8.857119999999999E-08, 0.0002976091396446016, 9.0125677284298625E-11, 9.0990899999999992E-08
DataValue, -1.4500000000000002, 3, 0, 9.7050799999999989E-08, 1.4900000000000002E-13, -9.65979E-08, 9.7050799999999989E-08, 0.00031152977385797331, 3.6203304058721451E-11, 9.65979E-08
DataValue, -1.4000000000000001, 3, 0, 8.8929699999999987E-08, 4.65E-13, -9.5913199999999991E-08, 8.8929699999999987E-08, 0.0002982108314598918, 8.9474322453506447E-09, 9.5913199999999991E-08
DataValue, -1.35, 3, 0, 9.12467E-08, -2.4100000000000003E-13, -9.2849499999999987E-08, 9.12467E-08, 0.00030207068709161438, 3.32161464522836E-09, 9.2849499999999987E-08
DataValue, -1.3, 3, 0, 9.24003E-08, -1.5500000000000002E-13, -1.0853449999999999E-07, 9.24003E-08, 0.00030397417653478396, 8.64988178331898E-09, 1.0853449999999999E-07
DataValue, -1.25, 3, 0, 9.6952E-08, 1.3200000000000002E-13, -9.4373E-08, 9.6952E-08, 0.00031137116115658494, 1.3099957393255997E-09, 9.4373E-08
DataValue, -1.2, 3, 0, 9.0213E-08, 2.4100000000000003E-13, -8.9529699999999992E-08, 9.0213E-08, 0.00030035479020651558, 2.10909250265702E-08, 8.9529699999999992E-08
DataValue, -1.1500000000000001, 3, 0, 8.8119E-08, 2.83E-13, -8.22734E-08, 8.8119E-08, 0.00029684844618087529, 3.6354515117931352E-10, 8.22734E-08
DataValue, -1.1, 3, 0, 9.1362E-08, -1.0800000000000001E-13, -8.6697299999999988E-08, 9.1362E-08, 0.00030226147620892739, 4.3605985705924563E-10, 8.6697299999999988E-08
DataValue, -1.05, 3, 0, 8.6883599999999991E-08, 2.11E-13, -8.7239499999999992E-08, 8.6883599999999991E-08, 0.00029476024155235047, 8.7909445599383753E-09, 8.7239499999999992E-08
DataValue, -1, 3, 0, 8.5781899999999988E-08, 2.2200000000000001E-13, -9.1067899999999987E-08, 8.5781899999999988E-08, 0.00029288547249735689, 1.0524319971492007E-09, 9.1067899999999987E-08
DataValue, -0.95000000000000007, 3, 0, 8.8806599999999987E-08, -2.8600000000000004E-13, -9.3020699999999993E-08, 8.8806599999999987E-08, 0.00029800436238417718, 1.6158793632453628E-10, 9.3020699999999993E-08
DataValue, -0.9, 3, 0, 8.5038899999999993E-08, -1.53E-13, -8.0596299999999992E-08, 8.5038899999999993E-08, 0.0002916143000608852, 4.3448933809813773E-10, 8.0596299999999992E-08
DataValue, -0.85000000000000009, 3, 0, 8.7568599999999986E-08, 1.7E-14, -1.0367179999999999E-07, 8.7568599999999986E-08, 0.00029591992160042213, 1.5075437286948958E-11, 1.0367179999999999E-07
DataValue, -0.8, 3, 0, 8.48126E-08, -2.79E-13, -7.9587099999999989E-08, 8.48126E-08, 0.00029122602905647013, 4.769156667661737E-09, 7.9587099999999989E-08
DataValue, -0.75, 3, 0, 8.35291E-08, -4.11E-13, -8.72858E-08, 8.35291E-08, 0.00028901401350107578, 6.0892592535136942E-11, 8.72858E-08
DataValue, -0.70000000000000007, 3, 0, 8.4358699999999992E-08, -1.22E-13, -7.41686E-08, 8.4358699999999992E-08, 0.00029044569199766069, 6.4782770546188888E-09, 7.41686E-08
DataValue, -0.65, 3, 0, 8.82463E-08, -2.95E-13, -8.269309999999999E-08, 8.82463E-08, 0.00029706278797587559, 6.3027832342680387E-08, 8.269309999999999E-08
DataValue, -0.6, 3, 0, 7.0405499999999988E-08, -2.05E-13, -7.0712399999999987E-08, 7.0405499999999988E-08, 0.000265340347478479, 1.1893064687053073E-07, 7.0712399999999987E-08
DataValue, -0.55, 3, 0, 6.89464E-08, -9.6000000000000007E-14, -7.4539499999999991E-08, 6.89464E-08, 0.00026257646505351538, 3.2361924333950814E-10, 7.4539499999999991E-08
DataValue, -0.5, 3, 0, 7.13634E-08, 6.0000000000000005E-15, -6.8684899999999991E-08, 7.13634E-08, 0.00026713928951017295, 1.9939595576101444E-11, 6.8684899999999991E-08
DataValue, -0.45, 3, 0, 6.91811E-08, -2.0800000000000002E-13, -6.6532699999999988E-08, 6.91811E-08, 0.0002630230027963334, 1.0807344340412767E-08, 6.6532699999999988E-08
DataValue, -0.4, 3, 0, 6.5917199999999992E-08, -1.0700000000000001E-13, -6.7026E-08, 6.5917199999999992E-08, 0.00025674345171785781, 4.1506829602432216E-09, 6.7026E-08
DataValue, -0.35000000000000003, 3, 0, 7.26117E-08, -6.3000000000000009E-14, -6.99477E-08, 7.26117E-08, 0.00026946558221784092, 4.4091046109550785E-09, 6.99477E-08
DataValue, -0.3, 3, 0, 6.9370899999999988E-08, -2.5200000000000004E-13, -6.8030599999999987E-08, 6.9370899999999988E-08, 0.00026338356061075639, 1.7577185046436751E-09, 6.8030599999999987E-08
DataValue, -0.25, 3, 0, 7.036979999999999E-08, -4.76E-13, -6.42172E-08, 7.036979999999999E-08, 0.00026527306685753075, 8.37298185092078E-09, 6.42172E-08
DataValue, -0.2, 3, 0, 6.46345E-08, -9.010000000000001E-13, -6.81862E-08, 6.46345E-08, 0.00025423316070095968, 2.4584316881035566E-09, 6.81862E-08
DataValue, -0.15, 3, 0, 6.77638E-08, -2.7840000000000003E-12, -6.17405E-08, 6.77638E-08, 0.00026031480941352529, 7.5539080970153E-13, 6.17405E-08
DataValue, -0.1, 3, 0, 6.467869999999999E-08, -1.014E-11, -6.3348499999999993E-08, 6.467869999999999E-08, 0.00025432007392260642, 2.2379443588545266E-08, 6.3348499999999993E-08
DataValue, -0.05, 3, 0, 6.01991E-08, -3.8925000000000004E-11, -6.5194E-08, 6.01991E-08, 0.00024535504885777264, 3.1854503172944525E-09, 6.5194E-08
DataValue, 0, 3, 0, 6.1839799999999992E-08, -1.4512E-10, -6.14402E-08, 6.1839799999999992E-08, 0.0002486760945487121, 1.2454269560899015E-09, 6.14402E-08
DataValue, 0.05, 3, 0, 6.1943299999999991E-08, -4.7927200000000006E-10, -6.0675899999999988E-08, 6.1943299999999991E-08, 0.00024888410957712829, 2.062326584682171E-10, 6.0675899999999988E-08
DataValue, 0.1, 3, 0, 6.25561E-08, -1.28521E-09, -6.2670999999999993E-08, 6.25561E-08, 0.00025011217483361339, 4.8202263855371032E-09, 6.2670999999999993E-08
DataValue, 0.15, 3, 0, 6.54474E-08, -3.14834E-09, -7.04681E-08, 6.54474E-08, 0.00025582689459867196, 6.8976063330173508E-08, 7.04681E-08
DataValue, 0.2, 3, 0, 7.63834E-08, -6.48116E-09, -6.37904E-08, 7.63834E-08, 0.00027637546924428729, 1.8864436444276258E-08, 6.37904E-08
DataValue, 0.25, 3, 0, 7.26635E-08, -1.1449299999999999E-08, -6.21977E-08, 7.26635E-08, 0.00026956168125310393, 1.1558739561953992E-08, 6.21977E-08
DataValue, 0.3, 3, 0, 8.2441699999999988E-08, -1.89357E-08, -6.316829999999999E-08, 8.2441699999999988E-08, 0.00028712662711772305, 3.2478949118385178E-07, 6.316829999999999E-08
DataValue, 0.35000000000000003, 3, 0, 1.0663619999999999E-07, -2.9005899999999996E-08, -7.10562E-08, 1.0663619999999999E-07, 0.00032655198667287265, 4.6977439690276645E-08, 7.10562E-08
DataValue, 0.4, 3, 0, 9.5358E-08, -4.1411299999999996E-08, -5.7748499999999996E-08, 9.5358E-08, 0.00030880090673442005, 2.0798310449691183E-08, 5.7748499999999996E-08
DataValue, 0.45, 3, 0, 1.16263E-07, -5.7417099999999996E-08, -6.2791899999999992E-08, 1.16263E-07, 0.00034097360601665342, 4.702789575285173E-07, 6.2791899999999992E-08
DataValue, 0.5, 3, 0, 1.42414E-07, -7.66311E-08, -6.246119999999999E-08, 1.42414E-07, 0.00037737779478925359, 2.3617610863544918E-07, 6.246119999999999E-08
DataValue, 0.55, 3, 0, 1.5176599999999998E-07, -9.96664E-08, -5.02215E-08, 1.5176599999999998E-07, 0.000389571559536884, 1.4182419267211871E-07, 5.02215E-08
DataValue, 0.6, 3, 0, 1.72256E-07, -1.25081E-07, -4.7934E-08, 1.72256E-07, 0.00041503734771704585, 4.0305909896788011E-07, 4.7934E-08
DataValue, 0.65, 3, 0, 2.05262E-07, -1.56096E-07, -4.68654E-08, 2.05262E-07, 0.00045305849511955961, 4.9151304484612923E-07, 4.68654E-08
DataValue, 0.70000000000000007, 3, 0, 2.35366E-07, -1.90782E-07, -4.43893E-08, 2.35366E-07, 0.00048514533904800113, 4.4001275269492638E-07, 4.43893E-08
DataValue, 0.75, 3, 0, 2.69768E-07, -2.29786E-07, -4.2095599999999993E-08, 2.69768E-07, 0.000519391952190251, 5.1248403543043818E-07, 4.2095599999999993E-08
DataValue, 0.8, 3, 0, 3.09952E-07, -2.72928E-07, -3.79173E-08, 3.09952E-07, 0.00055673332934179538, 6.7185087550616293E-07, 3.79173E-08
DataValue, 0.85000000000000009, 3, 0, 3.61632E-07, -3.21275E-07, -3.5781099999999993E-08, 3.61632E-07, 0.0006013584621504881, 6.8780104682639466E-07, 3.5781099999999993E-08
DataValue, 0.9, 3, 0, 4.09174E-07, -3.73992E-07, -4.2547899999999993E-08, 4.09174E-07, 0.000639667100920471, 7.37841081400283E-07, 4.2547899999999993E-08
DataValue, 0.95000000000000007, 3, 0, 4.72321E-07, -4.32318E-07, -3.7404099999999994E-08, 4.72321E-07, 0.000687256138568438, 7.9404621451911131E-07, 3.7404099999999994E-08
DataValue, 1, 3, 0, 5.31115E-07, -4.95199E-07, -3.63329E-08, 5.31115E-07, 0.00072877637173552766, 8.020611628369657E-07, 3.63329E-08
DataValue, 1.05, 3, 0, 6.0344E-07, -5.63876E-07, -4.3873999999999993E-08, 6.0344E-07, 0.000776814006052929, 8.5105902496161756E-07, 4.3873999999999993E-08
DataValue, 1.1, 3, 0, 6.7408899999999994E-07, -6.3752E-07, -3.57538E-08, 6.7408899999999994E-07, 0.00082102923212270585, 8.0818888195805329E-07, 3.57538E-08
DataValue, 1.1500000000000001, 3, 0, 7.51192E-07, -7.16118E-07, -3.1883099999999994E-08, 7.51192E-07, 0.00086671333207699076, 8.6138847834780163E-07, 3.1883099999999994E-08
DataValue, 1.2, 3, 0, 8.35104E-07, -8.00152E-07, -3.1484799999999996E-08, 8.35104E-07, 0.000913840248621169, 8.2118794515870165E-07, 3.1484799999999996E-08
DataValue, 1.25, 3, 0, 9.16486E-07, -8.89848E-07, -2.6890699999999996E-08, 9.16486E-07, 0.00095733275301746574, 8.2587422214815388E-07, 2.6890699999999996E-08
DataValue, 1.3, 3, 0, 1.009458E-06, -9.8427899999999989E-07, -2.3157299999999997E-08, 1.009458E-06, 0.0010047178708473339, 9.21801531931777E-07, 2.3157299999999997E-08
DataValue, 1.35, 3, 0, 1.109532E-06, -1.085893E-06, -2.2817299999999998E-08, 1.109532E-06, 0.0010533432488984776, 1.0313448798620176E-06, 2.2817299999999998E-08
DataValue, 1.4000000000000001, 3, 0, 1.22384E-06, -1.18424E-06, -2.6054999999999997E-08, 1.22384E-06, 0.0011062730223593089, 8.9109845076224878E-07, 2.6054999999999997E-08
DataValue, 1.4500000000000002, 3, 0, 1.3173100000000001E-06, -1.29711E-06, -1.73711E-08, 1.3173100000000001E-06, 0.0011477412600407813, 8.0925426200098862E-07, 1.73711E-08
DataValue, 1.5, 3, 0, 1.4309700000000002E-06, -1.4156200000000002E-06, -9.6105999999999991E-09, 1.4309700000000002E-06, 0.0011962315829303289, 1.0399657006131295E-06, 9.6105999999999991E-09
DataValue, 1.55, 3, 0, 1.5618000000000002E-06, -1.54115E-06, -1.4753899999999999E-08, 1.5618000000000002E-06, 0.0012497199686329736, 1.0411446141106586E-06, 1.4753899999999999E-08
DataValue, 1.6, 3, 0, 1.6855000000000002E-06, -1.6716300000000002E-06, -1.19876E-08, 1.6855000000000002E-06, 0.0012982680770934792, 9.7947210331578111E-07, 1.19876E-08
DataValue, 1.6500000000000001, 3, 0, 1.8189600000000002E-06, -1.8074200000000002E-06, -9.9657999999999988E-09, 1.8189600000000002E-06, 0.0013486882515985673, 1.0616923437624027E-06, 9.9657999999999988E-09
DataValue, 1.7000000000000002, 3, 0, 1.96366E-06, -1.94916E-06, -9.62846E-09, 1.96366E-06, 0.0014013065332039239, 1.0054071870588712E-06, 9.62846E-09
DataValue, 1.75, 3, 0, 2.0994800000000003E-06, -2.0924400000000003E-06, -5.02941E-09, 2.0994800000000003E-06, 0.0014489582464653702, 9.8611538938674931E-07, 5.02941E-09
DataValue, 1.8, 3, 0, 2.25183E-06, -2.2459400000000002E-06, -5.96034E-09, 2.25183E-06, 0.0015006098760170813, 1.0826763386928462E-06, 5.96034E-09
DataValue, 1.85, 3, 0, 2.41184E-06, -2.4051900000000004E-06, -5.00136E-09, 2.41184E-06, 0.0015530099806504787, 1.0814518791430975E-06, 5.00136E-09
DataValue, 1.9000000000000001, 3, 0, 2.57475E-06, -2.5693400000000004E-06, -4.94884E-09, 2.57475E-06, 0.0016046027545782164, 1.068881200449106E-06, 4.94884E-09
DataValue, 1.9500000000000002, 3, 0, 2.7436500000000004E-06, -2.7406900000000004E-06, -3.93434E-09, 2.7436500000000004E-06, 0.0016563966916170777, 1.100403037797404E-06, 3.93434E-09
DataValue, 2, 3, 0, 2.9224E-06, -2.9170700000000004E-06, -3.12038E-09, 2.9224E-06, 0.0017095028517086482, 1.1057313624636257E-06, 3.12038E-09
DataValue, 2.05, 3, 0, 3.10306E-06, -3.0998300000000004E-06, -2.37221E-09, 3.10306E-06, 0.0017615504534358362, 1.1745147556408581E-06, 2.37221E-09
DataValue, 2.1, 3, 0, 3.30468E-06, -3.2988700000000003E-06, -3.90487E-09, 3.30468E-06, 0.0018178778836874605, 1.2034192036050467E-06, 3.90487E-09
DataValue, 2.15, 3, 0, 3.5015800000000004E-06, -3.4982000000000002E-06, -3.48956E-09, 3.5015800000000004E-06, 0.0018712509185034487, 1.1409294576404081E-06, 3.48956E-09
DataValue, 2.2, 3, 0, 3.7044400000000003E-06, -3.7005200000000005E-06, -3.12498E-09, 3.7044400000000003E-06, 0.0019246921831815081, 1.1290680741245432E-06, 3.12498E-09
DataValue, 2.25, 3, 0, 3.91054E-06, -3.90694E-06, -2.23063E-09, 3.91054E-06, 0.0019775085334834842, 1.1240659588105103E-06, 2.23063E-09
