
SetupTitle, Transfer sat
PrimitiveTest, I/V Sweep
TestParameter, Context.MainFrame, 4155C
TestParameter, Channel.UnitType, SMU, SMU, SMU
TestParameter, Channel.Unit, SMU3:MP, SMU1:MP, SMU4:MP
TestParameter, Channel.IName, ID, IS, IG
TestParameter, Channel.VName, VD, VS, VG
TestParameter, Channel.Mode, V, COMMON, V
TestParameter, Channel.Func, CONST, CONST, VAR1
TestParameter, Channel.Index, 
TestParameter, Channel.Time, 
TestParameter, Measurement.Port.Unit, SMU3:MP, SMU1:MP, SMU4:MP
TestParameter, Measurement.Port.SeriesResistor, NONE, NONE, NONE
TestParameter, Measurement.Port.Filter, ON, ON, ON
TestParameter, Measurement.Primary.Locus, Double
TestParameter, Measurement.Primary.Scale, LINEAR
TestParameter, Measurement.Primary.Start, -2
TestParameter, Measurement.Primary.Stop, 3
TestParameter, Measurement.Primary.Step, 0.05
TestParameter, Measurement.Primary.Compliance, 0.001
TestParameter, Measurement.Primary.PowerCompliance, 0
TestParameter, Measurement.Aborting.Condition, CONTINUE AT ANY
TestParameter, Measurement.PostOutput.Value, START
TestParameter, Measurement.PostOutput.Retention, OFF
TestParameter, Measurement.Bias.Source, 5, 0, -2
TestParameter, Measurement.Bias.Compliance, 0.001, 0.1, 0.001
TestParameter, Measurement.Monitor.Unit, SMU3:MP, SMU1:MP, SMU4:MP
TestParameter, Measurement.Monitor.Adc, HR ADC, HR ADC, HR ADC
TestParameter, Measurement.Monitor.RangingMode, AUTO, AUTO, AUTO
TestParameter, Measurement.Monitor.RangeBoundary, , , 
TestParameter, Measurement.Monitor.RangeRating, BY FULL RANGE, BY FULL RANGE, BY FULL RANGE
TestParameter, Measurement.Monitor.RangeRatingCoeff, 50, 50, 50
TestParameter, Measurement.Timing.Hold, 0.5
TestParameter, Measurement.Timing.Delay, 0.05
TestParameter, Measurement.Adc.HighResolution.AutoZero, OFF
TestParameter, Measurement.Adc.HighResolution.Mode, AUTO
TestParameter, Measurement.Adc.HighResolution.Coeff, 1
TestParameter, Measurement.Ag16440ASelector.SemiconductorRelay.Channel1, DEFAULT
TestParameter, Measurement.Ag16440ASelector.SemiconductorRelay.Channel3, DEFAULT
TestParameter, Function.User.Name, absID, sqrtID, gm2, absIG
TestParameter, Function.User.Unit, A, A, A/V, A
TestParameter, Function.User.Definition, abs(ID), sqrt(abs(ID)), (delta(sqrtID)/delta(VG))^2, abs(IG)
TestParameter, Output.Graph.Enabled, true
TestParameter, Output.Graph.XAxis.Data, VG
TestParameter, Output.Graph.XAxis.Scale, Linear
TestParameter, Output.Graph.XAxis.Left, -5
TestParameter, Output.Graph.XAxis.Right, 7
TestParameter, Output.Graph.YAxis.Data, ID, absIG, gm2
TestParameter, Output.Graph.YAxis.Scale, Log, Log, Linear
TestParameter, Output.Graph.YAxis.Bottom, 1E-14, 1E-14, 0
TestParameter, Output.Graph.YAxis.Top, 0.01, 0.01, 1E-05
TestParameter, Output.Graph.YAxis.Group, , , 
TestParameter, Output.List.Data, VG, IG, VD, ID, VS, IS, sqrtID, gm2, absIG
TestParameter, AutoAnalysis.Interpolation, false
TestParameter, AutoAnalysis.Line1.Enabled, false
TestParameter, AutoAnalysis.Line1.Type, 1
TestParameter, AutoAnalysis.Line1.Fix, True
TestParameter, AutoAnalysis.Line1.YAxis, 0
TestParameter, AutoAnalysis.Line1.Point1.Type, 0
TestParameter, AutoAnalysis.Line1.Point1.XY.X, 
TestParameter, AutoAnalysis.Line1.Point1.XY.Y, 
TestParameter, AutoAnalysis.Line1.Point1.Data.Var, 
TestParameter, AutoAnalysis.Line1.Point1.Data.Condition, 
TestParameter, AutoAnalysis.Line1.Point1.Data.Start, false
TestParameter, AutoAnalysis.Line1.Point1.Data.StartVar, 
TestParameter, AutoAnalysis.Line1.Point1.Data.StartCondition, 
TestParameter, AutoAnalysis.Line1.Point2.Type, 0
TestParameter, AutoAnalysis.Line1.Point2.XY.X, 
TestParameter, AutoAnalysis.Line1.Point2.XY.Y, 
TestParameter, AutoAnalysis.Line1.Point2.Data.Var, 
TestParameter, AutoAnalysis.Line1.Point2.Data.Condition, 
TestParameter, AutoAnalysis.Line1.Point2.Data.Start, false
TestParameter, AutoAnalysis.Line1.Point2.Data.StartVar, 
TestParameter, AutoAnalysis.Line1.Point2.Data.StartCondition, 
TestParameter, AutoAnalysis.Line1.GradientExpr, 0
TestParameter, AutoAnalysis.Line2.Enabled, false
TestParameter, AutoAnalysis.Line2.Type, 1
TestParameter, AutoAnalysis.Line2.Fix, True
TestParameter, AutoAnalysis.Line2.YAxis, 0
TestParameter, AutoAnalysis.Line2.Point1.Type, 0
TestParameter, AutoAnalysis.Line2.Point1.XY.X, 
TestParameter, AutoAnalysis.Line2.Point1.XY.Y, 
TestParameter, AutoAnalysis.Line2.Point1.Data.Var, 
TestParameter, AutoAnalysis.Line2.Point1.Data.Condition, 
TestParameter, AutoAnalysis.Line2.Point1.Data.Start, false
TestParameter, AutoAnalysis.Line2.Point1.Data.StartVar, 
TestParameter, AutoAnalysis.Line2.Point1.Data.StartCondition, 
TestParameter, AutoAnalysis.Line2.Point2.Type, 0
TestParameter, AutoAnalysis.Line2.Point2.XY.X, 
TestParameter, AutoAnalysis.Line2.Point2.XY.Y, 
TestParameter, AutoAnalysis.Line2.Point2.Data.Var, 
TestParameter, AutoAnalysis.Line2.Point2.Data.Condition, 
TestParameter, AutoAnalysis.Line2.Point2.Data.Start, false
TestParameter, AutoAnalysis.Line2.Point2.Data.StartVar, 
TestParameter, AutoAnalysis.Line2.Point2.Data.StartCondition, 
TestParameter, AutoAnalysis.Line2.GradientExpr, 0
TestParameter, AutoAnalysis.Marker.Enabled, false
TestParameter, AutoAnalysis.Marker.Data.Var, 
TestParameter, AutoAnalysis.Marker.Data.Condition, 
TestParameter, AutoAnalysis.Marker.Data.Start, false
TestParameter, AutoAnalysis.Marker.Data.StartVar, 
TestParameter, AutoAnalysis.Marker.Data.StartCondition, 
MetaData, TestRecord.EntryPoint, true
MetaData, TestRecord.RecordTime, 05/02/2019 13:23:51
MetaData, TestRecord.TestTarget, 150-300-20-20
MetaData, TestRecord.IterationIndex, 1
MetaData, TestRecord.Preservation, true
MetaData, TestRecord.Flag, 
MetaData, TestRecord.Remarks, good
MetaData, TestRecord.LinkKey, beb61ee2-3736-4782-bd1b-5ed9b186780c
Dimension1, 202, 202, 202, 202, 202, 202, 202, 202, 202, 202
Dimension2, 1, 1, 1, 1, 1, 1, 1, 1, 1, 1
DataName, VG, VD, VS, ID, IS, IG, absID, sqrtID, gm2, absIG
DataValue, -2, 5, 0, 1.0401000000000001E-11, -8.3900000000000006E-13, -1.287E-12, 1.0401000000000001E-11, 3.2250581390108307E-06, 1.29473968004617E-10, 1.287E-12
DataValue, -1.9500000000000002, 5, 0, 7.0550000000000009E-12, -6.85E-13, -2.587E-12, 7.0550000000000009E-12, 2.6561249970586852E-06, 7.8242051986609989E-11, 2.587E-12
DataValue, -1.9000000000000001, 5, 0, 5.4780000000000007E-12, -6.9200000000000008E-13, -2.3050000000000004E-12, 5.4780000000000007E-12, 2.3405127643317824E-06, 3.8984661463573845E-11, 2.3050000000000004E-12
DataValue, -1.85, 5, 0, 4.128E-12, 1.29E-13, -3.0850000000000003E-12, 4.128E-12, 2.0317480158720473E-06, 8.8200922034793251E-12, 3.0850000000000003E-12
DataValue, -1.8, 5, 0, 4.176E-12, -4.7800000000000008E-13, -3.1780000000000004E-12, 4.176E-12, 2.0435263639111682E-06, 3.8733910327502281E-12, 3.1780000000000004E-12
DataValue, -1.75, 5, 0, 3.367E-12, -4.8500000000000005E-13, -3.2820000000000004E-12, 3.367E-12, 1.8349386910739007E-06, 4.2818438674108614E-14, 3.2820000000000004E-12
DataValue, -1.7000000000000002, 5, 0, 4.2610000000000005E-12, 6.880000000000001E-13, -1.2480000000000001E-12, 4.2610000000000005E-12, 2.0642189806316578E-06, 7.8039131800822419E-13, 1.2480000000000001E-12
DataValue, -1.6500000000000001, 5, 0, 3.699E-12, -1.81E-13, -3.1640000000000003E-12, 3.699E-12, 1.9232784509789527E-06, 2.990240839678022E-12, 3.1640000000000003E-12
DataValue, -1.6, 5, 0, 3.5770000000000002E-12, -6.8E-14, -3.322E-12, 3.5770000000000002E-12, 1.8912958520548816E-06, 1.0720887500242946E-12, 3.322E-12
DataValue, -1.55, 5, 0, 4.1080000000000007E-12, -6.9300000000000008E-13, -4.667E-12, 4.1080000000000007E-12, 2.0268201696253174E-06, 3.4761105552268389E-12, 4.667E-12
DataValue, -1.5, 5, 0, 4.317E-12, -5.88E-13, -2.3500000000000003E-12, 4.317E-12, 2.077739155909615E-06, 7.97377137050809E-13, 2.3500000000000003E-12
DataValue, -1.4500000000000002, 5, 0, 3.754E-12, -2.3900000000000004E-13, -2.5850000000000004E-12, 3.754E-12, 1.9375241933973369E-06, 2.2466987612408304E-11, 2.5850000000000004E-12
DataValue, -1.4000000000000001, 5, 0, 2.5720000000000003E-12, -3.5600000000000005E-13, -1.8650000000000002E-12, 2.5720000000000003E-12, 1.6037456157383565E-06, 1.9084462804303034E-11, 1.8650000000000002E-12
DataValue, -1.35, 5, 0, 2.252E-12, -5.1000000000000004E-14, -3.28E-13, 2.252E-12, 1.5006665185843257E-06, 3.246392032009887E-13, 3.28E-13
DataValue, -1.3, 5, 0, 2.758E-12, -5.0700000000000006E-13, -2.4880000000000003E-12, 2.758E-12, 1.6607227342335023E-06, 3.5835964797668308E-12, 2.4880000000000003E-12
DataValue, -1.25, 5, 0, 2.8560000000000004E-12, -2.1300000000000003E-13, -1.8040000000000002E-12, 2.8560000000000004E-12, 1.6899704139422088E-06, 2.36356775954859E-12, 1.8040000000000002E-12
DataValue, -1.2, 5, 0, 2.2710000000000003E-12, -3.87E-13, -3.367E-12, 2.2710000000000003E-12, 1.5069837424471441E-06, 1.7337166493289383E-13, 3.367E-12
DataValue, -1.1500000000000001, 5, 0, 2.7170000000000002E-12, -1.19E-13, -2.644E-12, 2.7170000000000002E-12, 1.6483324907311632E-06, 2.3248926035028363E-13, 2.644E-12
DataValue, -1.1, 5, 0, 2.1280000000000002E-12, 1.36E-13, -1.345E-12, 2.1280000000000002E-12, 1.4587666023048375E-06, 5.2920290533112117E-11, 1.345E-12
DataValue, -1.05, 5, 0, 8.48E-13, -6.54E-13, -1.4220000000000002E-12, 8.48E-13, 9.2086915465770707E-07, 3.2101094892813597E-11, 1.4220000000000002E-12
DataValue, -1, 5, 0, 7.96E-13, -4.21E-13, -1.1210000000000002E-12, 7.96E-13, 8.9218832092781849E-07, 7.9591907542284929E-12, 1.1210000000000002E-12
DataValue, -0.95000000000000007, 5, 0, -4.0800000000000003E-13, -5.7E-13, -1.976E-12, 4.0800000000000003E-13, 6.3874877690685246E-07, 1.2357291125160736E-12, 1.976E-12
DataValue, -0.9, 5, 0, -6.1E-13, -4.11E-13, -7.75E-13, 6.1E-13, 7.8102496759066546E-07, 9.2220191893569747E-11, 7.75E-13
DataValue, -0.85000000000000009, 5, 0, 2.557E-12, -3.7000000000000004E-13, -2.854E-12, 2.557E-12, 1.5990622251807464E-06, 2.9688435861248955E-11, 2.854E-12
DataValue, -0.8, 5, 0, 1.7580000000000002E-12, -9.7000000000000011E-13, -1.2420000000000002E-12, 1.7580000000000002E-12, 1.3258959235173779E-06, 5.7122416671652191E-13, 1.2420000000000002E-12
DataValue, -0.75, 5, 0, 2.3210000000000003E-12, -1.93E-13, -1.963E-12, 2.3210000000000003E-12, 1.5234828518890524E-06, 1.6843526487559554E-12, 1.963E-12
DataValue, -0.70000000000000007, 5, 0, 2.119E-12, -4.2800000000000004E-13, -2.277E-12, 2.119E-12, 1.455678535941229E-06, 7.8430952217645962E-13, 2.277E-12
DataValue, -0.65, 5, 0, 2.059E-12, -6.9100000000000008E-13, -1.638E-12, 2.059E-12, 1.4349216006458332E-06, 1.0675612444356187E-11, 1.638E-12
DataValue, -0.6, 5, 0, 3.1770000000000003E-12, -4.7800000000000008E-13, -2.1500000000000003E-12, 3.1770000000000003E-12, 1.7824140933015537E-06, 5.4021008467307405E-12, 2.1500000000000003E-12
DataValue, -0.55, 5, 0, 1.446E-12, -2.1000000000000001E-13, -1.7810000000000002E-12, 1.446E-12, 1.2024974012445932E-06, 8.6120946222495518E-11, 1.7810000000000002E-12
DataValue, -0.5, 5, 0, -7.3E-13, -1.45E-12, -1.6070000000000001E-12, 7.3E-13, 8.544003745317531E-07, 3.4634500306412228E-13, 1.6070000000000001E-12
DataValue, -0.45, 5, 0, 1.5910000000000002E-12, -3.3400000000000004E-13, 1.4500000000000001E-13, 1.5910000000000002E-12, 1.2613484847574838E-06, 1.3534493034393073E-11, 1.4500000000000001E-13
DataValue, -0.4, 5, 0, 1.494E-12, -7.71E-13, -1.0940000000000002E-12, 1.494E-12, 1.2222929272478018E-06, 1.1059417060081155E-13, 1.0940000000000002E-12
DataValue, -0.35000000000000003, 5, 0, 1.6760000000000001E-12, -7.27E-13, -1.2570000000000002E-12, 1.6760000000000001E-12, 1.2946041866145806E-06, 2.6800478130014209E-12, 1.2570000000000002E-12
DataValue, -0.3, 5, 0, 1.921E-12, -2.58E-13, -6.9000000000000009E-13, 1.921E-12, 1.3860014430006918E-06, 6.1082165174237946E-12, 6.9000000000000009E-13
DataValue, -0.25, 5, 0, 2.377E-12, -3.76E-13, -2.4040000000000003E-12, 2.377E-12, 1.5417522498767434E-06, 5.4073360543026078E-14, 2.4040000000000003E-12
DataValue, -0.2, 5, 0, 1.9860000000000002E-12, -3.8200000000000004E-13, -1.487E-12, 1.9860000000000002E-12, 1.4092551223962253E-06, 6.2951652226933586E-11, 1.487E-12
DataValue, -0.15, 5, 0, 5.6E-13, -2.45E-13, -1.4170000000000001E-12, 5.6E-13, 7.4833147735478826E-07, 1.2619308471414508E-12, 1.4170000000000001E-12
DataValue, -0.1, 5, 0, 1.6820000000000001E-12, -6.4600000000000007E-13, -5.34E-13, 1.6820000000000001E-12, 1.296919426949878E-06, 5.2281926263987157E-11, 5.34E-13
DataValue, -0.05, 5, 0, 2.165E-12, -5.66E-13, -1.5490000000000002E-12, 2.165E-12, 1.4713938969562162E-06, 2.3516053935232417E-11, 1.5490000000000002E-12
DataValue, 0, 5, 0, 3.175E-12, 3.2300000000000004E-13, -6.4900000000000006E-13, 3.175E-12, 1.7818529681205462E-06, 2.6680579634888236E-12, 6.4900000000000006E-13
DataValue, 0.05, 5, 0, 1.711E-12, -6.29E-13, -1.7740000000000001E-12, 1.711E-12, 1.3080519867344724E-06, 8.9169885438995736E-12, 1.7740000000000001E-12
DataValue, 0.1, 5, 0, 2.2000000000000003E-12, -1.005E-12, -1.199E-12, 2.2000000000000003E-12, 1.4832396974191326E-06, 9.08058918298509E-11, 1.199E-12
DataValue, 0.15, 5, 0, 5.112E-12, -3.805E-12, -7.340000000000001E-13, 5.112E-12, 2.2609732417700125E-06, 5.0088695994657263E-10, 7.340000000000001E-13
DataValue, 0.2, 5, 0, 1.3848000000000002E-11, -1.1906E-11, -2.443E-12, 1.3848000000000002E-11, 3.7212900988770011E-06, 2.3109802328375482E-09, 2.443E-12
DataValue, 0.25, 5, 0, 4.996E-11, -4.7672000000000006E-11, -3.28E-13, 4.996E-11, 7.068238818828917E-06, 8.96599847660679E-09, 3.28E-13
DataValue, 0.3, 5, 0, 1.73981E-10, -1.68791E-10, -9.7000000000000011E-13, 1.73981E-10, 1.319018574547E-05, 2.6861954567430863E-08, 9.7000000000000011E-13
DataValue, 0.35000000000000003, 5, 0, 5.50271E-10, -5.29407E-10, -1.4470000000000002E-12, 5.50271E-10, 2.3457855826993227E-05, 5.8645820419726971E-08, 1.4470000000000002E-12
DataValue, 0.4, 5, 0, 1.39929E-09, -1.3473E-09, -2.0300000000000002E-13, 1.39929E-09, 3.7407084890432184E-05, 1.1522997731333005E-07, 2.0300000000000002E-13
DataValue, 0.45, 5, 0, 3.29515E-09, -3.25105E-09, -7.72E-13, 3.29515E-09, 5.7403397112017687E-05, 1.92689573877489E-07, 7.72E-13
DataValue, 0.5, 5, 0, 6.61026E-09, -6.54193E-09, -6.39E-13, 6.61026E-09, 8.1303505459481878E-05, 2.4227705186712591E-07, 6.39E-13
DataValue, 0.55, 5, 0, 1.1368899999999999E-08, -1.1164099999999999E-08, -2.18E-13, 1.1368899999999999E-08, 0.00010662504396247628, 3.0087734615373424E-07, 2.18E-13
DataValue, 0.6, 5, 0, 1.85384E-08, -1.8415499999999997E-08, 1.113E-12, 1.85384E-08, 0.00013615579311949968, 3.7680543329530745E-07, 1.113E-12
DataValue, 0.65, 5, 0, 2.8227199999999996E-08, -2.8096E-08, -1.126E-12, 2.8227199999999996E-08, 0.00016800952353958985, 4.3152984033534082E-07, 1.126E-12
DataValue, 0.70000000000000007, 5, 0, 4.0742099999999994E-08, -4.05499E-08, 8.92E-13, 4.0742099999999994E-08, 0.0002018467240259301, 4.7708978311353794E-07, 8.92E-13
DataValue, 0.75, 5, 0, 5.6207499999999996E-08, -5.6019599999999993E-08, -2E-13, 5.6207499999999996E-08, 0.00023708120971515224, 5.0530704585779269E-07, 2E-13
DataValue, 0.8, 5, 0, 7.4491699999999987E-08, -7.4265299999999987E-08, -1.0790000000000002E-12, 7.4491699999999987E-08, 0.00027293167643203307, 5.4266965424274084E-07, 1.0790000000000002E-12
DataValue, 0.85000000000000009, 5, 0, 9.6563899999999985E-08, -9.630649999999999E-08, 9.36E-13, 9.6563899999999985E-08, 0.00031074732500859919, 5.66959256546162E-07, 9.36E-13
DataValue, 0.9, 5, 0, 1.21263E-07, -1.2062799999999999E-07, -6.9100000000000008E-13, 1.21263E-07, 0.00034822837334140365, 5.9992680181530753E-07, 6.9100000000000008E-13
DataValue, 0.95000000000000007, 5, 0, 1.50701E-07, -1.50407E-07, 7.1900000000000007E-13, 1.50701E-07, 0.00038820226686612738, 6.5776157321622445E-07, 7.1900000000000007E-13
DataValue, 1, 5, 0, 1.84325E-07, -1.83947E-07, 2.6E-13, 1.84325E-07, 0.0004293308747341612, 6.9287544088860757E-07, 2.6E-13
DataValue, 1.05, 5, 0, 2.22257E-07, -2.21946E-07, -3.4500000000000004E-13, 2.22257E-07, 0.00047144140675167684, 7.1963920389878949E-07, 3.4500000000000004E-13
DataValue, 1.1, 5, 0, 2.64363E-07, -2.63945E-07, 1.667E-12, 2.64363E-07, 0.00051416242569833908, 7.4355513734802144E-07, 1.667E-12
DataValue, 1.1500000000000001, 5, 0, 3.10997E-07, -3.10568E-07, -5.2800000000000007E-13, 3.10997E-07, 0.00055767104999273536, 7.658188037835913E-07, 5.2800000000000007E-13
DataValue, 1.2, 5, 0, 3.6201099999999997E-07, -3.61574E-07, 1.0810000000000001E-12, 3.6201099999999997E-07, 0.0006016734994995209, 7.8952201892450931E-07, 1.0810000000000001E-12
DataValue, 1.25, 5, 0, 4.17996E-07, -4.17545E-07, 8.1000000000000008E-14, 4.17996E-07, 0.00064652610156125943, 8.12588176040122E-07, 8.1000000000000008E-14
DataValue, 1.3, 5, 0, 4.7861099999999994E-07, -4.78231E-07, -1.7800000000000002E-13, 4.7861099999999994E-07, 0.00069181717238010212, 8.30288266960247E-07, 1.7800000000000002E-13
DataValue, 1.35, 5, 0, 5.44122E-07, -5.43632E-07, -7.77E-13, 5.44122E-07, 0.00073764625668405585, 8.5348648612864341E-07, 7.77E-13
DataValue, 1.4000000000000001, 5, 0, 6.14972E-07, -6.14567E-07, -4.1600000000000004E-13, 6.14972E-07, 0.00078420150471674051, 8.7228990828984527E-07, 4.1600000000000004E-13
DataValue, 1.4500000000000002, 5, 0, 6.9063199999999993E-07, -6.90411E-07, 3.4900000000000003E-13, 6.9063199999999993E-07, 0.00083104271851692439, 8.8796245325272771E-07, 3.4900000000000003E-13
DataValue, 1.5, 5, 0, 7.71645E-07, -7.7106E-07, -3.5E-13, 7.71645E-07, 0.00087843326439747264, 9.0988832895985284E-07, 3.5E-13
DataValue, 1.55, 5, 0, 8.58274E-07, -8.57806E-07, 2.0100000000000003E-13, 8.58274E-07, 0.0009264307853261354, 9.2332296436649728E-07, 2.0100000000000003E-13
DataValue, 1.6, 5, 0, 9.49695E-07, -9.49337E-07, -1.94E-13, 9.49695E-07, 0.000974522960222077, 9.388483570375118E-07, 1.94E-13
DataValue, 1.6500000000000001, 5, 0, 1.047194E-06, -1.046899E-06, 1.2800000000000002E-12, 1.047194E-06, 0.0010233249728214394, 9.5032282156847686E-07, 1.2800000000000002E-12
DataValue, 1.7000000000000002, 5, 0, 1.1492000000000002E-06, -1.1493300000000001E-06, -3.08E-13, 1.1492000000000002E-06, 0.0010720074626605917, 9.6136425191777231E-07, 3.08E-13
DataValue, 1.75, 5, 0, 1.2574800000000001E-06, -1.2578500000000002E-06, 1.859E-12, 1.2574800000000001E-06, 0.0011213741570055911, 9.873110886518855E-07, 1.859E-12
DataValue, 1.8, 5, 0, 1.3721100000000002E-06, -1.3724000000000002E-06, -9.63E-13, 1.3721100000000002E-06, 0.0011713709916162344, 1.0055349548629776E-06, 9.63E-13
DataValue, 1.85, 5, 0, 1.49243E-06, -1.4927000000000001E-06, 3.8E-14, 1.49243E-06, 0.0012216505228583173, 1.0176569376754135E-06, 3.8E-14
DataValue, 1.9000000000000001, 5, 0, 1.6186200000000002E-06, -1.6185900000000002E-06, -1.3800000000000002E-12, 1.6186200000000002E-06, 0.0012722499754372174, 1.0312431380013432E-06, 1.3800000000000002E-12
DataValue, 1.9500000000000002, 5, 0, 1.7508600000000002E-06, -1.7510800000000001E-06, 2.23E-13, 1.7508600000000002E-06, 0.0013232006650542466, 1.0463233378287333E-06, 2.23E-13
DataValue, 2, 5, 0, 1.8893600000000002E-06, -1.8890300000000002E-06, -4.21E-13, 1.8893600000000002E-06, 0.0013745399230287931, 1.05982896330476E-06, 4.21E-13
DataValue, 2.05, 5, 0, 2.0339E-06, -2.0340900000000003E-06, 4.8200000000000007E-13, 2.0339E-06, 0.001426148659852822, 1.0721213980202835E-06, 4.8200000000000007E-13
DataValue, 2.1, 5, 0, 2.1847300000000004E-06, -2.18481E-06, -2.48E-13, 2.1847300000000004E-06, 0.0014780832182255505, 1.0853757836740908E-06, 2.48E-13
DataValue, 2.15, 5, 0, 2.3419100000000002E-06, -2.34212E-06, -6.7500000000000005E-13, 2.3419100000000002E-06, 0.0015303300297648218, 1.1003621068338894E-06, 6.7500000000000005E-13
DataValue, 2.2, 5, 0, 2.50583E-06, -2.5059400000000003E-06, 1.001E-12, 2.50583E-06, 0.0015829813643880968, 1.112058530976657E-06, 1.001E-12
DataValue, 2.25, 5, 0, 2.6757900000000004E-06, -2.6760300000000003E-06, 2.303E-12, 2.6757900000000004E-06, 0.0016357842155981333, 1.1263752747839989E-06, 2.303E-12
DataValue, 2.3000000000000003, 5, 0, 2.8531000000000003E-06, -2.85319E-06, 9.44E-13, 2.8531000000000003E-06, 0.0016891121928397771, 1.1405029681378577E-06, 9.44E-13
