
SetupTitle, Transfer sat
PrimitiveTest, I/V Sweep
TestParameter, Context.MainFrame, 4155C
TestParameter, Channel.UnitType, SMU, SMU, SMU
TestParameter, Channel.Unit, SMU3:MP, SMU1:MP, SMU4:MP
TestParameter, Channel.IName, ID, IS, IG
TestParameter, Channel.VName, VD, VS, VG
TestParameter, Channel.Mode, V, COMMON, V
TestParameter, Channel.Func, CONST, CONST, VAR1
TestParameter, Channel.Index, 
TestParameter, Channel.Time, 
TestParameter, Measurement.Port.Unit, SMU3:MP, SMU1:MP, SMU4:MP
TestParameter, Measurement.Port.SeriesResistor, NONE, NONE, NONE
TestParameter, Measurement.Port.Filter, ON, ON, ON
TestParameter, Measurement.Primary.Locus, Double
TestParameter, Measurement.Primary.Scale, LINEAR
TestParameter, Measurement.Primary.Start, -2
TestParameter, Measurement.Primary.Stop, 3
TestParameter, Measurement.Primary.Step, 0.05
TestParameter, Measurement.Primary.Compliance, 0.001
TestParameter, Measurement.Primary.PowerCompliance, 0
TestParameter, Measurement.Aborting.Condition, CONTINUE AT ANY
TestParameter, Measurement.PostOutput.Value, START
TestParameter, Measurement.PostOutput.Retention, OFF
TestParameter, Measurement.Bias.Source, 5, 0, -2
TestParameter, Measurement.Bias.Compliance, 0.001, 0.1, 0.001
TestParameter, Measurement.Monitor.Unit, SMU3:MP, SMU1:MP, SMU4:MP
TestParameter, Measurement.Monitor.Adc, HR ADC, HR ADC, HR ADC
TestParameter, Measurement.Monitor.RangingMode, AUTO, AUTO, AUTO
TestParameter, Measurement.Monitor.RangeBoundary, , , 
TestParameter, Measurement.Monitor.RangeRating, BY FULL RANGE, BY FULL RANGE, BY FULL RANGE
TestParameter, Measurement.Monitor.RangeRatingCoeff, 50, 50, 50
TestParameter, Measurement.Timing.Hold, 0.5
TestParameter, Measurement.Timing.Delay, 0.05
TestParameter, Measurement.Adc.HighResolution.AutoZero, OFF
TestParameter, Measurement.Adc.HighResolution.Mode, AUTO
TestParameter, Measurement.Adc.HighResolution.Coeff, 1
TestParameter, Measurement.Ag16440ASelector.SemiconductorRelay.Channel1, DEFAULT
TestParameter, Measurement.Ag16440ASelector.SemiconductorRelay.Channel3, DEFAULT
TestParameter, Function.User.Name, absID, sqrtID, gm2, absIG
TestParameter, Function.User.Unit, A, A, A/V, A
TestParameter, Function.User.Definition, abs(ID), sqrt(abs(ID)), (delta(sqrtID)/delta(VG))^2, abs(IG)
TestParameter, Output.Graph.Enabled, true
TestParameter, Output.Graph.XAxis.Data, VG
TestParameter, Output.Graph.XAxis.Scale, Linear
TestParameter, Output.Graph.XAxis.Left, -5
TestParameter, Output.Graph.XAxis.Right, 7
TestParameter, Output.Graph.YAxis.Data, ID, absIG, gm2
TestParameter, Output.Graph.YAxis.Scale, Log, Log, Linear
TestParameter, Output.Graph.YAxis.Bottom, 1E-14, 1E-14, 0
TestParameter, Output.Graph.YAxis.Top, 0.01, 0.01, 1E-05
TestParameter, Output.Graph.YAxis.Group, , , 
TestParameter, Output.List.Data, VG, IG, VD, ID, VS, IS, sqrtID, gm2, absIG
TestParameter, AutoAnalysis.Interpolation, false
TestParameter, AutoAnalysis.Line1.Enabled, false
TestParameter, AutoAnalysis.Line1.Type, 1
TestParameter, AutoAnalysis.Line1.Fix, True
TestParameter, AutoAnalysis.Line1.YAxis, 0
TestParameter, AutoAnalysis.Line1.Point1.Type, 0
TestParameter, AutoAnalysis.Line1.Point1.XY.X, 
TestParameter, AutoAnalysis.Line1.Point1.XY.Y, 
TestParameter, AutoAnalysis.Line1.Point1.Data.Var, 
TestParameter, AutoAnalysis.Line1.Point1.Data.Condition, 
TestParameter, AutoAnalysis.Line1.Point1.Data.Start, false
TestParameter, AutoAnalysis.Line1.Point1.Data.StartVar, 
TestParameter, AutoAnalysis.Line1.Point1.Data.StartCondition, 
TestParameter, AutoAnalysis.Line1.Point2.Type, 0
TestParameter, AutoAnalysis.Line1.Point2.XY.X, 
TestParameter, AutoAnalysis.Line1.Point2.XY.Y, 
TestParameter, AutoAnalysis.Line1.Point2.Data.Var, 
TestParameter, AutoAnalysis.Line1.Point2.Data.Condition, 
TestParameter, AutoAnalysis.Line1.Point2.Data.Start, false
TestParameter, AutoAnalysis.Line1.Point2.Data.StartVar, 
TestParameter, AutoAnalysis.Line1.Point2.Data.StartCondition, 
TestParameter, AutoAnalysis.Line1.GradientExpr, 0
TestParameter, AutoAnalysis.Line2.Enabled, false
TestParameter, AutoAnalysis.Line2.Type, 1
TestParameter, AutoAnalysis.Line2.Fix, True
TestParameter, AutoAnalysis.Line2.YAxis, 0
TestParameter, AutoAnalysis.Line2.Point1.Type, 0
TestParameter, AutoAnalysis.Line2.Point1.XY.X, 
TestParameter, AutoAnalysis.Line2.Point1.XY.Y, 
TestParameter, AutoAnalysis.Line2.Point1.Data.Var, 
TestParameter, AutoAnalysis.Line2.Point1.Data.Condition, 
TestParameter, AutoAnalysis.Line2.Point1.Data.Start, false
TestParameter, AutoAnalysis.Line2.Point1.Data.StartVar, 
TestParameter, AutoAnalysis.Line2.Point1.Data.StartCondition, 
TestParameter, AutoAnalysis.Line2.Point2.Type, 0
TestParameter, AutoAnalysis.Line2.Point2.XY.X, 
TestParameter, AutoAnalysis.Line2.Point2.XY.Y, 
TestParameter, AutoAnalysis.Line2.Point2.Data.Var, 
TestParameter, AutoAnalysis.Line2.Point2.Data.Condition, 
TestParameter, AutoAnalysis.Line2.Point2.Data.Start, false
TestParameter, AutoAnalysis.Line2.Point2.Data.StartVar, 
TestParameter, AutoAnalysis.Line2.Point2.Data.StartCondition, 
TestParameter, AutoAnalysis.Line2.GradientExpr, 0
TestParameter, AutoAnalysis.Marker.Enabled, false
TestParameter, AutoAnalysis.Marker.Data.Var, 
TestParameter, AutoAnalysis.Marker.Data.Condition, 
TestParameter, AutoAnalysis.Marker.Data.Start, false
TestParameter, AutoAnalysis.Marker.Data.StartVar, 
TestParameter, AutoAnalysis.Marker.Data.StartCondition, 
MetaData, TestRecord.EntryPoint, true
MetaData, TestRecord.RecordTime, 05/02/2019 16:44:42
MetaData, TestRecord.TestTarget, br-br-10-0.75
MetaData, TestRecord.IterationIndex, 1
MetaData, TestRecord.Preservation, true
MetaData, TestRecord.Flag, 
MetaData, TestRecord.Remarks, good
MetaData, TestRecord.LinkKey, 07320d35-1e9e-4fb5-b9fd-c7f0942f27c8
Dimension1, 202, 202, 202, 202, 202, 202, 202, 202, 202, 202
Dimension2, 1, 1, 1, 1, 1, 1, 1, 1, 1, 1
DataName, VG, VD, VS, ID, IS, IG, absID, sqrtID, gm2, absIG
DataValue, -2, 5, 0, 5.5300000000000007E-13, 6.0300000000000006E-13, 1.83E-13, 5.5300000000000007E-13, 7.4363969770312837E-07, 6.1756380399496046E-11, 1.83E-13
DataValue, -1.9500000000000002, 5, 0, 1.23E-13, 1.4E-14, 9.48E-13, 1.23E-13, 3.5071355833500363E-07, 9.8438112805162765E-11, 9.48E-13
DataValue, -1.9000000000000001, 5, 0, 3.013E-12, 4.6100000000000006E-13, 3.31E-13, 3.013E-12, 1.7357995275952808E-06, 3.0789583059896185E-13, 3.31E-13
DataValue, -1.85, 5, 0, 1.65E-13, 1.009E-12, -1.58E-13, 1.65E-13, 4.0620192023179803E-07, 1.0758451595825867E-10, 1.58E-13
DataValue, -1.8, 5, 0, 4.88E-13, 1.19E-13, -6.9900000000000005E-13, 4.88E-13, 6.9856996786291924E-07, 3.5734554895453479E-14, 6.9900000000000005E-13
DataValue, -1.75, 5, 0, -1.5000000000000002E-13, -2.17E-13, 7.1700000000000008E-13, 1.5000000000000002E-13, 3.8729833462074172E-07, 8.08168366892932E-12, 7.1700000000000008E-13
DataValue, -1.7000000000000002, 5, 0, 9.6600000000000012E-13, -5.44E-13, 1.479E-12, 9.6600000000000012E-13, 9.8285299002444927E-07, 2.7086416675012285E-11, 1.479E-12
DataValue, -1.6500000000000001, 5, 0, 8.24E-13, 2.59E-13, 4.76E-13, 8.24E-13, 9.0774445743281734E-07, 7.9779864989831466E-12, 4.76E-13
DataValue, -1.6, 5, 0, 1.6010000000000002E-12, 5.89E-13, 5.0200000000000008E-13, 1.6010000000000002E-12, 1.2653062870309307E-06, 1.9911695326853596E-11, 5.0200000000000008E-13
DataValue, -1.55, 5, 0, -2.1300000000000003E-13, -1.665E-12, 2.7710000000000002E-12, 2.1300000000000003E-13, 4.6151923036857308E-07, 7.3175750183479157E-11, 2.7710000000000002E-12
DataValue, -1.5, 5, 0, 1.6800000000000002E-13, -1.4420000000000001E-12, 7.4000000000000008E-13, 1.6800000000000002E-13, 4.0987803063838397E-07, 3.1911130151258939E-10, 7.4000000000000008E-13
DataValue, -1.4500000000000002, 5, 0, 5.053E-12, -8.5700000000000008E-13, 4.2900000000000004E-13, 5.053E-12, 2.2478878975607305E-06, 7.4400142959275047E-12, 4.2900000000000004E-13
DataValue, -1.4000000000000001, 5, 0, -4.66E-13, -2.3900000000000004E-13, 4.9550000000000006E-12, 4.66E-13, 6.8264192663504048E-07, 3.4100787156862914E-10, 4.9550000000000006E-12
DataValue, -1.35, 5, 0, 1.6100000000000002E-13, 2.19E-12, -2.173E-12, 1.6100000000000002E-13, 4.012480529547776E-07, 8.3753443758559284E-11, 2.173E-12
DataValue, -1.3, 5, 0, 2.553E-12, -2.8520000000000004E-12, -1.897E-12, 2.553E-12, 1.5978110025907321E-06, 1.4265219642649057E-10, 1.897E-12
DataValue, -1.25, 5, 0, 2.5460000000000003E-12, -5.6310000000000005E-12, 4.819E-12, 2.5460000000000003E-12, 1.5956190021430555E-06, 9.8593338594259E-11, 4.819E-12
DataValue, -1.2, 5, 0, 6.7120000000000005E-12, -4.8660000000000005E-12, -1.4550000000000002E-12, 6.7120000000000005E-12, 2.5907527863538043E-06, 4.9680269152283793E-10, 1.4550000000000002E-12
DataValue, -1.1500000000000001, 5, 0, 1.4627000000000002E-11, -1.5287E-11, -1.4300000000000002E-12, 1.4627000000000002E-11, 3.8245261144356172E-06, 8.2454042179873758E-10, 1.4300000000000002E-12
DataValue, -1.1, 5, 0, 2.9836E-11, -3.5804000000000004E-11, 6.1620000000000006E-12, 2.9836E-11, 5.4622339752156352E-06, 1.2279309359018343E-09, 6.1620000000000006E-12
DataValue, -1.05, 5, 0, 5.371E-11, -5.4835000000000004E-11, 1.3090000000000002E-11, 5.371E-11, 7.3287106642301E-06, 1.9987978845854602E-09, 1.3090000000000002E-11
DataValue, -1, 5, 0, 9.8665E-11, -9.1441E-11, -4.8920000000000006E-12, 9.8665E-11, 9.9330257223063713E-06, 3.293916802761846E-09, 4.8920000000000006E-12
DataValue, -0.95000000000000007, 5, 0, 1.70772E-10, -1.6795000000000003E-10, -6.8370000000000009E-12, 1.70772E-10, 1.3067976124863407E-05, 4.5236194088198463E-09, 6.8370000000000009E-12
DataValue, -0.9, 5, 0, 2.77516E-10, -2.7491500000000003E-10, 3.493E-12, 2.77516E-10, 1.6658811482215651E-05, 6.0964348167218565E-09, 3.493E-12
DataValue, -0.85000000000000009, 5, 0, 4.3580500000000003E-10, -4.1547300000000004E-10, 4.7840000000000006E-12, 4.3580500000000003E-10, 2.0875943092468902E-05, 7.6229148109894989E-09, 4.7840000000000006E-12
DataValue, -0.8, 5, 0, 6.4463900000000005E-10, -6.3074400000000007E-10, -1.8780000000000003E-12, 6.4463900000000005E-10, 2.5389742023108468E-05, 1.0445902352857819E-08, 1.8780000000000003E-12
DataValue, -0.75, 5, 0, 9.6699E-10, -9.5463E-10, 5.593E-12, 9.6699E-10, 3.1096462821356389E-05, 1.4269167573743832E-08, 5.593E-12
DataValue, -0.70000000000000007, 5, 0, 1.39391E-09, -1.34938E-09, -7.47E-13, 1.39391E-09, 3.7335104124670658E-05, 1.6391889833882995E-08, 7.47E-13
DataValue, -0.65, 5, 0, 1.92717E-09, -1.91609E-09, 2.385E-12, 1.92717E-09, 4.3899544416770435E-05, 2.2511949409829321E-08, 2.385E-12
DataValue, -0.6, 5, 0, 2.73938E-09, -2.72303E-09, 4.999E-12, 2.73938E-09, 5.233908673257492E-05, 2.50006491308889E-08, 4.999E-12
DataValue, -0.55, 5, 0, 3.56542E-09, -3.49089E-09, 2.766E-12, 3.56542E-09, 5.97111379894907E-05, 2.1138502431369242E-08, 2.766E-12
DataValue, -0.5, 5, 0, 4.47269E-09, -4.35686E-09, -1.973E-12, 4.47269E-09, 6.6878172821930478E-05, 2.3812995103469026E-08, 1.973E-12
DataValue, -0.45, 5, 0, 5.64641E-09, -5.57658E-09, 8.5500000000000009E-13, 5.64641E-09, 7.5142597772501847E-05, 2.340616847622184E-08, 8.5500000000000009E-13
DataValue, -0.4, 5, 0, 6.7531E-09, -6.61912E-09, -3.38E-12, 6.7531E-09, 8.2177247459378925E-05, 2.5143977993721983E-08, 3.38E-12
DataValue, -0.35000000000000003, 5, 0, 8.2809E-09, -8.08985E-09, -5.119E-12, 8.2809E-09, 9.099945054779177E-05, 3.0223279116690923E-08, 5.119E-12
DataValue, -0.3, 5, 0, 9.91261E-09, -9.58686E-09, 5.3150000000000007E-12, 9.91261E-09, 9.9562091179323877E-05, 1.2652397873542277E-08, 5.3150000000000007E-12
DataValue, -0.25, 5, 0, 1.0454599999999998E-08, -1.0335999999999999E-08, -3.4540000000000004E-12, 1.0454599999999998E-08, 0.00010224773836129578, 1.4136477864444082E-08, 3.4540000000000004E-12
DataValue, -0.2, 5, 0, 1.2421499999999998E-08, -1.2305299999999998E-08, 2.608E-12, 1.2421499999999998E-08, 0.0001114517832966346, 3.0986568453046755E-08, 2.608E-12
DataValue, -0.15, 5, 0, 1.4364199999999998E-08, -1.4097999999999998E-08, 6.689E-12, 1.4364199999999998E-08, 0.00011985074050668188, 2.6576424530281511E-08, 6.689E-12
DataValue, -0.1, 5, 0, 1.63211E-08, -1.58309E-08, 5.7780000000000006E-12, 1.63211E-08, 0.00012775406060082787, 2.3002775083920833E-08, 5.7780000000000006E-12
DataValue, -0.05, 5, 0, 1.82297E-08, -1.79943E-08, -3.7930000000000005E-12, 1.82297E-08, 0.00013501740628526381, 3.1368148665289205E-08, 3.7930000000000005E-12
DataValue, 0, 5, 0, 2.1160099999999998E-08, -2.0754299999999998E-08, -3.013E-12, 2.1160099999999998E-08, 0.00014546511609317197, 3.2827935674726968E-08, 3.013E-12
DataValue, 0.05, 5, 0, 2.3450599999999998E-08, -2.2952499999999997E-08, 3.2620000000000004E-12, 2.3450599999999998E-08, 0.00015313588736804969, 2.5125525126942363E-08, 3.2620000000000004E-12
DataValue, 0.1, 5, 0, 2.60229E-08, -2.6046099999999996E-08, -1.3500000000000001E-12, 2.60229E-08, 0.00016131614922257473, 2.9505138608913844E-08, 1.3500000000000001E-12
DataValue, 0.15, 5, 0, 2.9006499999999996E-08, -2.8970599999999997E-08, -2.3870000000000002E-12, 2.9006499999999996E-08, 0.00017031294724711917, 3.773345991562526E-08, 2.3870000000000002E-12
DataValue, 0.2, 5, 0, 3.26674E-08, -3.1402199999999996E-08, 2.812E-12, 3.26674E-08, 0.00018074125151718961, 3.2716451848377296E-08, 2.812E-12
DataValue, 0.25, 5, 0, 3.54948E-08, -3.54061E-08, 2.4670000000000003E-12, 3.54948E-08, 0.00018840063694159848, 3.0609166839989239E-08, 2.4670000000000003E-12
DataValue, 0.3, 5, 0, 3.9297799999999995E-08, -3.93647E-08, 4.5500000000000008E-13, 3.9297799999999995E-08, 0.00019823672717233807, 4.7701412385002253E-08, 4.5500000000000008E-13
DataValue, 0.35000000000000003, 5, 0, 4.4201399999999995E-08, -4.3446099999999996E-08, -7.6400000000000008E-13, 4.4201399999999995E-08, 0.00021024128995038058, 5.5157442775122494E-08, 7.6400000000000008E-13
DataValue, 0.4, 5, 0, 4.9160799999999995E-08, -4.8971699999999994E-08, 2E-15, 4.9160799999999995E-08, 0.00022172234889609121, 3.294796145601582E-08, 2E-15
DataValue, 0.45, 5, 0, 5.2163299999999992E-08, -5.1420399999999995E-08, 2.8440000000000004E-12, 5.2163299999999992E-08, 0.00022839286328604926, 3.2713023041163333E-08, 2.8440000000000004E-12
DataValue, 0.5, 5, 0, 5.7508399999999996E-08, -5.6279399999999992E-08, 2.11E-13, 5.7508399999999996E-08, 0.00023980909073677753, 4.9529822193594975E-08, 2.11E-13
DataValue, 0.55, 5, 0, 6.28245E-08, -6.23996E-08, -8.19E-13, 6.28245E-08, 0.00025064815977780488, 3.9262136555427709E-08, 8.19E-13
DataValue, 0.6, 5, 0, 6.74045E-08, -6.5721399999999992E-08, -6.16E-13, 6.74045E-08, 0.00025962376624646673, 4.5239838076640026E-08, 6.16E-13
DataValue, 0.65, 5, 0, 7.3939299999999988E-08, -7.33242E-08, 5.7700000000000007E-13, 7.3939299999999988E-08, 0.00027191781846727143, 6.29091453712079E-08, 5.7700000000000007E-13
DataValue, 0.70000000000000007, 5, 0, 8.10572E-08, -7.9217599999999993E-08, 1.5600000000000002E-12, 8.10572E-08, 0.00028470546183731704, 6.6795568714137017E-08, 1.5600000000000002E-12
DataValue, 0.75, 5, 0, 8.86626E-08, -8.663759999999999E-08, 1.09E-13, 8.86626E-08, 0.00029776265716170653, 3.5775325015497429E-08, 1.09E-13
DataValue, 0.8, 5, 0, 9.2184999999999988E-08, -9.3147599999999986E-08, -1.0810000000000001E-12, 9.2184999999999988E-08, 0.00030361982807451817, 2.8627700573722984E-08, 1.0810000000000001E-12
DataValue, 0.85000000000000009, 5, 0, 9.9025E-08, -9.50586E-08, -4.33E-13, 9.9025E-08, 0.00031468237955119125, 3.0407683924800873E-08, 4.33E-13
DataValue, 0.9, 5, 0, 1.0307799999999999E-07, -1.0030749999999999E-07, -5.4E-13, 1.0307799999999999E-07, 0.00032105762722601687, 4.3534549374323074E-08, 5.4E-13
DataValue, 0.95000000000000007, 5, 0, 1.1259199999999999E-07, -1.06343E-07, 3.4900000000000003E-13, 1.1259199999999999E-07, 0.00033554731410041116, 4.2436396485721512E-08, 3.4900000000000003E-13
DataValue, 1, 5, 0, 1.1673E-07, -1.15061E-07, -1.0410000000000001E-12, 1.1673E-07, 0.0003416577234601905, 2.8642046692932446E-08, 1.0410000000000001E-12
DataValue, 1.05, 5, 0, 1.24236E-07, -1.23399E-07, 1.89E-13, 1.24236E-07, 0.00035247127542538837, 5.1637765704094864E-08, 1.89E-13
DataValue, 1.1, 5, 0, 1.32774E-07, -1.31688E-07, 4.2800000000000004E-13, 1.32774E-07, 0.00036438166803504259, 6.2304341747576634E-08, 4.2800000000000004E-13
DataValue, 1.1500000000000001, 5, 0, 1.42455E-07, -1.41767E-07, 9.9000000000000007E-14, 1.42455E-07, 0.00037743211310115092, 6.8623613253236784E-08, 9.9000000000000007E-14
DataValue, 1.2, 5, 0, 1.52551E-07, -1.49612E-07, 7.7E-14, 1.52551E-07, 0.00039057777714560262, 5.0452449808043857E-08, 7.7E-14
DataValue, 1.25, 5, 0, 1.5991499999999999E-07, -1.6049799999999999E-07, -7.100000000000001E-13, 1.5991499999999999E-07, 0.00039989373588492229, 5.9956778879558021E-08, 7.100000000000001E-13
DataValue, 1.3, 5, 0, 1.72278E-07, -1.71668E-07, -1.42E-13, 1.72278E-07, 0.00041506385050977396, 9.856479393805074E-08, 1.42E-13
DataValue, 1.35, 5, 0, 1.8601E-07, -1.85618E-07, 6.880000000000001E-13, 1.8601E-07, 0.00043128876637352843, 3.7923024386232713E-08, 6.880000000000001E-13
DataValue, 1.4000000000000001, 5, 0, 1.88823E-07, -1.87898E-07, 2.9800000000000004E-13, 1.88823E-07, 0.000434537685362271, 2.3304530774849182E-08, 2.9800000000000004E-13
DataValue, 1.4500000000000002, 5, 0, 1.9941099999999999E-07, -1.97641E-07, -7.54E-13, 1.9941099999999999E-07, 0.00044655458792850844, 7.3327434078875223E-08, 7.54E-13
DataValue, 1.5, 5, 0, 2.1308999999999998E-07, -2.09446E-07, 7.7E-14, 2.1308999999999998E-07, 0.00046161672413377744, 5.8271933683821778E-08, 7.7E-14
DataValue, 1.55, 5, 0, 2.21553E-07, -2.1974E-07, 1.4400000000000002E-13, 2.21553E-07, 0.0004706941682239116, 5.5262616256896814E-08, 1.4400000000000002E-13
DataValue, 1.6, 5, 0, 2.35346E-07, -2.3433299999999999E-07, 1.1040000000000001E-12, 2.35346E-07, 0.00048512472623027576, 6.0301056683187059E-08, 1.1040000000000001E-12
DataValue, 1.6500000000000001, 5, 0, 2.45273E-07, -2.42755E-07, -6.410000000000001E-13, 2.45273E-07, 0.00049525044169591609, 6.5081886957235014E-08, 6.410000000000001E-13
DataValue, 1.7000000000000002, 5, 0, 2.60749E-07, -2.57008E-07, 1.18E-12, 2.60749E-07, 0.00051063587809710355, 6.15161041388916E-08, 1.18E-12
DataValue, 1.75, 5, 0, 2.7045499999999997E-07, -2.65061E-07, 1.7300000000000002E-13, 2.7045499999999997E-07, 0.00052005288192644411, 5.8756831100822944E-08, 1.7300000000000002E-13
DataValue, 1.8, 5, 0, 2.86092E-07, -2.77635E-07, 6.5E-14, 2.86092E-07, 0.00053487568649173052, 6.26163518192262E-08, 6.5E-14
DataValue, 1.85, 5, 0, 2.97108E-07, -2.93003E-07, -1.1020000000000002E-12, 2.97108E-07, 0.00054507614147016189, 6.71023831671015E-08, 1.1020000000000002E-12
DataValue, 1.9000000000000001, 5, 0, 3.14474E-07, -3.08188E-07, 4.3700000000000006E-13, 3.14474E-07, 0.00056077981418735108, 5.52050442865418E-08, 4.3700000000000006E-13
DataValue, 1.9500000000000002, 5, 0, 3.23274E-07, -3.20745E-07, -1.174E-12, 3.23274E-07, 0.00056857189519004538, 2.1204670220848394E-08, 1.174E-12
DataValue, 2, 5, 0, 3.31018E-07, -3.3357E-07, 1.4510000000000002E-12, 3.31018E-07, 0.0005753416376380211, 4.8911036003747762E-08, 1.4510000000000002E-12
DataValue, 2.05, 5, 0, 3.4891199999999997E-07, -3.48968E-07, -6.2300000000000007E-13, 3.4891199999999997E-07, 0.00059068773476347045, 1.0858803721489629E-07, 6.2300000000000007E-13
DataValue, 2.1, 5, 0, 3.70022E-07, -3.585E-07, 6.5100000000000005E-13, 3.70022E-07, 0.000608294336649619, 6.8726939336340883E-08, 6.5100000000000005E-13
DataValue, 2.15, 5, 0, 3.8056999999999997E-07, -3.76991E-07, -2.34E-13, 3.8056999999999997E-07, 0.00061690355810288533, 4.37956274560233E-08, 2.34E-13
DataValue, 2.2, 5, 0, 3.9592E-07, -3.93601E-07, -6.85E-13, 3.9592E-07, 0.00062922174151883853, 5.0091804542779917E-08, 6.85E-13
DataValue, 2.25, 5, 0, 4.08685E-07, -4.0225099999999997E-07, 5.5200000000000007E-13, 4.08685E-07, 0.0006392847565834806, 2.4256038666693361E-08, 5.5200000000000007E-13
DataValue, 2.3000000000000003, 5, 0, 4.15762E-07, -4.1052E-07, -4.1900000000000003E-13, 4.15762E-07, 0.00064479609179957044, 4.7119049041104238E-08, 4.1900000000000003E-13
DataValue, 2.35, 5, 0, 4.3691E-07, -4.26803E-07, 4.11E-13, 4.3691E-07, 0.00066099167922145587, 4.68255036515507E-08, 4.11E-13
