
SetupTitle, Transfer stab
PrimitiveTest, I/V Sweep
TestParameter, Context.MainFrame, 4155C
TestParameter, Channel.UnitType, SMU, SMU, SMU
TestParameter, Channel.Unit, SMU3:MP, SMU1:MP, SMU4:MP
TestParameter, Channel.IName, ID, IS, IG
TestParameter, Channel.VName, VD, VS, VG
TestParameter, Channel.Mode, V, COMMON, V
TestParameter, Channel.Func, CONST, CONST, VAR1
TestParameter, Channel.Index, 
TestParameter, Channel.Time, 
TestParameter, Measurement.Port.Unit, SMU3:MP, SMU1:MP, SMU4:MP
TestParameter, Measurement.Port.SeriesResistor, NONE, NONE, NONE
TestParameter, Measurement.Port.Filter, ON, ON, ON
TestParameter, Measurement.Primary.Locus, Single
TestParameter, Measurement.Primary.Scale, LINEAR
TestParameter, Measurement.Primary.Start, -2
TestParameter, Measurement.Primary.Stop, 3
TestParameter, Measurement.Primary.Step, 0.05
TestParameter, Measurement.Primary.Compliance, 0.1
TestParameter, Measurement.Primary.PowerCompliance, 0
TestParameter, Measurement.Aborting.Condition, CONTINUE AT ANY
TestParameter, Measurement.PostOutput.Value, START
TestParameter, Measurement.PostOutput.Retention, OFF
TestParameter, Measurement.Bias.Source, 3, 0, -2
TestParameter, Measurement.Bias.Compliance, 0.1, 0.1, 0.1
TestParameter, Measurement.Monitor.Unit, SMU3:MP, SMU1:MP, SMU4:MP
TestParameter, Measurement.Monitor.Adc, HR ADC, HR ADC, HR ADC
TestParameter, Measurement.Monitor.RangingMode, AUTO, AUTO, AUTO
TestParameter, Measurement.Monitor.RangeBoundary, , , 
TestParameter, Measurement.Monitor.RangeRating, BY FULL RANGE, BY FULL RANGE, BY FULL RANGE
TestParameter, Measurement.Monitor.RangeRatingCoeff, 50, 50, 50
TestParameter, Measurement.Timing.Hold, 0.5
TestParameter, Measurement.Timing.Delay, 0.05
TestParameter, Measurement.Adc.HighResolution.AutoZero, OFF
TestParameter, Measurement.Adc.HighResolution.Mode, AUTO
TestParameter, Measurement.Adc.HighResolution.Coeff, 1
TestParameter, Measurement.Ag16440ASelector.SemiconductorRelay.Channel1, DEFAULT
TestParameter, Measurement.Ag16440ASelector.SemiconductorRelay.Channel3, DEFAULT
TestParameter, Function.User.Name, absID, sqrtID, gm2, absIG
TestParameter, Function.User.Unit, A, A, A/V, A
TestParameter, Function.User.Definition, abs(ID), sqrt(abs(ID)), (delta(sqrtID)/delta(VG))^2, abs(IG)
TestParameter, Output.Graph.Enabled, true
TestParameter, Output.Graph.XAxis.Data, VG
TestParameter, Output.Graph.XAxis.Scale, Linear
TestParameter, Output.Graph.XAxis.Left, -5
TestParameter, Output.Graph.XAxis.Right, 7
TestParameter, Output.Graph.YAxis.Data, ID, absIG, gm2
TestParameter, Output.Graph.YAxis.Scale, Log, Log, Linear
TestParameter, Output.Graph.YAxis.Bottom, 1E-14, 1E-14, 0
TestParameter, Output.Graph.YAxis.Top, 0.01, 0.01, 1E-05
TestParameter, Output.Graph.YAxis.Group, , , 
TestParameter, Output.List.Data, VG, IG, VD, ID, VS, IS, sqrtID, gm2, absIG
TestParameter, AutoAnalysis.Interpolation, false
TestParameter, AutoAnalysis.Line1.Enabled, false
TestParameter, AutoAnalysis.Line1.Type, 1
TestParameter, AutoAnalysis.Line1.Fix, True
TestParameter, AutoAnalysis.Line1.YAxis, 0
TestParameter, AutoAnalysis.Line1.Point1.Type, 0
TestParameter, AutoAnalysis.Line1.Point1.XY.X, 
TestParameter, AutoAnalysis.Line1.Point1.XY.Y, 
TestParameter, AutoAnalysis.Line1.Point1.Data.Var, 
TestParameter, AutoAnalysis.Line1.Point1.Data.Condition, 
TestParameter, AutoAnalysis.Line1.Point1.Data.Start, false
TestParameter, AutoAnalysis.Line1.Point1.Data.StartVar, 
TestParameter, AutoAnalysis.Line1.Point1.Data.StartCondition, 
TestParameter, AutoAnalysis.Line1.Point2.Type, 0
TestParameter, AutoAnalysis.Line1.Point2.XY.X, 
TestParameter, AutoAnalysis.Line1.Point2.XY.Y, 
TestParameter, AutoAnalysis.Line1.Point2.Data.Var, 
TestParameter, AutoAnalysis.Line1.Point2.Data.Condition, 
TestParameter, AutoAnalysis.Line1.Point2.Data.Start, false
TestParameter, AutoAnalysis.Line1.Point2.Data.StartVar, 
TestParameter, AutoAnalysis.Line1.Point2.Data.StartCondition, 
TestParameter, AutoAnalysis.Line1.GradientExpr, 0
TestParameter, AutoAnalysis.Line2.Enabled, false
TestParameter, AutoAnalysis.Line2.Type, 1
TestParameter, AutoAnalysis.Line2.Fix, True
TestParameter, AutoAnalysis.Line2.YAxis, 0
TestParameter, AutoAnalysis.Line2.Point1.Type, 0
TestParameter, AutoAnalysis.Line2.Point1.XY.X, 
TestParameter, AutoAnalysis.Line2.Point1.XY.Y, 
TestParameter, AutoAnalysis.Line2.Point1.Data.Var, 
TestParameter, AutoAnalysis.Line2.Point1.Data.Condition, 
TestParameter, AutoAnalysis.Line2.Point1.Data.Start, false
TestParameter, AutoAnalysis.Line2.Point1.Data.StartVar, 
TestParameter, AutoAnalysis.Line2.Point1.Data.StartCondition, 
TestParameter, AutoAnalysis.Line2.Point2.Type, 0
TestParameter, AutoAnalysis.Line2.Point2.XY.X, 
TestParameter, AutoAnalysis.Line2.Point2.XY.Y, 
TestParameter, AutoAnalysis.Line2.Point2.Data.Var, 
TestParameter, AutoAnalysis.Line2.Point2.Data.Condition, 
TestParameter, AutoAnalysis.Line2.Point2.Data.Start, false
TestParameter, AutoAnalysis.Line2.Point2.Data.StartVar, 
TestParameter, AutoAnalysis.Line2.Point2.Data.StartCondition, 
TestParameter, AutoAnalysis.Line2.GradientExpr, 0
TestParameter, AutoAnalysis.Marker.Enabled, false
TestParameter, AutoAnalysis.Marker.Data.Var, 
TestParameter, AutoAnalysis.Marker.Data.Condition, 
TestParameter, AutoAnalysis.Marker.Data.Start, false
TestParameter, AutoAnalysis.Marker.Data.StartVar, 
TestParameter, AutoAnalysis.Marker.Data.StartCondition, 
MetaData, TestRecord.EntryPoint, true
MetaData, TestRecord.RecordTime, 05/02/2019 15:25:41
MetaData, TestRecord.TestTarget, 350-300-2-5
MetaData, TestRecord.IterationIndex, 3
MetaData, TestRecord.Preservation, true
MetaData, TestRecord.Flag, 
MetaData, TestRecord.Remarks, good
MetaData, TestRecord.LinkKey, b5226fef-e66d-4af7-9b2a-83c4686fe827
Dimension1, 101, 101, 101, 101, 101, 101, 101, 101, 101, 101
Dimension2, 1, 1, 1, 1, 1, 1, 1, 1, 1, 1
DataName, VG, VD, VS, ID, IS, IG, absID, sqrtID, gm2, absIG
DataValue, -2, 3, 0, 4.5210000000000006E-12, -1.686E-12, -4.0660000000000006E-12, 4.5210000000000006E-12, 2.1262643297577095E-06, 1.8533423866597509E-13, 4.0660000000000006E-12
DataValue, -1.9500000000000002, 3, 0, 4.6130000000000006E-12, -1.7060000000000002E-12, -2.3050000000000004E-12, 4.6130000000000006E-12, 2.1477895613863107E-06, 3.4656826056095618E-15, 2.3050000000000004E-12
DataValue, -1.9000000000000001, 3, 0, 4.496E-12, -1.6870000000000002E-12, -1.0250000000000002E-12, 4.496E-12, 2.1203773249117716E-06, 3.2326906114963922E-13, 1.0250000000000002E-12
DataValue, -1.85, 3, 0, 4.372E-12, -2.201E-12, -3.351E-12, 4.372E-12, 2.09093280618962E-06, 1.1168540988182584E-12, 3.351E-12
DataValue, -1.8, 3, 0, 4.059E-12, -1.1440000000000002E-12, -1.504E-12, 4.059E-12, 2.0146960068456981E-06, 1.8543069300207539E-12, 1.504E-12
DataValue, -1.75, 3, 0, 4.9600000000000007E-12, -2.728E-12, -4.53E-12, 4.9600000000000007E-12, 2.227105745132009E-06, 1.2031074822759577E-12, 4.53E-12
DataValue, -1.7000000000000002, 3, 0, 4.5130000000000007E-12, -1.788E-12, 3.9600000000000003E-13, 4.5130000000000007E-12, 2.1243822631532207E-06, 2.040495702110027E-11, 3.9600000000000003E-13
DataValue, -1.6500000000000001, 3, 0, 3.1520000000000003E-12, -1.31E-12, -2.536E-12, 3.1520000000000003E-12, 1.7753872816937718E-06, 3.836420861133335E-13, 2.536E-12
DataValue, -1.6, 3, 0, 4.78E-12, -1.938E-12, -3.13E-12, 4.78E-12, 2.1863211109075448E-06, 4.2759310736808753E-12, 3.13E-12
DataValue, -1.55, 3, 0, 3.929E-12, -2.214E-12, -2.7010000000000003E-12, 3.929E-12, 1.9821705274773913E-06, 3.2874876490239658E-13, 2.7010000000000003E-12
DataValue, -1.5, 3, 0, 5.0340000000000006E-12, -1.4740000000000002E-12, -3.0980000000000003E-12, 5.0340000000000006E-12, 2.243657727907713E-06, 1.182923327067657E-12, 3.0980000000000003E-12
DataValue, -1.4500000000000002, 3, 0, 4.372E-12, -2.489E-12, -2.5210000000000003E-12, 4.372E-12, 2.09093280618962E-06, 3.7645162874273609E-12, 2.5210000000000003E-12
DataValue, -1.4000000000000001, 3, 0, 4.201E-12, -2.1750000000000003E-12, -3.1970000000000002E-12, 4.201E-12, 2.049634113689563E-06, 6.38988373754655E-12, 3.1970000000000002E-12
DataValue, -1.35, 3, 0, 5.493E-12, -1.7330000000000002E-12, -1.9330000000000003E-12, 5.493E-12, 2.3437149997386627E-06, 1.4272383839010064E-12, 1.9330000000000003E-12
DataValue, -1.3, 3, 0, 4.7050000000000007E-12, -2.2950000000000002E-12, -2.1320000000000002E-12, 4.7050000000000007E-12, 2.1691011963483861E-06, 2.1334723333035253E-12, 2.1320000000000002E-12
DataValue, -1.25, 3, 0, 6.1990000000000005E-12, -2.866E-12, -1.976E-12, 6.1990000000000005E-12, 2.4897791066678987E-06, 6.3559344356310874E-11, 1.976E-12
DataValue, -1.2, 3, 0, 1.8820000000000003E-12, -3.141E-12, 1.6E-14, 1.8820000000000003E-12, 1.3718600511714015E-06, 2.5700973378937717E-12, 1.6E-14
DataValue, -1.1500000000000001, 3, 0, 7.023E-12, -4.89E-13, -2.289E-12, 7.023E-12, 2.6500943379434629E-06, 3.0148579358711966E-11, 2.289E-12
DataValue, -1.1, 3, 0, 3.6900000000000006E-12, -1.3380000000000002E-12, -2.4800000000000003E-12, 3.6900000000000006E-12, 1.9209372712298546E-06, 3.5704802841744281E-11, 2.4800000000000003E-12
DataValue, -1.05, 3, 0, 4.2130000000000007E-12, -2.6290000000000002E-12, -5.6860000000000006E-12, 4.2130000000000007E-12, 2.0525593779474444E-06, 3.8654893613916276E-12, 5.6860000000000006E-12
DataValue, -1, 3, 0, 4.4840000000000007E-12, -2.3130000000000003E-12, -2.47E-13, 4.4840000000000007E-12, 2.1175457492106282E-06, 4.4407008170810336E-13, 2.47E-13
DataValue, -0.95000000000000007, 3, 0, 4.491E-12, -1.78E-12, -2.6560000000000004E-12, 4.491E-12, 2.1191979614939232E-06, 6.7544962388755578E-16, 2.6560000000000004E-12
DataValue, -0.9, 3, 0, 4.473E-12, -2.7770000000000004E-12, -1.1540000000000001E-12, 4.473E-12, 2.1149468078417482E-06, 8.2177278091066484E-13, 1.1540000000000001E-12
DataValue, -0.85000000000000009, 3, 0, 4.115E-12, -1.921E-12, -1.902E-12, 4.115E-12, 2.0285462775100796E-06, 5.6761908332555032E-12, 1.902E-12
DataValue, -0.8, 3, 0, 3.522E-12, -3.7190000000000006E-12, -1.927E-12, 3.522E-12, 1.8766992300312802E-06, 4.1650981663567981E-13, 1.927E-12
DataValue, -0.75, 3, 0, 4.381E-12, -1.322E-12, -2.6920000000000002E-12, 4.381E-12, 2.0930838492521029E-06, 1.0726248970542666E-13, 2.6920000000000002E-12
DataValue, -0.70000000000000007, 3, 0, 3.6460000000000004E-12, -2.561E-12, -5.82E-13, 3.6460000000000004E-12, 1.9094501826442084E-06, 9.9420625918698728E-14, 5.82E-13
DataValue, -0.65, 3, 0, 4.2500000000000007E-12, -2.386E-12, -1.475E-12, 4.2500000000000007E-12, 2.0615528128088303E-06, 1.0407456783456747E-12, 1.475E-12
DataValue, -0.6, 3, 0, 4.046E-12, -1.667E-12, -1.8400000000000002E-12, 4.046E-12, 2.0114671262538694E-06, 1.2408772005880067E-13, 1.8400000000000002E-12
DataValue, -0.55, 3, 0, 4.1060000000000005E-12, -1.8120000000000002E-12, -2.8260000000000003E-12, 4.1060000000000005E-12, 2.0263267258761605E-06, 5.4344492040834271E-13, 2.8260000000000003E-12
DataValue, -0.5, 3, 0, 4.3480000000000005E-12, -3.0760000000000002E-12, -1.326E-12, 4.3480000000000005E-12, 2.0851858430365388E-06, 3.3148157650876445E-12, 1.326E-12
DataValue, -0.45, 3, 0, 4.877E-12, -2.2170000000000003E-12, -1.8020000000000002E-12, 4.877E-12, 2.2083930809527547E-06, 1.8253341507864651E-13, 1.8020000000000002E-12
DataValue, -0.4, 3, 0, 4.528E-12, -2.7560000000000004E-12, -2.49E-13, 4.528E-12, 2.1279097725232617E-06, 1.1777616230294455E-11, 2.49E-13
DataValue, -0.35000000000000003, 3, 0, 3.4790000000000004E-12, -2.574E-12, -2.2170000000000003E-12, 3.4790000000000004E-12, 1.8652077632263921E-06, 1.7826356731590207E-14, 2.2170000000000003E-12
DataValue, -0.3, 3, 0, 4.585E-12, -2.3000000000000003E-12, -2.2500000000000003E-13, 4.585E-12, 2.1412613105363859E-06, 2.3961039699170431E-13, 2.2500000000000003E-13
DataValue, -0.25, 3, 0, 3.6640000000000005E-12, -2.389E-12, -1.3510000000000002E-12, 3.6640000000000005E-12, 1.9141577782408642E-06, 7.9805278763590575E-12, 1.3510000000000002E-12
DataValue, -0.2, 3, 0, 3.455E-12, -1.6120000000000002E-12, -1.519E-12, 3.455E-12, 1.8587630295441106E-06, 2.6619886414598833E-11, 1.519E-12
DataValue, -0.15, 3, 0, 1.955E-12, -2.2460000000000003E-12, -1.2670000000000002E-12, 1.955E-12, 1.3982131454109564E-06, 2.8274346906630048E-11, 1.2670000000000002E-12
DataValue, -0.1, 3, 0, 1.761E-12, -3.038E-12, -2.127E-12, 1.761E-12, 1.3270267518026907E-06, 5.1676013999432628E-11, 2.127E-12
DataValue, -0.05, 3, 0, 4.4820000000000005E-12, -2.9260000000000003E-12, 2.5100000000000004E-13, 4.4820000000000005E-12, 2.1170734517252821E-06, 8.4143824005828E-11, 2.5100000000000004E-13
DataValue, 0, 3, 0, 5.0370000000000004E-12, -3.484E-12, -1.738E-12, 5.0370000000000004E-12, 2.2443261795024358E-06, 5.4814028290765984E-13, 1.738E-12
DataValue, 0.05, 3, 0, 4.1740000000000006E-12, -4.533E-12, -2.065E-12, 4.1740000000000006E-12, 2.0430369551234263E-06, 1.6818460215070586E-10, 2.065E-12
DataValue, 0.1, 3, 0, 1.2540000000000001E-11, -1.0874E-11, -3.2400000000000003E-12, 1.2540000000000001E-11, 3.5411862419251548E-06, 9.1900368700593047E-10, 3.2400000000000003E-12
DataValue, 0.15, 3, 0, 2.5751E-11, -2.3787000000000003E-11, -1.565E-12, 2.5751E-11, 5.0745443145173143E-06, 1.4278710698696954E-09, 1.565E-12
DataValue, 0.2, 3, 0, 5.3581000000000006E-11, -5.1762E-11, 6.6500000000000009E-13, 5.3581000000000006E-11, 7.319904370960047E-06, 2.7374404888788741E-09, 6.6500000000000009E-13
DataValue, 0.25, 3, 0, 1.0622600000000001E-10, -1.0394100000000001E-10, 1.053E-12, 1.0622600000000001E-10, 1.0306599827295131E-05, 4.6551040331426285E-09, 1.053E-12
DataValue, 0.3, 3, 0, 2.0001700000000002E-10, -1.93741E-10, -6.0400000000000005E-13, 2.0001700000000002E-10, 1.4142736651723387E-05, 5.9296141865742518E-09, 6.0400000000000005E-13
DataValue, 0.35000000000000003, 3, 0, 3.24252E-10, -3.1678800000000003E-10, -3.29E-13, 3.24252E-10, 1.8006998639417952E-05, 6.9460120200932059E-09, 3.29E-13
DataValue, 0.4, 3, 0, 5.05216E-10, -4.8455200000000007E-10, -6.81E-13, 5.05216E-10, 2.2477010477374433E-05, 6.3776509913472058E-09, 6.81E-13
DataValue, 0.45, 3, 0, 6.75637E-10, -6.3521800000000009E-10, -1.235E-12, 6.75637E-10, 2.5993018293380245E-05, 4.2638500980944045E-09, 1.235E-12
DataValue, 0.5, 3, 0, 8.4139600000000008E-10, -8.116880000000001E-10, -1.458E-12, 8.4139600000000008E-10, 2.9006826782673076E-05, 2.4896005684926056E-09, 1.458E-12
DataValue, 0.55, 3, 0, 9.5992200000000015E-10, -8.8430900000000012E-10, -4.6100000000000006E-13, 9.5992200000000015E-10, 3.0982608024503043E-05, 3.2499063028732475E-10, 4.6100000000000006E-13
DataValue, 0.6, 3, 0, 9.4923E-10, -9.5098900000000014E-10, 1.0830000000000001E-12, 9.4923E-10, 3.080957643331047E-05, 7.7874830416299261E-10, 1.0830000000000001E-12
DataValue, 0.65, 3, 0, 1.14063E-09, -9.8472E-10, 6.38E-13, 1.14063E-09, 3.3773214238505642E-05, 2.1013670845344635E-09, 6.38E-13
DataValue, 0.70000000000000007, 3, 0, 1.25271E-09, -1.2212E-09, -9.49E-13, 1.25271E-09, 3.5393643497102695E-05, 1.0642661636676255E-09, 9.49E-13
DataValue, 0.75, 3, 0, 1.37163E-09, -1.45408E-09, 1.0500000000000001E-13, 1.37163E-09, 3.7035523487592284E-05, 1.7630814175987534E-09, 1.0500000000000001E-13
DataValue, 0.8, 3, 0, 1.56757E-09, -1.5648E-09, -1.4570000000000002E-12, 1.56757E-09, 3.959254980422453E-05, 3.135240032580035E-09, 1.4570000000000002E-12
DataValue, 0.85000000000000009, 3, 0, 1.81773E-09, -1.72408E-09, -1.1880000000000002E-12, 1.81773E-09, 4.263484490413915E-05, 6.8111593753881449E-10, 1.1880000000000002E-12
DataValue, 0.9, 3, 0, 1.78104E-09, -1.78266E-09, -1.5600000000000002E-13, 1.78104E-09, 4.2202369601717863E-05, 3.7589532676313317E-10, 1.5600000000000002E-13
DataValue, 0.95000000000000007, 3, 0, 1.98681E-09, -1.96424E-09, 1.379E-12, 1.98681E-09, 4.4573646922817523E-05, 1.5441021958400549E-09, 1.379E-12
DataValue, 1, 3, 0, 2.12815E-09, -1.98837E-09, -7.28E-13, 2.12815E-09, 4.6131876181226357E-05, 3.5525809649127147E-10, 7.28E-13
DataValue, 1.05, 3, 0, 2.15839E-09, -2.14525E-09, -2.7E-13, 2.15839E-09, 4.6458476083487718E-05, 7.1846371823385539E-10, 2.7E-13
DataValue, 1.1, 3, 0, 2.38264E-09, -2.45181E-09, 4.22E-13, 2.38264E-09, 4.88122935334942E-05, 2.8752933280505922E-09, 4.22E-13
DataValue, 1.1500000000000001, 3, 0, 2.68538E-09, -2.69705E-09, 8.3000000000000012E-14, 2.68538E-09, 5.1820652253710585E-05, 3.5703075276516543E-09, 8.3000000000000012E-14
DataValue, 1.2, 3, 0, 3.00167E-09, -2.88326E-09, 1.5340000000000001E-12, 3.00167E-09, 5.4787498574036029E-05, 3.1014519281468838E-09, 1.5340000000000001E-12
DataValue, 1.25, 3, 0, 3.29358E-09, -2.96981E-09, 1.9360000000000002E-12, 3.29358E-09, 5.7389720333871641E-05, 2.0648186971988979E-09, 1.9360000000000002E-12
DataValue, 1.3, 3, 0, 3.52023E-09, -3.43153E-09, -7.3800000000000009E-13, 3.52023E-09, 5.9331526189707947E-05, 2.9860498234790225E-09, 7.3800000000000009E-13
DataValue, 1.35, 3, 0, 3.95065E-09, -3.60958E-09, 1.235E-12, 3.95065E-09, 6.285419635951127E-05, 2.0028235154091702E-09, 1.235E-12
DataValue, 1.4000000000000001, 3, 0, 4.07131E-09, -4.14017E-09, 9.0800000000000007E-13, 4.07131E-09, 6.38068178175342E-05, 9.7834246797111641E-10, 9.0800000000000007E-13
DataValue, 1.4500000000000002, 3, 0, 4.35363E-09, -4.57402E-09, 4.4E-14, 4.35363E-09, 6.5982043011716455E-05, 2.3509882735369043E-09, 4.4E-14
DataValue, 1.5, 3, 0, 4.71358E-09, -4.60193E-09, 1.8000000000000002E-14, 4.71358E-09, 6.8655516894128762E-05, 2.5278928287551714E-09, 1.8000000000000002E-14
DataValue, 1.55, 3, 0, 5.0424E-09, -4.93258E-09, -6.52E-13, 5.0424E-09, 7.10098584704969E-05, 3.9696765195620295E-09, 6.52E-13
DataValue, 1.6, 3, 0, 5.61841E-09, -5.74943E-09, 1.481E-12, 5.61841E-09, 7.4956053791538408E-05, 4.0823176618263692E-09, 1.481E-12
DataValue, 1.6500000000000001, 3, 0, 5.99063E-09, -5.77293E-09, 5.39E-13, 5.99063E-09, 7.73991602021624E-05, 1.5777404236830843E-09, 5.39E-13
DataValue, 1.7000000000000002, 3, 0, 6.22965E-09, -6.15737E-09, 1.6910000000000002E-12, 6.22965E-09, 7.8928131866907883E-05, 2.5629188452293137E-09, 1.6910000000000002E-12
DataValue, 1.75, 3, 0, 6.79993E-09, -6.80054E-09, 4.9680000000000006E-12, 6.79993E-09, 8.24616880739171E-05, 6.4488592609069564E-09, 4.9680000000000006E-12
DataValue, 1.8, 3, 0, 7.5618E-09, -7.515E-09, 2.1250000000000003E-12, 7.5618E-09, 8.6958610844470143E-05, 4.42879725578898E-09, 2.1250000000000003E-12
DataValue, 1.85, 3, 0, 7.94177E-09, -8.07618E-09, -5.0580000000000005E-12, 7.94177E-09, 8.91166090019139E-05, 3.8466840305302552E-09, 5.0580000000000005E-12
DataValue, 1.9000000000000001, 3, 0, 8.67893E-09, -8.65723E-09, 5.906E-12, 8.67893E-09, 9.3160775007510542E-05, 7.521670484117987E-09, 5.906E-12
DataValue, 1.9500000000000002, 3, 0, 9.56276E-09, -9.21454E-09, -1.652E-12, 9.56276E-09, 9.7789365474984039E-05, 2.797039446641865E-09, 1.652E-12
DataValue, 2, 3, 0, 9.6923E-09, -1.001859E-08, 4.946E-12, 9.6923E-09, 9.8449479429807044E-05, 3.6351569884585189E-09, 4.946E-12
DataValue, 2.05, 3, 0, 1.0778299999999999E-08, -1.0705999999999998E-08, 3.902E-12, 1.0778299999999999E-08, 0.00010381859178393819, 2.0544916517877763E-08, 3.902E-12
DataValue, 2.1, 3, 0, 1.2719999999999999E-08, -1.2263799999999999E-08, 7.830000000000001E-13, 1.2719999999999999E-08, 0.00011278297743897347, 2.3768048224150283E-08, 7.830000000000001E-13
DataValue, 2.15, 3, 0, 1.4217099999999998E-08, -1.3521199999999998E-08, -3.7950000000000007E-12, 1.4217099999999998E-08, 0.00011923548129646643, 2.7093665200779377E-09, 3.7950000000000007E-12
DataValue, 2.2, 3, 0, 1.3921199999999999E-08, -1.4217599999999999E-08, -3.3490000000000004E-12, 1.3921199999999999E-08, 0.0001179881349967021, 7.6283565230364921E-09, 3.3490000000000004E-12
DataValue, 2.25, 3, 0, 1.6376199999999998E-08, -1.60753E-08, 5.732E-12, 1.6376199999999998E-08, 0.00012796952762278994, 2.7549018375987215E-08, 5.732E-12
DataValue, 2.3000000000000003, 3, 0, 1.8113399999999997E-08, -1.77632E-08, 8.760000000000001E-13, 1.8113399999999997E-08, 0.00013458603196468791, 1.1268042358416918E-08, 8.760000000000001E-13
DataValue, 2.35, 3, 0, 1.9205699999999997E-08, -1.83005E-08, 7.4000000000000008E-13, 1.9205699999999997E-08, 0.00013858463118253769, 1.7216354651985966E-08, 7.4000000000000008E-13
