
SetupTitle, Transfer sat
PrimitiveTest, I/V Sweep
TestParameter, Context.MainFrame, 4155C
TestParameter, Channel.UnitType, SMU, SMU, SMU
TestParameter, Channel.Unit, SMU3:MP, SMU1:MP, SMU4:MP
TestParameter, Channel.IName, ID, IS, IG
TestParameter, Channel.VName, VD, VS, VG
TestParameter, Channel.Mode, V, COMMON, V
TestParameter, Channel.Func, CONST, CONST, VAR1
TestParameter, Channel.Index, 
TestParameter, Channel.Time, 
TestParameter, Measurement.Port.Unit, SMU3:MP, SMU1:MP, SMU4:MP
TestParameter, Measurement.Port.SeriesResistor, NONE, NONE, NONE
TestParameter, Measurement.Port.Filter, ON, ON, ON
TestParameter, Measurement.Primary.Locus, Double
TestParameter, Measurement.Primary.Scale, LINEAR
TestParameter, Measurement.Primary.Start, -2
TestParameter, Measurement.Primary.Stop, 3
TestParameter, Measurement.Primary.Step, 0.05
TestParameter, Measurement.Primary.Compliance, 0.001
TestParameter, Measurement.Primary.PowerCompliance, 0
TestParameter, Measurement.Aborting.Condition, CONTINUE AT ANY
TestParameter, Measurement.PostOutput.Value, START
TestParameter, Measurement.PostOutput.Retention, OFF
TestParameter, Measurement.Bias.Source, 5, 0, -2
TestParameter, Measurement.Bias.Compliance, 0.001, 0.1, 0.001
TestParameter, Measurement.Monitor.Unit, SMU3:MP, SMU1:MP, SMU4:MP
TestParameter, Measurement.Monitor.Adc, HR ADC, HR ADC, HR ADC
TestParameter, Measurement.Monitor.RangingMode, AUTO, AUTO, AUTO
TestParameter, Measurement.Monitor.RangeBoundary, , , 
TestParameter, Measurement.Monitor.RangeRating, BY FULL RANGE, BY FULL RANGE, BY FULL RANGE
TestParameter, Measurement.Monitor.RangeRatingCoeff, 50, 50, 50
TestParameter, Measurement.Timing.Hold, 0.5
TestParameter, Measurement.Timing.Delay, 0.05
TestParameter, Measurement.Adc.HighResolution.AutoZero, OFF
TestParameter, Measurement.Adc.HighResolution.Mode, AUTO
TestParameter, Measurement.Adc.HighResolution.Coeff, 1
TestParameter, Measurement.Ag16440ASelector.SemiconductorRelay.Channel1, DEFAULT
TestParameter, Measurement.Ag16440ASelector.SemiconductorRelay.Channel3, DEFAULT
TestParameter, Function.User.Name, absID, sqrtID, gm2, absIG
TestParameter, Function.User.Unit, A, A, A/V, A
TestParameter, Function.User.Definition, abs(ID), sqrt(abs(ID)), (delta(sqrtID)/delta(VG))^2, abs(IG)
TestParameter, Output.Graph.Enabled, true
TestParameter, Output.Graph.XAxis.Data, VG
TestParameter, Output.Graph.XAxis.Scale, Linear
TestParameter, Output.Graph.XAxis.Left, -5
TestParameter, Output.Graph.XAxis.Right, 7
TestParameter, Output.Graph.YAxis.Data, ID, absIG, gm2
TestParameter, Output.Graph.YAxis.Scale, Log, Log, Linear
TestParameter, Output.Graph.YAxis.Bottom, 1E-14, 1E-14, 0
TestParameter, Output.Graph.YAxis.Top, 0.01, 0.01, 1E-05
TestParameter, Output.Graph.YAxis.Group, , , 
TestParameter, Output.List.Data, VG, IG, VD, ID, VS, IS, sqrtID, gm2, absIG
TestParameter, AutoAnalysis.Interpolation, false
TestParameter, AutoAnalysis.Line1.Enabled, false
TestParameter, AutoAnalysis.Line1.Type, 1
TestParameter, AutoAnalysis.Line1.Fix, True
TestParameter, AutoAnalysis.Line1.YAxis, 0
TestParameter, AutoAnalysis.Line1.Point1.Type, 0
TestParameter, AutoAnalysis.Line1.Point1.XY.X, 
TestParameter, AutoAnalysis.Line1.Point1.XY.Y, 
TestParameter, AutoAnalysis.Line1.Point1.Data.Var, 
TestParameter, AutoAnalysis.Line1.Point1.Data.Condition, 
TestParameter, AutoAnalysis.Line1.Point1.Data.Start, false
TestParameter, AutoAnalysis.Line1.Point1.Data.StartVar, 
TestParameter, AutoAnalysis.Line1.Point1.Data.StartCondition, 
TestParameter, AutoAnalysis.Line1.Point2.Type, 0
TestParameter, AutoAnalysis.Line1.Point2.XY.X, 
TestParameter, AutoAnalysis.Line1.Point2.XY.Y, 
TestParameter, AutoAnalysis.Line1.Point2.Data.Var, 
TestParameter, AutoAnalysis.Line1.Point2.Data.Condition, 
TestParameter, AutoAnalysis.Line1.Point2.Data.Start, false
TestParameter, AutoAnalysis.Line1.Point2.Data.StartVar, 
TestParameter, AutoAnalysis.Line1.Point2.Data.StartCondition, 
TestParameter, AutoAnalysis.Line1.GradientExpr, 0
TestParameter, AutoAnalysis.Line2.Enabled, false
TestParameter, AutoAnalysis.Line2.Type, 1
TestParameter, AutoAnalysis.Line2.Fix, True
TestParameter, AutoAnalysis.Line2.YAxis, 0
TestParameter, AutoAnalysis.Line2.Point1.Type, 0
TestParameter, AutoAnalysis.Line2.Point1.XY.X, 
TestParameter, AutoAnalysis.Line2.Point1.XY.Y, 
TestParameter, AutoAnalysis.Line2.Point1.Data.Var, 
TestParameter, AutoAnalysis.Line2.Point1.Data.Condition, 
TestParameter, AutoAnalysis.Line2.Point1.Data.Start, false
TestParameter, AutoAnalysis.Line2.Point1.Data.StartVar, 
TestParameter, AutoAnalysis.Line2.Point1.Data.StartCondition, 
TestParameter, AutoAnalysis.Line2.Point2.Type, 0
TestParameter, AutoAnalysis.Line2.Point2.XY.X, 
TestParameter, AutoAnalysis.Line2.Point2.XY.Y, 
TestParameter, AutoAnalysis.Line2.Point2.Data.Var, 
TestParameter, AutoAnalysis.Line2.Point2.Data.Condition, 
TestParameter, AutoAnalysis.Line2.Point2.Data.Start, false
TestParameter, AutoAnalysis.Line2.Point2.Data.StartVar, 
TestParameter, AutoAnalysis.Line2.Point2.Data.StartCondition, 
TestParameter, AutoAnalysis.Line2.GradientExpr, 0
TestParameter, AutoAnalysis.Marker.Enabled, false
TestParameter, AutoAnalysis.Marker.Data.Var, 
TestParameter, AutoAnalysis.Marker.Data.Condition, 
TestParameter, AutoAnalysis.Marker.Data.Start, false
TestParameter, AutoAnalysis.Marker.Data.StartVar, 
TestParameter, AutoAnalysis.Marker.Data.StartCondition, 
MetaData, TestRecord.EntryPoint, true
MetaData, TestRecord.RecordTime, 05/02/2019 13:44:15
MetaData, TestRecord.TestTarget, 150-300-10-5
MetaData, TestRecord.IterationIndex, 1
MetaData, TestRecord.Preservation, true
MetaData, TestRecord.Flag, 
MetaData, TestRecord.Remarks, good
MetaData, TestRecord.LinkKey, 281477dc-9b79-42fc-8694-cd7c522c9860
Dimension1, 202, 202, 202, 202, 202, 202, 202, 202, 202, 202
Dimension2, 1, 1, 1, 1, 1, 1, 1, 1, 1, 1
DataName, VG, VD, VS, ID, IS, IG, absID, sqrtID, gm2, absIG
DataValue, -2, 5, 0, 4.8660000000000005E-12, 7.98E-13, -6.4980000000000008E-12, 4.8660000000000005E-12, 2.2059011763902755E-06, 5.5551477051960266E-11, 6.4980000000000008E-12
DataValue, -1.9500000000000002, 5, 0, 6.6490000000000004E-12, -1.4630000000000001E-12, -4.018E-12, 6.6490000000000004E-12, 2.5785654926722341E-06, 1.3146709392637543E-12, 4.018E-12
DataValue, -1.9000000000000001, 5, 0, 5.385E-12, -1.78E-12, -1E-15, 5.385E-12, 2.3205602771744588E-06, 1.202356236107074E-11, 1E-15
DataValue, -1.85, 5, 0, 4.9810000000000007E-12, 2.8100000000000003E-12, 1.391E-12, 4.9810000000000007E-12, 2.2318154045529841E-06, 5.74390792777643E-13, 1.391E-12
DataValue, -1.8, 5, 0, 5.0390000000000006E-12, 4.7740000000000005E-12, -5.0470000000000006E-12, 5.0390000000000006E-12, 2.24477170331417E-06, 1.6128455527629511E-12, 5.0470000000000006E-12
DataValue, -1.75, 5, 0, 5.564E-12, -9.54E-13, -5.764E-12, 5.564E-12, 2.3588132609428836E-06, 2.3261872553063021E-12, 5.764E-12
DataValue, -1.7000000000000002, 5, 0, 5.7470000000000005E-12, 1.8820000000000003E-12, -6.226E-12, 5.7470000000000005E-12, 2.3972901368002997E-06, 1.2904078984178761E-12, 6.226E-12
DataValue, -1.6500000000000001, 5, 0, 5.041E-12, 1.437E-12, -1.1922E-11, 5.041E-12, 2.2452171387195492E-06, 2.8703075254522431E-12, 1.1922E-11
DataValue, -1.6, 5, 0, 6.5880000000000006E-12, -3.663E-12, -5.9590000000000008E-12, 6.5880000000000006E-12, 2.5667099563448928E-06, 9.8693524041489311E-12, 5.9590000000000008E-12
DataValue, -1.55, 5, 0, 3.729E-12, 1.6740000000000001E-12, 1.7770000000000002E-12, 3.729E-12, 1.9310618840420419E-06, 1.7863166162425759E-11, 1.7770000000000002E-12
DataValue, -1.5, 5, 0, 4.5970000000000007E-12, 6.84E-13, -6.9190000000000007E-12, 4.5970000000000007E-12, 2.1440615662802223E-06, 9.0496837949155219E-11, 6.9190000000000007E-12
DataValue, -1.4500000000000002, 5, 0, 8.308E-12, -1.0540000000000002E-12, -4.6420000000000006E-12, 8.308E-12, 2.8823601440486235E-06, 1.0313848146201344E-11, 4.6420000000000006E-12
DataValue, -1.4000000000000001, 5, 0, 3.3230000000000003E-12, -2.495E-12, -2.825E-12, 3.3230000000000003E-12, 1.8229097618916852E-06, 1.3608419282674464E-10, 2.825E-12
DataValue, -1.35, 5, 0, 2.9440000000000004E-12, 1.63E-13, -2.524E-12, 2.9440000000000004E-12, 1.7158088471621775E-06, 7.6441977711067648E-11, 2.524E-12
DataValue, -1.3, 5, 0, 7.275E-12, -1.4740000000000002E-12, -1.9950000000000003E-12, 7.275E-12, 2.6972207918522353E-06, 1.1637010461661868E-11, 1.9950000000000003E-12
DataValue, -1.25, 5, 0, 4.231E-12, 9.9000000000000007E-14, -4.1270000000000005E-12, 4.231E-12, 2.0569394740730706E-06, 2.4895978934820792E-10, 4.1270000000000005E-12
DataValue, -1.2, 5, 0, 1.253E-12, 3.75E-13, -5.2680000000000006E-12, 1.253E-12, 1.1193748255164577E-06, 1.0148077515321571E-11, 5.2680000000000006E-12
DataValue, -1.1500000000000001, 5, 0, 5.643E-12, -9.13E-13, -3.6160000000000003E-12, 5.643E-12, 2.3754999473794986E-06, 4.0945458322491975E-11, 3.6160000000000003E-12
DataValue, -1.1, 5, 0, 3.095E-12, -1.161E-12, -3.5730000000000002E-12, 3.095E-12, 1.7592612085759182E-06, 3.0233433893143368E-11, 3.5730000000000002E-12
DataValue, -1.05, 5, 0, 3.3330000000000004E-12, -3.4E-14, -9.55E-13, 3.3330000000000004E-12, 1.8256505689753449E-06, 2.2195555792628597E-12, 9.55E-13
DataValue, -1, 5, 0, 2.5930000000000004E-12, 1.051E-12, -2.737E-12, 2.5930000000000004E-12, 1.6102794788483149E-06, 3.0055204691298431E-14, 2.737E-12
DataValue, -0.95000000000000007, 5, 0, 3.2700000000000004E-12, -4.2900000000000004E-13, -2.9350000000000003E-12, 3.2700000000000004E-12, 1.8083141320025127E-06, 1.2920749845153716E-12, 2.9350000000000003E-12
DataValue, -0.9, 5, 0, 2.9720000000000003E-12, 1.0390000000000001E-12, -1.7850000000000002E-12, 2.9720000000000003E-12, 1.723948955160796E-06, 1.1768306288442516E-11, 1.7850000000000002E-12
DataValue, -0.85000000000000009, 5, 0, 2.147E-12, -1.5400000000000001E-12, 7.4600000000000005E-13, 2.147E-12, 1.4652644812456213E-06, 2.0318815892981588E-11, 7.4600000000000005E-13
DataValue, -0.8, 5, 0, 1.621E-12, 6.4300000000000009E-13, -3.2370000000000004E-12, 1.621E-12, 1.2731849826321391E-06, 1.1652941480435595E-12, 3.2370000000000004E-12
DataValue, -0.75, 5, 0, 2.4750000000000003E-12, -1.0410000000000001E-12, -5.1970000000000006E-12, 2.4750000000000003E-12, 1.5732132722552274E-06, 2.5362291580376796E-11, 5.1970000000000006E-12
DataValue, -0.70000000000000007, 5, 0, 3.1570000000000004E-12, 2.16E-12, -1.3091E-11, 3.1570000000000004E-12, 1.7767948671695336E-06, 2.7378463099462414E-12, 1.3091E-11
DataValue, -0.65, 5, 0, 3.0230000000000003E-12, -5.4250000000000008E-12, -5.9700000000000008E-13, 3.0230000000000003E-12, 1.7386776584519628E-06, 9.4925807619272661E-11, 5.9700000000000008E-13
DataValue, -0.6, 5, 0, 6.4400000000000008E-13, 1.4090000000000002E-12, 5E-14, 6.4400000000000008E-13, 8.024961059095552E-07, 4.2502500669824504E-11, 5E-14
DataValue, -0.55, 5, 0, 1.1810000000000001E-12, -1.736E-12, -4.552E-12, 1.1810000000000001E-12, 1.0867382389517727E-06, 4.1903803211139722E-11, 4.552E-12
DataValue, -0.5, 5, 0, 2.102E-12, -1.902E-12, -2.573E-12, 2.102E-12, 1.4498275759551549E-06, 9.3896525124524637E-13, 2.573E-12
DataValue, -0.45, 5, 0, 1.4010000000000002E-12, -2.5710000000000003E-12, 1.0940000000000002E-12, 1.4010000000000002E-12, 1.1836384583140243E-06, 1.1674246285798015E-11, 1.0940000000000002E-12
DataValue, -0.4, 5, 0, 1.228E-12, 4E-13, 4.23E-12, 1.228E-12, 1.1081516141756055E-06, 7.1953110466874621E-13, 4.23E-12
DataValue, -0.35000000000000003, 5, 0, 1.6090000000000001E-12, 5.5100000000000008E-13, -2.829E-12, 1.6090000000000001E-12, 1.2684636376341263E-06, 7.8340926706715746E-13, 2.829E-12
DataValue, -0.3, 5, 0, -1.4320000000000002E-12, 2.131E-12, 2.657E-12, 1.4320000000000002E-12, 1.1966620241321274E-06, 7.3716924454024678E-11, 2.657E-12
DataValue, -0.25, 5, 0, -1.6800000000000002E-13, 3.4530000000000003E-12, -6.0410000000000006E-12, 1.6800000000000002E-13, 4.0987803063838397E-07, 2.4862745116990768E-11, 6.0410000000000006E-12
DataValue, -0.2, 5, 0, 2.874E-12, -1.53E-13, -3.627E-12, 2.874E-12, 1.6952875862224675E-06, 2.6264712378573927E-10, 3.627E-12
DataValue, -0.15, 5, 0, 4.123E-12, -4.397E-12, -5.325E-12, 4.123E-12, 2.0305171754998774E-06, 9.039343992334239E-12, 5.325E-12
DataValue, -0.1, 5, 0, 1.9450000000000003E-12, -4.7710000000000006E-12, -2.06E-12, 1.9450000000000003E-12, 1.3946325680981355E-06, 7.0885996654990873E-11, 2.06E-12
DataValue, -0.05, 5, 0, 8.2510000000000011E-12, -9.8770000000000008E-12, -7.54E-13, 8.2510000000000011E-12, 2.8724553956502093E-06, 1.0673416410574398E-09, 7.54E-13
DataValue, 0, 5, 0, 2.1731E-11, -2.2598E-11, 1.381E-12, 2.1731E-11, 4.6616520676687144E-06, 2.7614034963924754E-09, 1.381E-12
DataValue, 0.05, 5, 0, 6.6054E-11, -5.7324000000000004E-11, -2.7E-13, 6.6054E-11, 8.127361195369626E-06, 7.8712555565144189E-09, 2.7E-13
DataValue, 0.1, 5, 0, 1.8316000000000002E-10, -1.6914500000000001E-10, -8.02E-13, 1.8316000000000002E-10, 1.3533661736573736E-05, 2.085143733873726E-08, 8.02E-13
DataValue, 0.15, 5, 0, 5.0928700000000008E-10, -4.80023E-10, -1.942E-12, 5.0928700000000008E-10, 2.256738797468595E-05, 4.540789381831871E-08, 1.942E-12
DataValue, 0.2, 5, 0, 1.21402E-09, -1.14086E-09, -4.7240000000000005E-12, 1.21402E-09, 3.48427897849756E-05, 1.0684474284695022E-07, 4.7240000000000005E-12
DataValue, 0.25, 5, 0, 3.05306E-09, -2.978E-09, -2.9700000000000005E-13, 3.05306E-09, 5.5254502079016149E-05, 2.2997318386702768E-07, 2.9700000000000005E-13
DataValue, 0.3, 5, 0, 6.85556E-09, -6.74582E-09, 9.49E-13, 6.85556E-09, 8.2798309161479866E-05, 3.3522353405444491E-07, 9.49E-13
DataValue, 0.35000000000000003, 5, 0, 1.2803599999999998E-08, -1.2413799999999999E-08, -4.2790000000000006E-12, 1.2803599999999998E-08, 0.00011315299377391656, 4.8572516463529809E-07, 4.2790000000000006E-12
DataValue, 0.4, 5, 0, 2.32539E-08, -2.2979799999999997E-08, -2.946E-12, 2.32539E-08, 0.00015249229488731552, 6.9885603614260866E-07, 2.946E-12
DataValue, 0.45, 5, 0, 3.87108E-08, -3.8204599999999995E-08, -4.2610000000000005E-12, 3.87108E-08, 0.00019675060355688872, 8.71018491807039E-07, 4.2610000000000005E-12
DataValue, 0.5, 5, 0, 6.0427799999999993E-08, -5.9872E-08, -6.6900000000000008E-13, 6.0427799999999993E-08, 0.00024582066634032217, 1.0372528702449502E-06, 6.6900000000000008E-13
DataValue, 0.55, 5, 0, 8.91597E-08, -8.82825E-08, -1.435E-12, 8.91597E-08, 0.00029859621564916057, 1.0563898057056891E-06, 1.435E-12
DataValue, 0.6, 5, 0, 1.21523E-07, -1.19837E-07, -3.38E-13, 1.21523E-07, 0.00034860149167781828, 1.1521026493908502E-06, 3.38E-13
DataValue, 0.65, 5, 0, 1.64781E-07, -1.63839E-07, -1.404E-12, 1.64781E-07, 0.00040593226035879433, 1.4041538773655982E-06, 1.404E-12
DataValue, 0.70000000000000007, 5, 0, 2.18181E-07, -2.16996E-07, 1.5570000000000001E-12, 2.18181E-07, 0.00046709849068478051, 1.5026271715049604E-06, 1.5570000000000001E-12
DataValue, 0.75, 5, 0, 2.7932699999999997E-07, -2.78321E-07, 8.070000000000001E-13, 2.7932699999999997E-07, 0.00052851395440423326, 1.5362067785931897E-06, 8.070000000000001E-13
DataValue, 0.8, 5, 0, 3.49331E-07, -3.48931E-07, -1.0790000000000002E-12, 3.49331E-07, 0.000591042299670675, 1.6458434552127236E-06, 1.0790000000000002E-12
DataValue, 0.85000000000000009, 5, 0, 4.31392E-07, -4.30375E-07, -4.86E-13, 4.31392E-07, 0.00065680438488183071, 1.7638835214167351E-06, 4.86E-13
DataValue, 0.9, 5, 0, 5.2396399999999994E-07, -5.22939E-07, -1.2980000000000001E-12, 5.2396399999999994E-07, 0.00072385357635367106, 1.8746500038484016E-06, 1.2980000000000001E-12
DataValue, 0.95000000000000007, 5, 0, 6.29995E-07, -6.27791E-07, 7.8800000000000008E-13, 6.29995E-07, 0.000793722243609186, 1.9127244637679152E-06, 7.8800000000000008E-13
DataValue, 1, 5, 0, 7.43311E-07, -7.42277E-07, -1.76E-13, 7.43311E-07, 0.00086215485847961212, 1.9486303771932504E-06, 1.76E-13
DataValue, 1.05, 5, 0, 8.7107799999999993E-07, -8.69977E-07, -7.3E-13, 8.7107799999999993E-07, 0.00093331559506953487, 2.0227256749706315E-06, 7.3E-13
DataValue, 1.1, 5, 0, 1.008774E-06, -1.005052E-06, 5.63E-13, 1.008774E-06, 0.001004377419101007, 1.9893601671298713E-06, 5.63E-13
DataValue, 1.1500000000000001, 5, 0, 1.1542500000000002E-06, -1.1499200000000001E-06, 1.5240000000000002E-12, 1.1542500000000002E-06, 0.001074360274768199, 2.0915565037834727E-06, 1.5240000000000002E-12
DataValue, 1.2, 5, 0, 1.3202E-06, -1.3199500000000002E-06, -4.6100000000000006E-13, 1.3202E-06, 0.001148999564838908, 2.2867857339020067E-06, 4.6100000000000006E-13
DataValue, 1.25, 5, 0, 1.50205E-06, -1.4993000000000002E-06, -6.640000000000001E-13, 1.50205E-06, 0.0012255814946383614, 2.325377569341215E-06, 6.640000000000001E-13
DataValue, 1.3, 5, 0, 1.69388E-06, -1.6915500000000001E-06, -3.2100000000000005E-13, 1.69388E-06, 0.0013014914521425026, 2.3658531315386198E-06, 3.2100000000000005E-13
DataValue, 1.35, 5, 0, 1.9027300000000002E-06, -1.9009900000000002E-06, 5.3100000000000006E-13, 1.9027300000000002E-06, 0.0013793947948285148, 2.4475177685159679E-06, 5.3100000000000006E-13
DataValue, 1.4000000000000001, 5, 0, 2.1255800000000003E-06, -2.1239100000000004E-06, 6.2400000000000007E-13, 2.1255800000000003E-06, 0.0014579368984973253, 2.4997641526103306E-06, 6.2400000000000007E-13
DataValue, 1.4500000000000002, 5, 0, 2.36391E-06, -2.3572900000000004E-06, -7.350000000000001E-13, 2.36391E-06, 0.0015375012195117115, 2.477638771255244E-06, 7.350000000000001E-13
DataValue, 1.5, 5, 0, 2.60933E-06, -2.6081300000000005E-06, 2.4100000000000003E-13, 2.60933E-06, 0.0016153420690367723, 2.5537788405632628E-06, 2.4100000000000003E-13
DataValue, 1.55, 5, 0, 2.88085E-06, -2.8798200000000005E-06, 6.4400000000000008E-13, 2.88085E-06, 0.0016973066900239332, 2.6438028294407214E-06, 6.4400000000000008E-13
DataValue, 1.6, 5, 0, 3.16107E-06, -3.1590400000000004E-06, -8.95E-13, 3.16107E-06, 0.0017779398190040066, 2.6162037857832921E-06, 8.95E-13
DataValue, 1.6500000000000001, 5, 0, 3.4560800000000005E-06, -3.4493400000000004E-06, -2.3100000000000003E-13, 3.4560800000000005E-06, 0.00185905352262919, 2.62818831694752E-06, 2.3100000000000003E-13
DataValue, 1.7000000000000002, 5, 0, 3.7638200000000004E-06, -3.7600200000000006E-06, 1.7850000000000002E-12, 3.7638200000000004E-06, 0.0019400567002023422, 2.6631874688520597E-06, 1.7850000000000002E-12
DataValue, 1.75, 5, 0, 4.0894800000000007E-06, -4.0883400000000006E-06, 1.2600000000000002E-13, 4.0894800000000007E-06, 0.002022246275803222, 2.7366751388732408E-06, 1.2600000000000002E-13
DataValue, 1.8, 5, 0, 4.43307E-06, -4.42894E-06, -2.9700000000000005E-13, 4.43307E-06, 0.0021054856921860097, 2.7758755383971157E-06, 2.9700000000000005E-13
DataValue, 1.85, 5, 0, 4.7910900000000007E-06, -4.78784E-06, 2.0400000000000001E-13, 4.7910900000000007E-06, 0.0021888558655151326, 2.7913166083402124E-06, 2.0400000000000001E-13
DataValue, 1.9000000000000001, 5, 0, 5.1645200000000008E-06, -5.15973E-06, -1.356E-12, 5.1645200000000008E-06, 0.002272558030062159, 2.8353901247233062E-06, 1.356E-12
DataValue, 1.9500000000000002, 5, 0, 5.5565900000000004E-06, -5.5551200000000009E-06, 4.94E-13, 5.5565900000000004E-06, 0.0023572420325456613, 2.8840192313064305E-06, 4.94E-13
DataValue, 2, 5, 0, 5.9652300000000005E-06, -5.9644100000000007E-06, 2.7600000000000004E-12, 5.9652300000000005E-06, 0.0024423820339987763, 2.914788212791546E-06, 2.7600000000000004E-12
DataValue, 2.05, 5, 0, 6.3906300000000007E-06, -6.3895900000000008E-06, 1.567E-12, 6.3906300000000007E-06, 0.0025279695409557452, 2.9262226246976637E-06, 1.567E-12
DataValue, 2.1, 5, 0, 6.830090000000001E-06, -6.8260400000000006E-06, -1.159E-12, 6.830090000000001E-06, 0.0026134440877891383, 2.9076071824409661E-06, 1.159E-12
DataValue, 2.15, 5, 0, 7.2818300000000007E-06, -7.2802800000000007E-06, -3.16E-13, 7.2818300000000007E-06, 0.0026984866128999048, 2.9595809712280121E-06, 3.16E-13
DataValue, 2.2, 5, 0, 7.75889E-06, -7.7594600000000014E-06, -1.6300000000000001E-12, 7.75889E-06, 0.00278547841492265, 2.9958807327537517E-06, 1.6300000000000001E-12
DataValue, 2.25, 5, 0, 8.24593E-06, -8.2479500000000012E-06, 9.32E-13, 8.24593E-06, 0.0028715727398065335, 3.0665655471204676E-06, 9.32E-13
