
SetupTitle, Transfer sat
PrimitiveTest, I/V Sweep
TestParameter, Context.MainFrame, 4155C
TestParameter, Channel.UnitType, SMU, SMU, SMU
TestParameter, Channel.Unit, SMU3:MP, SMU1:MP, SMU4:MP
TestParameter, Channel.IName, ID, IS, IG
TestParameter, Channel.VName, VD, VS, VG
TestParameter, Channel.Mode, V, COMMON, V
TestParameter, Channel.Func, CONST, CONST, VAR1
TestParameter, Channel.Index, 
TestParameter, Channel.Time, 
TestParameter, Measurement.Port.Unit, SMU3:MP, SMU1:MP, SMU4:MP
TestParameter, Measurement.Port.SeriesResistor, NONE, NONE, NONE
TestParameter, Measurement.Port.Filter, ON, ON, ON
TestParameter, Measurement.Primary.Locus, Double
TestParameter, Measurement.Primary.Scale, LINEAR
TestParameter, Measurement.Primary.Start, -2
TestParameter, Measurement.Primary.Stop, 3
TestParameter, Measurement.Primary.Step, 0.05
TestParameter, Measurement.Primary.Compliance, 0.001
TestParameter, Measurement.Primary.PowerCompliance, 0
TestParameter, Measurement.Aborting.Condition, CONTINUE AT ANY
TestParameter, Measurement.PostOutput.Value, START
TestParameter, Measurement.PostOutput.Retention, OFF
TestParameter, Measurement.Bias.Source, 5, 0, -2
TestParameter, Measurement.Bias.Compliance, 0.001, 0.1, 0.001
TestParameter, Measurement.Monitor.Unit, SMU3:MP, SMU1:MP, SMU4:MP
TestParameter, Measurement.Monitor.Adc, HR ADC, HR ADC, HR ADC
TestParameter, Measurement.Monitor.RangingMode, AUTO, AUTO, AUTO
TestParameter, Measurement.Monitor.RangeBoundary, , , 
TestParameter, Measurement.Monitor.RangeRating, BY FULL RANGE, BY FULL RANGE, BY FULL RANGE
TestParameter, Measurement.Monitor.RangeRatingCoeff, 50, 50, 50
TestParameter, Measurement.Timing.Hold, 0.5
TestParameter, Measurement.Timing.Delay, 0.05
TestParameter, Measurement.Adc.HighResolution.AutoZero, OFF
TestParameter, Measurement.Adc.HighResolution.Mode, AUTO
TestParameter, Measurement.Adc.HighResolution.Coeff, 1
TestParameter, Measurement.Ag16440ASelector.SemiconductorRelay.Channel1, DEFAULT
TestParameter, Measurement.Ag16440ASelector.SemiconductorRelay.Channel3, DEFAULT
TestParameter, Function.User.Name, absID, sqrtID, gm2, absIG
TestParameter, Function.User.Unit, A, A, A/V, A
TestParameter, Function.User.Definition, abs(ID), sqrt(abs(ID)), (delta(sqrtID)/delta(VG))^2, abs(IG)
TestParameter, Output.Graph.Enabled, true
TestParameter, Output.Graph.XAxis.Data, VG
TestParameter, Output.Graph.XAxis.Scale, Linear
TestParameter, Output.Graph.XAxis.Left, -5
TestParameter, Output.Graph.XAxis.Right, 7
TestParameter, Output.Graph.YAxis.Data, ID, absIG, gm2
TestParameter, Output.Graph.YAxis.Scale, Log, Log, Linear
TestParameter, Output.Graph.YAxis.Bottom, 1E-14, 1E-14, 0
TestParameter, Output.Graph.YAxis.Top, 0.01, 0.01, 1E-05
TestParameter, Output.Graph.YAxis.Group, , , 
TestParameter, Output.List.Data, VG, IG, VD, ID, VS, IS, sqrtID, gm2, absIG
TestParameter, AutoAnalysis.Interpolation, false
TestParameter, AutoAnalysis.Line1.Enabled, false
TestParameter, AutoAnalysis.Line1.Type, 1
TestParameter, AutoAnalysis.Line1.Fix, True
TestParameter, AutoAnalysis.Line1.YAxis, 0
TestParameter, AutoAnalysis.Line1.Point1.Type, 0
TestParameter, AutoAnalysis.Line1.Point1.XY.X, 
TestParameter, AutoAnalysis.Line1.Point1.XY.Y, 
TestParameter, AutoAnalysis.Line1.Point1.Data.Var, 
TestParameter, AutoAnalysis.Line1.Point1.Data.Condition, 
TestParameter, AutoAnalysis.Line1.Point1.Data.Start, false
TestParameter, AutoAnalysis.Line1.Point1.Data.StartVar, 
TestParameter, AutoAnalysis.Line1.Point1.Data.StartCondition, 
TestParameter, AutoAnalysis.Line1.Point2.Type, 0
TestParameter, AutoAnalysis.Line1.Point2.XY.X, 
TestParameter, AutoAnalysis.Line1.Point2.XY.Y, 
TestParameter, AutoAnalysis.Line1.Point2.Data.Var, 
TestParameter, AutoAnalysis.Line1.Point2.Data.Condition, 
TestParameter, AutoAnalysis.Line1.Point2.Data.Start, false
TestParameter, AutoAnalysis.Line1.Point2.Data.StartVar, 
TestParameter, AutoAnalysis.Line1.Point2.Data.StartCondition, 
TestParameter, AutoAnalysis.Line1.GradientExpr, 0
TestParameter, AutoAnalysis.Line2.Enabled, false
TestParameter, AutoAnalysis.Line2.Type, 1
TestParameter, AutoAnalysis.Line2.Fix, True
TestParameter, AutoAnalysis.Line2.YAxis, 0
TestParameter, AutoAnalysis.Line2.Point1.Type, 0
TestParameter, AutoAnalysis.Line2.Point1.XY.X, 
TestParameter, AutoAnalysis.Line2.Point1.XY.Y, 
TestParameter, AutoAnalysis.Line2.Point1.Data.Var, 
TestParameter, AutoAnalysis.Line2.Point1.Data.Condition, 
TestParameter, AutoAnalysis.Line2.Point1.Data.Start, false
TestParameter, AutoAnalysis.Line2.Point1.Data.StartVar, 
TestParameter, AutoAnalysis.Line2.Point1.Data.StartCondition, 
TestParameter, AutoAnalysis.Line2.Point2.Type, 0
TestParameter, AutoAnalysis.Line2.Point2.XY.X, 
TestParameter, AutoAnalysis.Line2.Point2.XY.Y, 
TestParameter, AutoAnalysis.Line2.Point2.Data.Var, 
TestParameter, AutoAnalysis.Line2.Point2.Data.Condition, 
TestParameter, AutoAnalysis.Line2.Point2.Data.Start, false
TestParameter, AutoAnalysis.Line2.Point2.Data.StartVar, 
TestParameter, AutoAnalysis.Line2.Point2.Data.StartCondition, 
TestParameter, AutoAnalysis.Line2.GradientExpr, 0
TestParameter, AutoAnalysis.Marker.Enabled, false
TestParameter, AutoAnalysis.Marker.Data.Var, 
TestParameter, AutoAnalysis.Marker.Data.Condition, 
TestParameter, AutoAnalysis.Marker.Data.Start, false
TestParameter, AutoAnalysis.Marker.Data.StartVar, 
TestParameter, AutoAnalysis.Marker.Data.StartCondition, 
MetaData, TestRecord.EntryPoint, true
MetaData, TestRecord.RecordTime, 05/02/2019 16:54:57
MetaData, TestRecord.TestTarget, br-br-2-2
MetaData, TestRecord.IterationIndex, 2
MetaData, TestRecord.Preservation, true
MetaData, TestRecord.Flag, 
MetaData, TestRecord.Remarks, good
MetaData, TestRecord.LinkKey, 9842cef7-1b57-49eb-aac7-33368bcc1a6c
Dimension1, 202, 202, 202, 202, 202, 202, 202, 202, 202, 202
Dimension2, 1, 1, 1, 1, 1, 1, 1, 1, 1, 1
DataName, VG, VD, VS, ID, IS, IG, absID, sqrtID, gm2, absIG
DataValue, -2, 5, 0, 1.3800000000000002E-13, 1.767E-12, -2.5680000000000004E-12, 1.3800000000000002E-13, 3.7148351242013424E-07, 3.8691461412164751E-10, 2.5680000000000004E-12
DataValue, -1.9500000000000002, 5, 0, -1.8360000000000003E-12, -1.1370000000000001E-12, 9.9E-13, 1.8360000000000003E-12, 1.3549907748763459E-06, 1.5146286293765332E-10, 9.9E-13
DataValue, -1.9000000000000001, 5, 0, 2.5670000000000003E-12, -5.6E-13, 1.852E-12, 2.5670000000000003E-12, 1.602186006679624E-06, 4.3846970730163647E-11, 1.852E-12
DataValue, -1.85, 5, 0, 4.8000000000000008E-13, -1.3900000000000001E-13, 1.2500000000000001E-12, 4.8000000000000008E-13, 6.92820323027551E-07, 6.6724579175177685E-12, 1.2500000000000001E-12
DataValue, -1.8, 5, 0, 1.8060000000000002E-12, -3.9100000000000005E-13, -6.2500000000000006E-13, 1.8060000000000002E-12, 1.3438749941865873E-06, 2.7451867375415964E-10, 6.2500000000000006E-13
DataValue, -1.75, 5, 0, 5.5210000000000004E-12, -4.3920000000000007E-12, -9.5E-13, 5.5210000000000004E-12, 2.3496808293893878E-06, 1.7512109809257238E-10, 9.5E-13
DataValue, -1.7000000000000002, 5, 0, 7.1140000000000006E-12, -1.2203E-11, -6.1800000000000009E-13, 7.1140000000000006E-12, 2.6672082783314845E-06, 8.6309724726488832E-10, 6.1800000000000009E-13
DataValue, -1.6500000000000001, 5, 0, 2.7958000000000002E-11, -2.4203E-11, 1.4760000000000002E-12, 2.7958000000000002E-11, 5.2875325058102483E-06, 1.35591851884251E-09, 1.4760000000000002E-12
DataValue, -1.6, 5, 0, 4.0316E-11, -4.0359E-11, 8.2E-13, 4.0316E-11, 6.34948816834869E-06, 5.57492310691668E-10, 8.2E-13
DataValue, -1.55, 5, 0, 5.8502000000000009E-11, -6.1849E-11, 3.78E-13, 5.8502000000000009E-11, 7.6486600133618184E-06, 9.6783748039374188E-10, 3.78E-13
DataValue, -1.5, 5, 0, 8.950100000000001E-11, -8.7002E-11, -9.63E-13, 8.950100000000001E-11, 9.46049681570688E-06, 1.0004278715868919E-09, 9.63E-13
DataValue, -1.4500000000000002, 5, 0, 1.16891E-10, -1.13995E-10, -1.0310000000000002E-12, 1.16891E-10, 1.0811614125559605E-05, 4.4301665814267734E-10, 1.0310000000000002E-12
DataValue, -1.4000000000000001, 5, 0, 1.33756E-10, -1.29368E-10, -4.5600000000000008E-13, 1.33756E-10, 1.1565292905931955E-05, 3.8423478102476978E-10, 4.5600000000000008E-13
DataValue, -1.35, 5, 0, 1.6311900000000002E-10, -1.58505E-10, 1.41E-13, 1.6311900000000002E-10, 1.2771804884197066E-05, 5.3391381376111547E-10, 1.41E-13
DataValue, -1.3, 5, 0, 1.92542E-10, -1.84039E-10, 6.7200000000000006E-13, 1.92542E-10, 1.3875950417899309E-05, 3.4785999737348388E-10, 6.7200000000000006E-13
DataValue, -1.25, 5, 0, 2.1423900000000002E-10, -1.93042E-10, 8.94E-13, 2.1423900000000002E-10, 1.4636905410639232E-05, 3.540849021875789E-10, 8.94E-13
DataValue, -1.2, 5, 0, 2.48304E-10, -2.24772E-10, 9.0200000000000009E-13, 2.48304E-10, 1.5757664801613212E-05, 6.82894502423184E-10, 9.0200000000000009E-13
DataValue, -1.1500000000000001, 5, 0, 2.97567E-10, -2.71128E-10, 5.89E-13, 2.97567E-10, 1.7250130434289477E-05, 6.1382460052833429E-10, 5.89E-13
DataValue, -1.1, 5, 0, 3.3252300000000003E-10, -3.04402E-10, -3.6000000000000004E-14, 3.3252300000000003E-10, 1.8235213187676202E-05, 1.7212954944326091E-10, 3.6000000000000004E-14
DataValue, -1.05, 5, 0, 3.4455200000000003E-10, -3.5374900000000004E-10, -5.0500000000000007E-13, 3.4455200000000003E-10, 1.8562111948805826E-05, 8.2206507900886683E-11, 5.0500000000000007E-13
DataValue, -1, 5, 0, 3.6641200000000005E-10, -3.54748E-10, -6.15E-13, 3.6641200000000005E-10, 1.9141891233626841E-05, 6.5316047282694276E-10, 6.15E-13
DataValue, -0.95000000000000007, 5, 0, 4.4596200000000005E-10, -4.33315E-10, -6.410000000000001E-13, 4.4596200000000005E-10, 2.1117812386703316E-05, 1.1552179006212458E-09, 6.410000000000001E-13
DataValue, -0.9, 5, 0, 5.08085E-10, -4.6582000000000005E-10, -5.21E-13, 5.08085E-10, 2.254074089288105E-05, 1.1081065053042245E-09, 5.21E-13
DataValue, -0.85000000000000009, 5, 0, 5.97638E-10, -5.29442E-10, -3.5700000000000004E-13, 5.97638E-10, 2.4446635760365884E-05, 5.0763191005177526E-10, 3.5700000000000004E-13
DataValue, -0.8, 5, 0, 6.14733E-10, -5.98398E-10, -4.5000000000000004E-14, 6.14733E-10, 2.4793809711296891E-05, 3.3909764232160665E-10, 4.5000000000000004E-14
DataValue, -0.75, 5, 0, 6.91064E-10, -6.78963E-10, 2.1400000000000002E-13, 6.91064E-10, 2.6288096165374928E-05, 9.2220629196864072E-10, 2.1400000000000002E-13
DataValue, -0.70000000000000007, 5, 0, 7.74542E-10, -7.4498300000000007E-10, 1.41E-13, 7.74542E-10, 2.7830594675644285E-05, 5.5058084195021281E-10, 1.41E-13
DataValue, -0.65, 5, 0, 8.19937E-10, -8.3551400000000008E-10, 4.22E-13, 8.19937E-10, 2.8634542077707477E-05, 6.6909475494703366E-10, 4.22E-13
DataValue, -0.6, 5, 0, 9.2521100000000006E-10, -8.688190000000001E-10, 4.1900000000000003E-13, 9.2521100000000006E-10, 3.0417281272329386E-05, 1.568595295445316E-09, 4.1900000000000003E-13
DataValue, -0.55, 5, 0, 1.06244E-09, -9.4449000000000012E-10, -1.87E-13, 1.06244E-09, 3.2595091655032971E-05, 1.2308679265786259E-09, 1.87E-13
DataValue, -0.5, 5, 0, 1.15095E-09, -1.08407E-09, 5.36E-13, 1.15095E-09, 3.39256540099082E-05, 1.6352497049661972E-09, 5.36E-13
DataValue, -0.45, 5, 0, 1.34241E-09, -1.32665E-09, 2.38E-13, 1.34241E-09, 3.6638913739356413E-05, 2.4943953834782288E-09, 2.38E-13
DataValue, -0.4, 5, 0, 1.51477E-09, -1.49862E-09, -5.35E-13, 1.51477E-09, 3.8920046248687836E-05, 1.8351099482315653E-09, 5.35E-13
DataValue, -0.35000000000000003, 5, 0, 1.67467E-09, -1.57902E-09, 4.5800000000000007E-13, 1.67467E-09, 4.0922732069107996E-05, 9.995342593896647E-10, 4.5800000000000007E-13
DataValue, -0.3, 5, 0, 1.77086E-09, -1.73728E-09, 3.6700000000000005E-13, 1.77086E-09, 4.2081587422529584E-05, 1.2151765521180422E-09, 3.6700000000000005E-13
DataValue, -0.25, 5, 0, 1.97213E-09, -1.97512E-09, -5.34E-13, 1.97213E-09, 4.4408670324611159E-05, 1.736552537997016E-09, 5.34E-13
DataValue, -0.2, 5, 0, 2.13895E-09, -2.36988E-09, 3.38E-13, 2.13895E-09, 4.6248783767792206E-05, 4.2249653450031809E-09, 3.38E-13
DataValue, -0.15, 5, 0, 2.59169E-09, -2.46148E-09, 5.8E-14, 2.59169E-09, 5.0908643666866634E-05, 3.2922912633144034E-09, 5.8E-14
DataValue, -0.1, 5, 0, 2.70261E-09, -2.80128E-09, -3.0100000000000003E-13, 2.70261E-09, 5.198663289731313E-05, 3.2252906093116589E-09, 3.0100000000000003E-13
DataValue, -0.05, 5, 0, 3.2021799999999998E-09, -3.17608E-09, 3.5600000000000005E-13, 3.2021799999999998E-09, 5.6587807874134864E-05, 5.3501372108564856E-09, 3.5600000000000005E-13
DataValue, 0, 5, 0, 3.51662E-09, -3.35212E-09, 2.9700000000000005E-13, 3.51662E-09, 5.9301096111286173E-05, 1.3822878915911515E-09, 2.9700000000000005E-13
DataValue, 0.05, 5, 0, 3.63678E-09, -3.5257799999999998E-09, -5.66E-13, 3.63678E-09, 6.0305721121631571E-05, 5.0490697518692042E-09, 5.66E-13
DataValue, 0.1, 5, 0, 4.40986E-09, -3.85344E-09, 3.86E-13, 4.40986E-09, 6.6406776762616631E-05, 6.4236595975572596E-09, 3.86E-13
DataValue, 0.15, 5, 0, 4.66769E-09, -4.56902E-09, 3.5E-14, 4.66769E-09, 6.83204947288879E-05, 2.0997536573684329E-09, 3.5E-14
DataValue, 0.2, 5, 0, 5.03945E-09, -4.83082E-09, -3.62E-13, 5.03945E-09, 7.09890836678429E-05, 4.8034389909907874E-09, 3.62E-13
DataValue, 0.25, 5, 0, 5.66274E-09, -5.66025E-09, 4.2500000000000006E-13, 5.66274E-09, 7.5251179392751049E-05, 5.8652386909367052E-09, 4.2500000000000006E-13
DataValue, 0.3, 5, 0, 6.18544E-09, -6.16829E-09, -3.04E-13, 6.18544E-09, 7.8647568303158623E-05, 3.3579651575190551E-09, 3.04E-13
DataValue, 0.35000000000000003, 5, 0, 6.56845E-09, -6.42957E-09, 1.12E-13, 6.56845E-09, 8.1045974607009321E-05, 6.6287551633626088E-09, 1.12E-13
DataValue, 0.4, 5, 0, 7.53238E-09, -7.07757E-09, 4.86E-13, 7.53238E-09, 8.6789285052937267E-05, 1.05928012819304E-08, 4.86E-13
DataValue, 0.45, 5, 0, 8.34265E-09, -7.94141E-09, 1.8000000000000002E-14, 8.34265E-09, 9.1338108147694845E-05, 1.0163778737666728E-08, 1.8000000000000002E-14
DataValue, 0.5, 5, 0, 9.38396E-09, -9.39033E-09, -4.86E-13, 9.38396E-09, 9.68708418462439E-05, 9.8146503727003249E-09, 4.86E-13
DataValue, 0.55, 5, 0, 1.025055E-08, -9.57637E-09, -2.6600000000000003E-13, 1.025055E-08, 0.00010124499987653711, 4.9259656443610547E-09, 2.6600000000000003E-13
DataValue, 0.6, 5, 0, 1.0793E-08, -1.0101699999999999E-08, 2.8E-14, 1.0793E-08, 0.00010388936422945325, 7.5405140345480686E-09, 2.8E-14
DataValue, 0.65, 5, 0, 1.2084299999999999E-08, -1.1848799999999998E-08, 4.8300000000000006E-13, 1.2084299999999999E-08, 0.00010992861319965789, 2.1582513648622728E-08, 4.8300000000000006E-13
DataValue, 0.70000000000000007, 5, 0, 1.4061299999999999E-08, -1.3479899999999999E-08, 2.0400000000000001E-13, 1.4061299999999999E-08, 0.00011858035250411427, 1.8195232883727059E-08, 2.0400000000000001E-13
DataValue, 0.75, 5, 0, 1.5231899999999998E-08, -1.4799899999999998E-08, -3.4600000000000004E-13, 1.5231899999999998E-08, 0.00012341758383633994, 7.9130410701878724E-09, 3.4600000000000004E-13
DataValue, 0.8, 5, 0, 1.62501E-08, -1.6038799999999998E-08, 2.59E-13, 1.62501E-08, 0.00012747588007148647, 2.1522156257099771E-08, 2.59E-13
DataValue, 0.85000000000000009, 5, 0, 1.90683E-08, -1.91536E-08, 8.7000000000000008E-14, 1.90683E-08, 0.00013808801541046202, 3.0744534957583305E-08, 8.7000000000000008E-14
DataValue, 0.9, 5, 0, 2.10279E-08, -2.1959399999999997E-08, -1.9500000000000003E-13, 2.10279E-08, 0.00014500999965519619, 4.0705840957763218E-08, 1.9500000000000003E-13
DataValue, 0.95000000000000007, 5, 0, 2.5047399999999998E-08, -2.3643E-08, 4.0700000000000003E-13, 2.5047399999999998E-08, 0.00015826370398799592, 2.4306170120924515E-08, 4.0700000000000003E-13
DataValue, 1, 5, 0, 2.5792499999999998E-08, -2.5826399999999998E-08, -4E-13, 2.5792499999999998E-08, 0.00016060043586491288, 1.2081800276555884E-08, 4E-13
DataValue, 1.05, 5, 0, 2.8647399999999997E-08, -2.8234199999999997E-08, 9.2000000000000012E-14, 2.8647399999999997E-08, 0.00016925542827336438, 4.1271102291780853E-08, 9.2000000000000012E-14
DataValue, 1.1, 5, 0, 3.2730499999999997E-08, -3.04194E-08, 4.73E-13, 3.2730499999999997E-08, 0.00018091572623738379, 3.686350643258279E-08, 4.73E-13
DataValue, 1.1500000000000001, 5, 0, 3.55154E-08, -3.58365E-08, -2.55E-13, 3.55154E-08, 0.0001884552997397526, 6.38321221017809E-08, 2.55E-13
DataValue, 1.2, 5, 0, 4.2510499999999995E-08, -4.1323199999999996E-08, 2.0400000000000001E-13, 4.2510499999999995E-08, 0.00020618074594879124, 5.5436401638503103E-08, 2.0400000000000001E-13
DataValue, 1.25, 5, 0, 4.4944099999999994E-08, -4.3831099999999996E-08, 3.9100000000000005E-13, 4.4944099999999994E-08, 0.00021200023584892541, 3.2543010175711842E-08, 3.9100000000000005E-13
DataValue, 1.3, 5, 0, 5.0274799999999994E-08, -4.9995199999999996E-08, -6.0000000000000005E-15, 5.0274799999999994E-08, 0.00022422042725853502, 4.2727211814590176E-08, 6.0000000000000005E-15
DataValue, 1.35, 5, 0, 5.4135699999999993E-08, -5.3648299999999995E-08, -1.29E-13, 5.4135699999999993E-08, 0.00023267079748004474, 6.0641569426246586E-08, 1.29E-13
DataValue, 1.4000000000000001, 5, 0, 6.19243E-08, -6.1568099999999991E-08, 5.14E-13, 6.19243E-08, 0.00024884593627383188, 1.0528877853292333E-07, 5.14E-13
DataValue, 1.4500000000000002, 5, 0, 7.0288099999999993E-08, -6.8428599999999988E-08, -1.0800000000000001E-13, 7.0288099999999993E-08, 0.00026511902987148996, 9.7216734866175208E-08, 1.0800000000000001E-13
DataValue, 1.5, 5, 0, 7.8414299999999993E-08, -7.785569999999999E-08, -8.4000000000000008E-14, 7.8414299999999993E-08, 0.00028002553454997632, 7.559965918341565E-08, 8.4000000000000008E-14
DataValue, 1.55, 5, 0, 8.56232E-08, -8.4024599999999991E-08, 3.8100000000000004E-13, 8.56232E-08, 0.00029261442206425845, 6.3545890472074255E-08, 3.8100000000000004E-13
DataValue, 1.6, 5, 0, 9.3167699999999988E-08, -8.9242499999999987E-08, 3.8400000000000003E-13, 9.3167699999999988E-08, 0.00030523384478134137, 9.0557183996079588E-08, 3.8400000000000003E-13
DataValue, 1.6500000000000001, 5, 0, 1.0413989999999999E-07, -1.0119699999999999E-07, -4.1700000000000004E-13, 1.0413989999999999E-07, 0.00032270714277809218, 8.1692916336050914E-08, 4.1700000000000004E-13
DataValue, 1.7000000000000002, 5, 0, 1.11433E-07, -1.05951E-07, -2.0800000000000002E-13, 1.11433E-07, 0.00033381581748023867, 6.07481668818893E-08, 2.0800000000000002E-13
DataValue, 1.75, 5, 0, 1.20655E-07, -1.18348E-07, -2.1900000000000003E-13, 1.20655E-07, 0.00034735428599630088, 1.3792576042783482E-07, 2.1900000000000003E-13
DataValue, 1.8, 5, 0, 1.37607E-07, -1.31592E-07, 5.35E-13, 1.37607E-07, 0.00037095417506748725, 1.1986028451010734E-07, 5.35E-13
DataValue, 1.85, 5, 0, 1.45905E-07, -1.48891E-07, -2.3100000000000003E-13, 1.45905E-07, 0.00038197513008048051, 1.5466471858965571E-07, 2.3100000000000003E-13
DataValue, 1.9000000000000001, 5, 0, 1.68331E-07, -1.66423E-07, 3.2E-14, 1.68331E-07, 0.00041028161060422877, 1.9116085021005886E-07, 3.2E-14
DataValue, 1.9500000000000002, 5, 0, 1.81218E-07, -1.80131E-07, 2.45E-13, 1.81218E-07, 0.00042569707539516879, 1.0738189319143507E-07, 2.45E-13
DataValue, 2, 5, 0, 1.96294E-07, -1.9266499999999999E-07, -3.7900000000000005E-13, 1.96294E-07, 0.00044305078715650649, 2.3770734702230133E-07, 3.7900000000000005E-13
DataValue, 2.05, 5, 0, 2.25105E-07, -2.2048999999999999E-07, 4.93E-13, 2.25105E-07, 0.00047445231583374109, 1.6635790081580993E-07, 4.93E-13
DataValue, 2.1, 5, 0, 2.3409899999999998E-07, -2.3015399999999998E-07, 2.8900000000000003E-13, 2.3409899999999998E-07, 0.00048383778273301472, 9.1210224530606452E-08, 2.8900000000000003E-13
DataValue, 2.15, 5, 0, 2.5467499999999997E-07, -2.49585E-07, -4.3700000000000006E-13, 2.5467499999999997E-07, 0.00050465334636758325, 1.812192468704889E-07, 4.3700000000000006E-13
DataValue, 2.2, 5, 0, 2.77105E-07, -2.69271E-07, 4.1800000000000004E-13, 2.77105E-07, 0.00052640763672272078, 1.6937528028030208E-07, 4.1800000000000004E-13
DataValue, 2.25, 5, 0, 2.9790699999999997E-07, -2.95474E-07, 3.2500000000000003E-13, 2.9790699999999997E-07, 0.00054580857450208669, 1.9188433723102475E-07, 3.2500000000000003E-13
DataValue, 2.3000000000000003, 5, 0, 3.25142E-07, -3.2120299999999997E-07, -4.5200000000000004E-13, 3.25142E-07, 0.00057021224118743716, 1.8063960138870661E-07, 4.5200000000000004E-13
