
SetupTitle, Transfer lin
PrimitiveTest, I/V Sweep
TestParameter, Context.MainFrame, 4155C
TestParameter, Channel.UnitType, SMU, SMU, SMU
TestParameter, Channel.Unit, SMU3:MP, SMU1:MP, SMU4:MP
TestParameter, Channel.IName, ID, IS, IG
TestParameter, Channel.VName, VD, VS, VG
TestParameter, Channel.Mode, V, COMMON, V
TestParameter, Channel.Func, CONST, CONST, VAR1
TestParameter, Channel.Index, 
TestParameter, Channel.Time, 
TestParameter, Measurement.Port.Unit, SMU3:MP, SMU1:MP, SMU4:MP
TestParameter, Measurement.Port.SeriesResistor, NONE, NONE, NONE
TestParameter, Measurement.Port.Filter, ON, ON, ON
TestParameter, Measurement.Primary.Locus, Double
TestParameter, Measurement.Primary.Scale, LINEAR
TestParameter, Measurement.Primary.Start, -2
TestParameter, Measurement.Primary.Stop, 3
TestParameter, Measurement.Primary.Step, 0.05
TestParameter, Measurement.Primary.Compliance, 0.001
TestParameter, Measurement.Primary.PowerCompliance, 0
TestParameter, Measurement.Aborting.Condition, CONTINUE AT ANY
TestParameter, Measurement.PostOutput.Value, START
TestParameter, Measurement.PostOutput.Retention, OFF
TestParameter, Measurement.Bias.Source, 0.1, 0, -2
TestParameter, Measurement.Bias.Compliance, 0.001, 0.1, 0.001
TestParameter, Measurement.Monitor.Unit, SMU3:MP, SMU1:MP, SMU4:MP
TestParameter, Measurement.Monitor.Adc, HR ADC, HR ADC, HR ADC
TestParameter, Measurement.Monitor.RangingMode, AUTO, AUTO, AUTO
TestParameter, Measurement.Monitor.RangeBoundary, , , 
TestParameter, Measurement.Monitor.RangeRating, BY FULL RANGE, BY FULL RANGE, BY FULL RANGE
TestParameter, Measurement.Monitor.RangeRatingCoeff, 50, 50, 50
TestParameter, Measurement.Timing.Hold, 0.5
TestParameter, Measurement.Timing.Delay, 0.05
TestParameter, Measurement.Adc.HighResolution.AutoZero, OFF
TestParameter, Measurement.Adc.HighResolution.Mode, AUTO
TestParameter, Measurement.Adc.HighResolution.Coeff, 1
TestParameter, Measurement.Ag16440ASelector.SemiconductorRelay.Channel1, DEFAULT
TestParameter, Measurement.Ag16440ASelector.SemiconductorRelay.Channel3, DEFAULT
TestParameter, Function.User.Name, absID, sqrtID, gm2, absIG
TestParameter, Function.User.Unit, A, A, A/V, A
TestParameter, Function.User.Definition, abs(ID), sqrt(abs(ID)), (delta(sqrtID)/delta(VG))^2, abs(IG)
TestParameter, Output.Graph.Enabled, true
TestParameter, Output.Graph.XAxis.Data, VG
TestParameter, Output.Graph.XAxis.Scale, Linear
TestParameter, Output.Graph.XAxis.Left, -5
TestParameter, Output.Graph.XAxis.Right, 7
TestParameter, Output.Graph.YAxis.Data, ID, absIG, gm2
TestParameter, Output.Graph.YAxis.Scale, Log, Log, Linear
TestParameter, Output.Graph.YAxis.Bottom, 1E-14, 1E-14, 0
TestParameter, Output.Graph.YAxis.Top, 0.01, 0.01, 1E-05
TestParameter, Output.Graph.YAxis.Group, , , 
TestParameter, Output.List.Data, VG, IG, VD, ID, VS, IS, sqrtID, gm2, absIG
TestParameter, AutoAnalysis.Interpolation, false
TestParameter, AutoAnalysis.Line1.Enabled, false
TestParameter, AutoAnalysis.Line1.Type, 1
TestParameter, AutoAnalysis.Line1.Fix, True
TestParameter, AutoAnalysis.Line1.YAxis, 0
TestParameter, AutoAnalysis.Line1.Point1.Type, 0
TestParameter, AutoAnalysis.Line1.Point1.XY.X, 
TestParameter, AutoAnalysis.Line1.Point1.XY.Y, 
TestParameter, AutoAnalysis.Line1.Point1.Data.Var, 
TestParameter, AutoAnalysis.Line1.Point1.Data.Condition, 
TestParameter, AutoAnalysis.Line1.Point1.Data.Start, false
TestParameter, AutoAnalysis.Line1.Point1.Data.StartVar, 
TestParameter, AutoAnalysis.Line1.Point1.Data.StartCondition, 
TestParameter, AutoAnalysis.Line1.Point2.Type, 0
TestParameter, AutoAnalysis.Line1.Point2.XY.X, 
TestParameter, AutoAnalysis.Line1.Point2.XY.Y, 
TestParameter, AutoAnalysis.Line1.Point2.Data.Var, 
TestParameter, AutoAnalysis.Line1.Point2.Data.Condition, 
TestParameter, AutoAnalysis.Line1.Point2.Data.Start, false
TestParameter, AutoAnalysis.Line1.Point2.Data.StartVar, 
TestParameter, AutoAnalysis.Line1.Point2.Data.StartCondition, 
TestParameter, AutoAnalysis.Line1.GradientExpr, 0
TestParameter, AutoAnalysis.Line2.Enabled, false
TestParameter, AutoAnalysis.Line2.Type, 1
TestParameter, AutoAnalysis.Line2.Fix, True
TestParameter, AutoAnalysis.Line2.YAxis, 0
TestParameter, AutoAnalysis.Line2.Point1.Type, 0
TestParameter, AutoAnalysis.Line2.Point1.XY.X, 
TestParameter, AutoAnalysis.Line2.Point1.XY.Y, 
TestParameter, AutoAnalysis.Line2.Point1.Data.Var, 
TestParameter, AutoAnalysis.Line2.Point1.Data.Condition, 
TestParameter, AutoAnalysis.Line2.Point1.Data.Start, false
TestParameter, AutoAnalysis.Line2.Point1.Data.StartVar, 
TestParameter, AutoAnalysis.Line2.Point1.Data.StartCondition, 
TestParameter, AutoAnalysis.Line2.Point2.Type, 0
TestParameter, AutoAnalysis.Line2.Point2.XY.X, 
TestParameter, AutoAnalysis.Line2.Point2.XY.Y, 
TestParameter, AutoAnalysis.Line2.Point2.Data.Var, 
TestParameter, AutoAnalysis.Line2.Point2.Data.Condition, 
TestParameter, AutoAnalysis.Line2.Point2.Data.Start, false
TestParameter, AutoAnalysis.Line2.Point2.Data.StartVar, 
TestParameter, AutoAnalysis.Line2.Point2.Data.StartCondition, 
TestParameter, AutoAnalysis.Line2.GradientExpr, 0
TestParameter, AutoAnalysis.Marker.Enabled, false
TestParameter, AutoAnalysis.Marker.Data.Var, 
TestParameter, AutoAnalysis.Marker.Data.Condition, 
TestParameter, AutoAnalysis.Marker.Data.Start, false
TestParameter, AutoAnalysis.Marker.Data.StartVar, 
TestParameter, AutoAnalysis.Marker.Data.StartCondition, 
MetaData, TestRecord.EntryPoint, true
MetaData, TestRecord.RecordTime, 05/02/2019 13:32:27
MetaData, TestRecord.TestTarget, 150-300-50-5
MetaData, TestRecord.IterationIndex, 1
MetaData, TestRecord.Preservation, true
MetaData, TestRecord.Flag, 
MetaData, TestRecord.Remarks, good
MetaData, TestRecord.LinkKey, 7f6e430f-2cb4-4996-99e2-620c3bcfdf85
Dimension1, 202, 202, 202, 202, 202, 202, 202, 202, 202, 202
Dimension2, 1, 1, 1, 1, 1, 1, 1, 1, 1, 1
DataName, VG, VD, VS, ID, IS, IG, absID, sqrtID, gm2, absIG
DataValue, -2, 0.1, 0, 2.423E-12, 3.7380000000000004E-12, -2.724E-12, 2.423E-12, 1.5565988564816563E-06, 2.3159428428519456E-11, 2.724E-12
DataValue, -1.9500000000000002, 0.1, 0, -3.23E-12, 2.84E-13, -4.717E-12, 3.23E-12, 1.7972200755611428E-06, 3.3922767092549547E-11, 4.717E-12
DataValue, -1.9000000000000001, 0.1, 0, -9.49E-13, 1.3300000000000002E-12, -5.735E-12, 9.49E-13, 9.7416631023660436E-07, 3.0230509512522625E-11, 5.735E-12
DataValue, -1.85, 0.1, 0, 1.556E-12, 4.24E-13, -6.1250000000000007E-12, 1.556E-12, 1.2473972903610142E-06, 4.2997393572283457E-12, 6.1250000000000007E-12
DataValue, -1.8, 0.1, 0, 1.3960000000000001E-12, -2.9690000000000004E-12, -8.3700000000000007E-13, 1.3960000000000001E-12, 1.1815244390193544E-06, 7.2456687178009662E-12, 8.3700000000000007E-13
DataValue, -1.75, 0.1, 0, -2.3000000000000003E-12, -2.2000000000000002E-13, 2.1500000000000003E-12, 2.3000000000000003E-12, 1.5165750888103101E-06, 7.3793963493697092E-11, 2.1500000000000003E-12
DataValue, -1.7000000000000002, 0.1, 0, 1.0400000000000001E-13, 1.4510000000000002E-12, -4.24E-13, 1.0400000000000001E-13, 3.22490309931942E-07, 7.7057903387002848E-11, 4.24E-13
DataValue, -1.6500000000000001, 0.1, 0, 4.0800000000000003E-13, 2.5210000000000003E-12, -2.293E-12, 4.0800000000000003E-13, 6.3874877690685246E-07, 5.8693532701363357E-15, 2.293E-12
DataValue, -1.6, 0.1, 0, 1.09E-13, -3.0000000000000005E-14, -3.38E-12, 1.09E-13, 3.3015148038438355E-07, 2.6348233150478972E-14, 3.38E-12
DataValue, -1.55, 0.1, 0, 4.2900000000000004E-13, -5.7400000000000008E-13, -4.5900000000000006E-13, 4.2900000000000004E-13, 6.5498091575251264E-07, 8.49226694806403E-15, 4.5900000000000006E-13
DataValue, -1.5, 0.1, 0, -1.03E-13, -3.78E-13, 4.98E-13, 1.03E-13, 3.2093613071762426E-07, 2.8356309651454956E-11, 4.98E-13
DataValue, -1.4500000000000002, 0.1, 0, -1.5000000000000002E-14, 1.339E-12, 3.3200000000000005E-13, 1.5000000000000002E-14, 1.2247448713915892E-07, 1.8249016820440031E-10, 3.3200000000000005E-13
DataValue, -1.4000000000000001, 0.1, 0, 2.795E-12, 8.94E-13, -1.738E-12, 2.795E-12, 1.6718253497300488E-06, 1.9643593539448951E-11, 1.738E-12
DataValue, -1.35, 0.1, 0, 3.2000000000000005E-13, -1.93E-13, -2.068E-12, 3.2000000000000005E-13, 5.6568542494923806E-07, 1.2373477073491161E-10, 2.068E-12
DataValue, -1.3, 0.1, 0, 3.1300000000000003E-13, -4.4300000000000003E-13, 6.59E-13, 3.1300000000000003E-13, 5.5946402922797464E-07, 2.1997594323866392E-14, 6.59E-13
DataValue, -1.25, 0.1, 0, -3.3700000000000003E-13, 1.42E-13, -4.86E-13, 3.3700000000000003E-13, 5.8051701094799977E-07, 4.6635589576766288E-12, 4.86E-13
DataValue, -1.2, 0.1, 0, -1.18E-13, 6.4900000000000006E-13, -8.72E-13, 1.18E-13, 3.4351128074635336E-07, 1.0636090734429674E-10, 8.72E-13
DataValue, -1.1500000000000001, 0.1, 0, 2.598E-12, 4.87E-13, -4.86E-13, 2.598E-12, 1.6118312566767032E-06, 7.8548878035199344E-12, 4.86E-13
DataValue, -1.1, 0.1, 0, 4E-15, -3.5800000000000004E-13, -1.2480000000000001E-12, 4E-15, 6.3245553203367584E-08, 1.9862580908199593E-10, 1.2480000000000001E-12
DataValue, -1.05, 0.1, 0, -4.1E-14, -5.700000000000001E-14, 8.780000000000001E-13, 4.1E-14, 2.0248456731316586E-07, 3.2275417008525506E-12, 8.780000000000001E-13
DataValue, -1, 0.1, 0, -5.9E-14, 2.7800000000000003E-13, -7.07E-13, 5.9E-14, 2.4289915602982238E-07, 2.0860907108159323E-10, 7.07E-13
DataValue, -0.95000000000000007, 0.1, 0, 2.712E-12, 5.57E-13, 1.87E-13, 2.712E-12, 1.6468151080191123E-06, 6.3542103477552661E-12, 1.87E-13
DataValue, -0.9, 0.1, 0, -2.45E-13, -1.0200000000000001E-13, -1.1440000000000002E-12, 2.45E-13, 4.9497474683058325E-07, 6.612104960503621E-11, 1.1440000000000002E-12
DataValue, -0.85000000000000009, 0.1, 0, -6.9500000000000007E-13, -5.700000000000001E-14, 2.93E-13, 6.9500000000000007E-13, 8.336666000266534E-07, 3.09771212374612E-13, 2.93E-13
DataValue, -0.8, 0.1, 0, -1.93E-13, -8.0000000000000013E-14, 6.59E-13, 1.93E-13, 4.3931765272977595E-07, 2.8302882786386202E-11, 6.59E-13
DataValue, -0.75, 0.1, 0, 9.1E-14, 2.5E-13, -1.7900000000000002E-13, 9.1E-14, 3.0166206257996714E-07, 1.9409408362134442E-12, 1.7900000000000002E-13
DataValue, -0.70000000000000007, 0.1, 0, -9.0000000000000008E-14, 2.06E-13, 5.5000000000000005E-14, 9.0000000000000008E-14, 3.0000000000000004E-07, 1.016672386182326E-12, 5.5000000000000005E-14
DataValue, -0.65, 0.1, 0, -1.6200000000000002E-13, 2.1000000000000001E-13, 4.1E-14, 1.6200000000000002E-13, 4.0249223594996217E-07, 1.5871153917282298E-10, 4.1E-14
DataValue, -0.6, 0.1, 0, -2.4330000000000002E-12, 3.0000000000000005E-14, -7.23E-13, 2.4330000000000002E-12, 1.5598076804529462E-06, 1.4973416215466475E-14, 7.23E-13
DataValue, -0.55, 0.1, 0, 1.7200000000000002E-13, 6.9000000000000009E-14, 7.52E-13, 1.7200000000000002E-13, 4.1472882706655444E-07, 1.368750025693732E-10, 7.52E-13
DataValue, -0.5, 0.1, 0, -1.52E-13, -5.3E-14, -2.37E-13, 1.52E-13, 3.8987177379235857E-07, 9.4343395892691722E-13, 2.37E-13
DataValue, -0.45, 0.1, 0, -2.6200000000000004E-13, 1.36E-13, -4.01E-13, 2.6200000000000004E-13, 5.118593556827891E-07, 4.8781562725675249E-12, 4.01E-13
DataValue, -0.4, 0.1, 0, 3.7300000000000003E-13, 6.8E-14, 4.24E-13, 3.7300000000000003E-13, 6.1073725938409883E-07, 1.2293031774429325E-11, 4.24E-13
DataValue, -0.35000000000000003, 0.1, 0, 2.6000000000000003E-14, -2.7E-13, 4.3200000000000003E-13, 2.6000000000000003E-14, 1.61245154965971E-07, 1.741206115878658E-10, 4.3200000000000003E-13
DataValue, -0.3, 0.1, 0, -3.726E-12, -6.3000000000000009E-14, -7.8000000000000008E-14, 3.726E-12, 1.9302849530574495E-06, 1.053347517794708E-11, 7.8000000000000008E-14
DataValue, -0.25, 0.1, 0, 2.36E-13, -9.1E-14, 6.8E-14, 2.36E-13, 4.8579831205964476E-07, 1.8011446545409372E-10, 6.8E-14
DataValue, -0.2, 0.1, 0, 3.4600000000000004E-13, -8.43E-13, -8.48E-13, 3.4600000000000004E-13, 5.8821764679410979E-07, 5.85533011554818E-11, 8.48E-13
DataValue, -0.15, 0.1, 0, 1.565E-12, -2.5840000000000003E-12, 5.3100000000000006E-13, 1.565E-12, 1.2509996003196804E-06, 5.9349881956350949E-10, 5.3100000000000006E-13
DataValue, -0.1, 0.1, 0, 9.147E-12, -8.333E-12, 7.99E-13, 9.147E-12, 3.0244007670942025E-06, 1.5898726692915342E-09, 7.99E-13
DataValue, -0.05, 0.1, 0, 2.744E-11, -2.5736E-11, 1.6E-14, 2.744E-11, 5.238320341483518E-06, 3.4414425753372751E-09, 1.6E-14
DataValue, 0, 0.1, 0, 7.9046E-11, -7.5654E-11, 4.5100000000000005E-13, 7.9046E-11, 8.8907817429065257E-06, 9.865927684336626E-09, 4.5100000000000005E-13
DataValue, 0.05, 0.1, 0, 2.3016100000000002E-10, -2.1412E-10, 4.9E-13, 2.3016100000000002E-10, 1.5171057972336669E-05, 2.4802151298277796E-08, 4.9E-13
DataValue, 0.1, 0.1, 0, 6.07104E-10, -5.68015E-10, 6.6500000000000009E-13, 6.07104E-10, 2.4639480514004348E-05, 4.7897600278599229E-08, 6.6500000000000009E-13
DataValue, 0.15, 0.1, 0, 1.37319E-09, -1.2785E-09, -4.96E-13, 1.37319E-09, 3.7056578363362152E-05, 1.1649487512339699E-07, 4.96E-13
DataValue, 0.2, 0.1, 0, 3.45401E-09, -3.37734E-09, 9.72E-13, 3.45401E-09, 5.8770826095946621E-05, 2.5946764741597044E-07, 9.72E-13
DataValue, 0.25, 0.1, 0, 7.74304E-09, -7.52278E-09, 2.8E-14, 7.74304E-09, 8.799454528548915E-05, 3.5612498586313067E-07, 2.8E-14
DataValue, 0.3, 0.1, 0, 1.40297E-08, -1.3422199999999999E-08, -2.9700000000000005E-13, 1.40297E-08, 0.00011844703457664104, 5.4154583719566563E-07, 2.9700000000000005E-13
DataValue, 0.35000000000000003, 0.1, 0, 2.6109499999999996E-08, -2.5676499999999998E-08, 8.1100000000000008E-13, 2.6109499999999996E-08, 0.00016158434330095227, 8.3803760398443831E-07, 8.1100000000000008E-13
DataValue, 0.4, 0.1, 0, 4.4096399999999995E-08, -4.33465E-08, 5.2500000000000009E-13, 4.4096399999999995E-08, 0.00020999142839649431, 9.8094352564290523E-07, 5.2500000000000009E-13
DataValue, 0.45, 0.1, 0, 6.7926399999999991E-08, -6.7108599999999987E-08, -2.8E-13, 6.7926399999999991E-08, 0.00026062693644364541, 1.0428676405117107E-06, 2.8E-13
DataValue, 0.5, 0.1, 0, 9.74141E-08, -9.62295E-08, 8.3300000000000009E-13, 9.74141E-08, 0.00031211231952616033, 9.68164430875935E-07, 8.3300000000000009E-13
DataValue, 0.55, 0.1, 0, 1.28897E-07, -1.26493E-07, 9.38E-13, 1.28897E-07, 0.00035902228343098703, 9.7871958181352288E-07, 9.38E-13
DataValue, 0.6, 0.1, 0, 1.68956E-07, -1.67704E-07, -2.47E-13, 1.68956E-07, 0.00041104257687008531, 1.0805976290173998E-06, 2.47E-13
DataValue, 0.65, 0.1, 0, 2.14345E-07, -2.12991E-07, 1.9200000000000002E-13, 2.14345E-07, 0.0004629740813479735, 1.0403068438054571E-06, 1.9200000000000002E-13
DataValue, 0.70000000000000007, 0.1, 0, 2.63208E-07, -2.61612E-07, 1.07E-12, 2.63208E-07, 0.00051303801028773687, 9.7408511653295136E-07, 1.07E-12
DataValue, 0.75, 0.1, 0, 3.15473E-07, -3.1392099999999997E-07, 2.61E-13, 3.15473E-07, 0.00056166983184073539, 9.0476321123172827E-07, 2.61E-13
DataValue, 0.8, 0.1, 0, 3.6985499999999997E-07, -3.68138E-07, -1.57E-13, 3.6985499999999997E-07, 0.00060815705208441015, 8.70311222193931E-07, 1.57E-13
DataValue, 0.85000000000000009, 0.1, 0, 4.28973E-07, -4.2715799999999997E-07, 8.91E-13, 4.28973E-07, 0.0006549603041406403, 8.58871311734092E-07, 8.91E-13
DataValue, 0.9, 0.1, 0, 4.91166E-07, -4.89773E-07, 7.9300000000000005E-13, 4.91166E-07, 0.00070083236226646951, 8.2698076101340966E-07, 7.9300000000000005E-13
DataValue, 0.95000000000000007, 0.1, 0, 5.56365E-07, -5.5464199999999994E-07, 1.3200000000000002E-13, 5.56365E-07, 0.0007458987866996433, 7.9500775433984685E-07, 1.3200000000000002E-13
DataValue, 1, 0.1, 0, 6.24093E-07, -6.22222E-07, 1.519E-12, 6.24093E-07, 0.00078999556960783013, 7.73564559665224E-07, 1.519E-12
DataValue, 1.05, 0.1, 0, 6.9530799999999994E-07, -6.93446E-07, 8.8000000000000009E-13, 6.9530799999999994E-07, 0.00083385130568944959, 7.4273239943515047E-07, 8.8000000000000009E-13
DataValue, 1.1, 0.1, 0, 7.67687E-07, -7.66255E-07, 2.2600000000000002E-13, 7.67687E-07, 0.00087617749343383623, 7.1364668312823811E-07, 2.2600000000000002E-13
DataValue, 1.1500000000000001, 0.1, 0, 8.43328E-07, -8.41483E-07, 1.4220000000000002E-12, 8.43328E-07, 0.00091832891710976849, 6.973216571757159E-07, 1.4220000000000002E-12
DataValue, 1.2, 0.1, 0, 9.2099199999999994E-07, -9.19095E-07, 9.15E-13, 9.2099199999999994E-07, 0.00095968328108808891, 6.746728855714317E-07, 9.15E-13
DataValue, 1.25, 0.1, 0, 1.000935E-06, -9.99561E-07, 8.91E-13, 1.000935E-06, 0.0010004673907729326, 6.5371491560613867E-07, 8.91E-13
DataValue, 1.3, 0.1, 0, 1.082715E-06, -1.081347E-06, 1.7010000000000001E-12, 1.082715E-06, 0.0010405359196106591, 6.1862348041043938E-07, 1.7010000000000001E-12
DataValue, 1.35, 0.1, 0, 1.1645E-06, -1.1629400000000002E-06, 1.414E-12, 1.1645E-06, 0.0010791200118615168, 5.9948648648688E-07, 1.414E-12
DataValue, 1.4000000000000001, 0.1, 0, 1.2498400000000001E-06, -1.2493800000000001E-06, 7.29E-13, 1.2498400000000001E-06, 0.0011179624322847348, 6.0310758791235823E-07, 7.29E-13
DataValue, 1.4500000000000002, 0.1, 0, 1.3381400000000002E-06, -1.3374E-06, 1.7160000000000002E-12, 1.3381400000000002E-06, 0.001156780013658604, 5.8964872167351651E-07, 1.7160000000000002E-12
DataValue, 1.5, 0.1, 0, 1.42743E-06, -1.4262900000000002E-06, 1.665E-12, 1.42743E-06, 0.001194751020087449, 5.6510880642032058E-07, 1.665E-12
DataValue, 1.55, 0.1, 0, 1.5177100000000002E-06, -1.5165300000000002E-06, 7.1600000000000008E-13, 1.5177100000000002E-06, 0.0012319537328974656, 5.3871542861453382E-07, 7.1600000000000008E-13
DataValue, 1.6, 0.1, 0, 1.6082000000000001E-06, -1.6080700000000001E-06, 1.9530000000000003E-12, 1.6082000000000001E-06, 0.0012681482563170602, 5.327084473757932E-07, 1.9530000000000003E-12
DataValue, 1.6500000000000001, 0.1, 0, 1.7028700000000003E-06, -1.7020300000000002E-06, 1.3740000000000002E-12, 1.7028700000000003E-06, 0.0013049406116754894, 5.1734024813798812E-07, 1.3740000000000002E-12
DataValue, 1.7000000000000002, 0.1, 0, 1.7958000000000002E-06, -1.7951300000000002E-06, 1.2840000000000002E-12, 1.7958000000000002E-06, 0.0013400746247877393, 4.9192784337507466E-07, 1.2840000000000002E-12
DataValue, 1.75, 0.1, 0, 1.8908400000000002E-06, -1.8903700000000002E-06, 2.3170000000000003E-12, 1.8908400000000002E-06, 0.0013750781795956186, 4.8395916544469785E-07, 2.3170000000000003E-12
DataValue, 1.8, 0.1, 0, 1.98709E-06, -1.9868500000000003E-06, 2.1240000000000002E-12, 1.98709E-06, 0.0014096417984722218, 4.6748051780843077E-07, 2.1240000000000002E-12
DataValue, 1.85, 0.1, 0, 2.08355E-06, -2.0830200000000003E-06, 1.174E-12, 2.08355E-06, 0.0014434507265577168, 4.5253230225386274E-07, 1.174E-12
DataValue, 1.9000000000000001, 0.1, 0, 2.18127E-06, -2.1809500000000003E-06, 2.215E-12, 2.18127E-06, 0.001476912319672363, 4.4296872849507794E-07, 2.215E-12
DataValue, 1.9500000000000002, 0.1, 0, 2.28012E-06, -2.28038E-06, 2.0740000000000003E-12, 2.28012E-06, 0.001510006622502034, 4.333423982905799E-07, 2.0740000000000003E-12
DataValue, 2, 0.1, 0, 2.38005E-06, -2.3798400000000003E-06, 1.4130000000000001E-12, 2.38005E-06, 0.0015427410670621302, 4.2144470302311014E-07, 1.4130000000000001E-12
DataValue, 2.05, 0.1, 0, 2.48039E-06, -2.4802400000000002E-06, 2.8260000000000003E-12, 2.48039E-06, 0.0015749253950584454, 4.136451134063107E-07, 2.8260000000000003E-12
DataValue, 2.1, 0.1, 0, 2.5826300000000005E-06, -2.5829200000000004E-06, 2.311E-12, 2.5826300000000005E-06, 0.0016070563151302448, 4.0906732736615364E-07, 2.311E-12
DataValue, 2.15, 0.1, 0, 2.6859400000000002E-06, -2.68603E-06, 2.177E-12, 2.6859400000000002E-06, 0.0016388837664703376, 3.97964120850225E-07, 2.177E-12
DataValue, 2.2, 0.1, 0, 2.7893700000000004E-06, -2.78887E-06, 3.397E-12, 2.7893700000000004E-06, 0.0016701407126347169, 3.8880235860510723E-07, 3.397E-12
DataValue, 2.25, 0.1, 0, 2.8942100000000005E-06, -2.89366E-06, 2.423E-12, 2.8942100000000005E-06, 0.0017012377846732656, 3.8100167331614056E-07, 2.423E-12
DataValue, 2.3000000000000003, 0.1, 0, 2.99936E-06, -2.9996700000000003E-06, 3.839E-12, 2.99936E-06, 0.0017318660456282409, 3.7639722165436783E-07, 3.839E-12
