
SetupTitle, Transfer lin
PrimitiveTest, I/V Sweep
TestParameter, Context.MainFrame, 4155C
TestParameter, Channel.UnitType, SMU, SMU, SMU
TestParameter, Channel.Unit, SMU3:MP, SMU1:MP, SMU4:MP
TestParameter, Channel.IName, ID, IS, IG
TestParameter, Channel.VName, VD, VS, VG
TestParameter, Channel.Mode, V, COMMON, V
TestParameter, Channel.Func, CONST, CONST, VAR1
TestParameter, Channel.Index, 
TestParameter, Channel.Time, 
TestParameter, Measurement.Port.Unit, SMU3:MP, SMU1:MP, SMU4:MP
TestParameter, Measurement.Port.SeriesResistor, NONE, NONE, NONE
TestParameter, Measurement.Port.Filter, ON, ON, ON
TestParameter, Measurement.Primary.Locus, Double
TestParameter, Measurement.Primary.Scale, LINEAR
TestParameter, Measurement.Primary.Start, -2
TestParameter, Measurement.Primary.Stop, 3
TestParameter, Measurement.Primary.Step, 0.05
TestParameter, Measurement.Primary.Compliance, 0.001
TestParameter, Measurement.Primary.PowerCompliance, 0
TestParameter, Measurement.Aborting.Condition, CONTINUE AT ANY
TestParameter, Measurement.PostOutput.Value, START
TestParameter, Measurement.PostOutput.Retention, OFF
TestParameter, Measurement.Bias.Source, 0.1, 0, -2
TestParameter, Measurement.Bias.Compliance, 0.001, 0.1, 0.001
TestParameter, Measurement.Monitor.Unit, SMU3:MP, SMU1:MP, SMU4:MP
TestParameter, Measurement.Monitor.Adc, HR ADC, HR ADC, HR ADC
TestParameter, Measurement.Monitor.RangingMode, AUTO, AUTO, AUTO
TestParameter, Measurement.Monitor.RangeBoundary, , , 
TestParameter, Measurement.Monitor.RangeRating, BY FULL RANGE, BY FULL RANGE, BY FULL RANGE
TestParameter, Measurement.Monitor.RangeRatingCoeff, 50, 50, 50
TestParameter, Measurement.Timing.Hold, 0.5
TestParameter, Measurement.Timing.Delay, 0.05
TestParameter, Measurement.Adc.HighResolution.AutoZero, OFF
TestParameter, Measurement.Adc.HighResolution.Mode, AUTO
TestParameter, Measurement.Adc.HighResolution.Coeff, 1
TestParameter, Measurement.Ag16440ASelector.SemiconductorRelay.Channel1, DEFAULT
TestParameter, Measurement.Ag16440ASelector.SemiconductorRelay.Channel3, DEFAULT
TestParameter, Function.User.Name, absID, sqrtID, gm2, absIG
TestParameter, Function.User.Unit, A, A, A/V, A
TestParameter, Function.User.Definition, abs(ID), sqrt(abs(ID)), (delta(sqrtID)/delta(VG))^2, abs(IG)
TestParameter, Output.Graph.Enabled, true
TestParameter, Output.Graph.XAxis.Data, VG
TestParameter, Output.Graph.XAxis.Scale, Linear
TestParameter, Output.Graph.XAxis.Left, -5
TestParameter, Output.Graph.XAxis.Right, 7
TestParameter, Output.Graph.YAxis.Data, ID, absIG, gm2
TestParameter, Output.Graph.YAxis.Scale, Log, Log, Linear
TestParameter, Output.Graph.YAxis.Bottom, 1E-14, 1E-14, 0
TestParameter, Output.Graph.YAxis.Top, 0.01, 0.01, 1E-05
TestParameter, Output.Graph.YAxis.Group, , , 
TestParameter, Output.List.Data, VG, IG, VD, ID, VS, IS, sqrtID, gm2, absIG
TestParameter, AutoAnalysis.Interpolation, false
TestParameter, AutoAnalysis.Line1.Enabled, false
TestParameter, AutoAnalysis.Line1.Type, 1
TestParameter, AutoAnalysis.Line1.Fix, True
TestParameter, AutoAnalysis.Line1.YAxis, 0
TestParameter, AutoAnalysis.Line1.Point1.Type, 0
TestParameter, AutoAnalysis.Line1.Point1.XY.X, 
TestParameter, AutoAnalysis.Line1.Point1.XY.Y, 
TestParameter, AutoAnalysis.Line1.Point1.Data.Var, 
TestParameter, AutoAnalysis.Line1.Point1.Data.Condition, 
TestParameter, AutoAnalysis.Line1.Point1.Data.Start, false
TestParameter, AutoAnalysis.Line1.Point1.Data.StartVar, 
TestParameter, AutoAnalysis.Line1.Point1.Data.StartCondition, 
TestParameter, AutoAnalysis.Line1.Point2.Type, 0
TestParameter, AutoAnalysis.Line1.Point2.XY.X, 
TestParameter, AutoAnalysis.Line1.Point2.XY.Y, 
TestParameter, AutoAnalysis.Line1.Point2.Data.Var, 
TestParameter, AutoAnalysis.Line1.Point2.Data.Condition, 
TestParameter, AutoAnalysis.Line1.Point2.Data.Start, false
TestParameter, AutoAnalysis.Line1.Point2.Data.StartVar, 
TestParameter, AutoAnalysis.Line1.Point2.Data.StartCondition, 
TestParameter, AutoAnalysis.Line1.GradientExpr, 0
TestParameter, AutoAnalysis.Line2.Enabled, false
TestParameter, AutoAnalysis.Line2.Type, 1
TestParameter, AutoAnalysis.Line2.Fix, True
TestParameter, AutoAnalysis.Line2.YAxis, 0
TestParameter, AutoAnalysis.Line2.Point1.Type, 0
TestParameter, AutoAnalysis.Line2.Point1.XY.X, 
TestParameter, AutoAnalysis.Line2.Point1.XY.Y, 
TestParameter, AutoAnalysis.Line2.Point1.Data.Var, 
TestParameter, AutoAnalysis.Line2.Point1.Data.Condition, 
TestParameter, AutoAnalysis.Line2.Point1.Data.Start, false
TestParameter, AutoAnalysis.Line2.Point1.Data.StartVar, 
TestParameter, AutoAnalysis.Line2.Point1.Data.StartCondition, 
TestParameter, AutoAnalysis.Line2.Point2.Type, 0
TestParameter, AutoAnalysis.Line2.Point2.XY.X, 
TestParameter, AutoAnalysis.Line2.Point2.XY.Y, 
TestParameter, AutoAnalysis.Line2.Point2.Data.Var, 
TestParameter, AutoAnalysis.Line2.Point2.Data.Condition, 
TestParameter, AutoAnalysis.Line2.Point2.Data.Start, false
TestParameter, AutoAnalysis.Line2.Point2.Data.StartVar, 
TestParameter, AutoAnalysis.Line2.Point2.Data.StartCondition, 
TestParameter, AutoAnalysis.Line2.GradientExpr, 0
TestParameter, AutoAnalysis.Marker.Enabled, false
TestParameter, AutoAnalysis.Marker.Data.Var, 
TestParameter, AutoAnalysis.Marker.Data.Condition, 
TestParameter, AutoAnalysis.Marker.Data.Start, false
TestParameter, AutoAnalysis.Marker.Data.StartVar, 
TestParameter, AutoAnalysis.Marker.Data.StartCondition, 
MetaData, TestRecord.EntryPoint, true
MetaData, TestRecord.RecordTime, 05/02/2019 15:05:35
MetaData, TestRecord.TestTarget, 350-300-100-10
MetaData, TestRecord.IterationIndex, 1
MetaData, TestRecord.Preservation, true
MetaData, TestRecord.Flag, 
MetaData, TestRecord.Remarks, bad
MetaData, TestRecord.LinkKey, 1978f1a0-b144-472b-98c9-114678d43a16
Dimension1, 202, 202, 202, 202, 202, 202, 202, 202, 202, 202
Dimension2, 1, 1, 1, 1, 1, 1, 1, 1, 1, 1
DataName, VG, VD, VS, ID, IS, IG, absID, sqrtID, gm2, absIG
DataValue, -2, 0.1, 0, 1.235E-12, 2.762E-12, -4.5700000000000007E-13, 1.235E-12, 1.1113055385446435E-06, 8.03052106442348E-12, 4.5700000000000007E-13
DataValue, -1.9500000000000002, 0.1, 0, 1.5700000000000002E-12, 2.286E-12, -3.396E-12, 1.5700000000000002E-12, 1.2529964086141669E-06, 1.4542257060969307E-11, 3.396E-12
DataValue, -1.9000000000000001, 0.1, 0, 2.228E-12, -4.88E-13, -2.7800000000000003E-12, 2.228E-12, 1.4926486525636233E-06, 5.0817301216926353E-14, 2.7800000000000003E-12
DataValue, -1.85, 0.1, 0, 1.627E-12, 2.04E-12, -4.8730000000000007E-12, 1.627E-12, 1.2755391017134677E-06, 1.3966708246019261E-11, 4.8730000000000007E-12
DataValue, -1.8, 0.1, 0, 1.2520000000000001E-12, -3.8500000000000003E-13, -1.1710000000000002E-12, 1.2520000000000001E-12, 1.1189280584559493E-06, 2.2495107690642548E-11, 1.1710000000000002E-12
DataValue, -1.75, 0.1, 0, 6.4200000000000009E-13, 2.3160000000000002E-12, -1.4380000000000001E-12, 6.4200000000000009E-13, 8.0124902496040525E-07, 2.7680129053793883E-12, 1.4380000000000001E-12
DataValue, -1.7000000000000002, 0.1, 0, 1.652E-12, 6.79E-13, -3.736E-12, 1.652E-12, 1.2853015210447703E-06, 1.0320040026688939E-11, 3.736E-12
DataValue, -1.6500000000000001, 0.1, 0, -1.26E-12, 6.2400000000000007E-13, -3.3910000000000004E-12, 1.26E-12, 1.1224972160321825E-06, 9.3333686253774289E-12, 3.3910000000000004E-12
DataValue, -1.6, 0.1, 0, 9.6000000000000015E-13, 6.85E-13, -1.6430000000000002E-12, 9.6000000000000015E-13, 9.7979589711327135E-07, 1.9722235829441678E-12, 1.6430000000000002E-12
DataValue, -1.55, 0.1, 0, -1.5950000000000002E-12, 5.0700000000000006E-13, -4.017E-12, 1.5950000000000002E-12, 1.262933094031509E-06, 8.5599049023445278E-11, 4.017E-12
DataValue, -1.5, 0.1, 0, 3.6290000000000004E-12, 2.352E-12, -2.3290000000000003E-12, 3.6290000000000004E-12, 1.9049934383089094E-06, 2.3910358330677859E-11, 2.3290000000000003E-12
DataValue, -1.4500000000000002, 0.1, 0, 5.9900000000000007E-13, 5.5500000000000006E-13, -1.149E-12, 5.9900000000000007E-13, 7.73950902835574E-07, 3.5816794176420735E-11, 1.149E-12
DataValue, -1.4000000000000001, 0.1, 0, 1.707E-12, 2.163E-12, -5.8540000000000007E-12, 1.707E-12, 1.3065221008463653E-06, 3.2778599947126294E-11, 5.8540000000000007E-12
DataValue, -1.35, 0.1, 0, 1.813E-12, -6.400000000000001E-13, -1.843E-12, 1.813E-12, 1.3464768843169942E-06, 5.5479676686267027E-12, 1.843E-12
DataValue, -1.3, 0.1, 0, 1.147E-12, 4.0500000000000004E-13, -2.6300000000000003E-12, 1.147E-12, 1.0709808588392231E-06, 6.3016949201233E-12, 2.6300000000000003E-12
DataValue, -1.25, 0.1, 0, 1.2000000000000001E-12, -1.349E-12, -4.1E-13, 1.2000000000000001E-12, 1.0954451150103323E-06, 2.330603189041146E-11, 4.1E-13
DataValue, -1.2, 0.1, 0, 3.4600000000000004E-13, 1.3090000000000002E-12, -1.7910000000000001E-12, 3.4600000000000004E-13, 5.8821764679410979E-07, 2.7933543569224629E-13, 1.7910000000000001E-12
DataValue, -1.1500000000000001, 0.1, 0, 1.0870000000000001E-12, -1.295E-12, 6.9200000000000008E-13, 1.0870000000000001E-12, 1.0425929215182694E-06, 3.4909718197688995E-13, 6.9200000000000008E-13
DataValue, -1.1, 0.1, 0, -4.1900000000000003E-13, 1.63E-13, -9.82E-13, 4.1900000000000003E-13, 6.4730209330729032E-07, 3.2052327656859479E-11, 9.82E-13
DataValue, -1.05, 0.1, 0, 2.2700000000000002E-13, 6.08E-13, -3.2430000000000002E-12, 2.2700000000000002E-13, 4.7644516998286385E-07, 2.9953958133854142E-11, 3.2430000000000002E-12
DataValue, -1, 0.1, 0, -1.0000000000000002E-14, -5.8E-14, 7.55E-13, 1.0000000000000002E-14, 1.0000000000000001E-07, 4.3240386822828228E-11, 7.55E-13
DataValue, -0.95000000000000007, 0.1, 0, 1.2860000000000002E-12, 2.33E-13, -2.177E-12, 1.2860000000000002E-12, 1.134019400186787E-06, 6.7471760800336917E-11, 2.177E-12
DataValue, -0.9, 0.1, 0, 8.49E-13, -1.015E-12, -6.4500000000000008E-13, 8.49E-13, 9.2141195998315543E-07, 1.8105009412240865E-11, 6.4500000000000008E-13
DataValue, -0.85000000000000009, 0.1, 0, 5.0200000000000008E-13, 1.4900000000000002E-13, -9.97E-13, 5.0200000000000008E-13, 7.0851958335673414E-07, 1.1907969287723976E-11, 9.97E-13
DataValue, -0.8, 0.1, 0, 1.604E-12, -5.39E-13, -1.4780000000000002E-12, 1.604E-12, 1.2664912159190052E-06, 2.4442497965035233E-11, 1.4780000000000002E-12
DataValue, -0.75, 0.1, 0, -1.4470000000000002E-12, -8.6100000000000007E-13, -1.214E-12, 1.4470000000000002E-12, 1.2029131306956459E-06, 1.1803766653391649E-12, 1.214E-12
DataValue, -0.70000000000000007, 0.1, 0, 1.8910000000000003E-12, 4.94E-13, -1.2700000000000001E-13, 1.8910000000000003E-12, 1.375136356875201E-06, 2.1708032458929533E-11, 1.2700000000000001E-13
DataValue, -0.65, 0.1, 0, 2.7850000000000004E-12, -3.3770000000000003E-12, -9.0000000000000011E-15, 2.7850000000000004E-12, 1.6688319268278637E-06, 4.6850637744202168E-11, 9.0000000000000011E-15
DataValue, -0.6, 0.1, 0, 4.2420000000000007E-12, -2.853E-12, -7.02E-13, 4.2420000000000007E-12, 2.0596116138728681E-06, 6.8188325808483534E-11, 7.02E-13
DataValue, -0.55, 0.1, 0, 6.2230000000000004E-12, -5.143E-12, -1.5030000000000002E-12, 6.2230000000000004E-12, 2.4945941553687646E-06, 8.6808196748574428E-11, 1.5030000000000002E-12
DataValue, -0.5, 0.1, 0, 8.948000000000001E-12, -8.6740000000000012E-12, -5.22E-13, 8.948000000000001E-12, 2.9913207785190811E-06, 1.2465719411421613E-10, 5.22E-13
DataValue, -0.45, 0.1, 0, 1.3040000000000001E-11, -1.1254E-11, -1.8500000000000002E-13, 1.3040000000000001E-11, 3.6110940170535577E-06, 1.2248458421455456E-10, 1.8500000000000002E-13
DataValue, -0.4, 0.1, 0, 1.6794E-11, -1.6354000000000002E-11, -4.1400000000000005E-13, 1.6794E-11, 4.0980483159670046E-06, 1.8897609428064378E-10, 4.1400000000000005E-13
DataValue, -0.35000000000000003, 0.1, 0, 2.4858E-11, -2.3761000000000003E-11, -7.06E-13, 2.4858E-11, 4.9857797785301349E-06, 3.6944091055020791E-10, 7.06E-13
DataValue, -0.3, 0.1, 0, 3.6242E-11, -3.5307000000000005E-11, -3.8200000000000004E-13, 3.6242E-11, 6.0201328888987164E-06, 5.3359725360876542E-10, 3.8200000000000004E-13
DataValue, -0.25, 0.1, 0, 5.3228E-11, -4.9731E-11, 8E-15, 5.3228E-11, 7.295752188773958E-06, 8.3759615578192413E-10, 8E-15
DataValue, -0.2, 0.1, 0, 7.9464000000000011E-11, -7.6444E-11, 3.0000000000000005E-14, 7.9464000000000011E-11, 8.9142582417159088E-06, 1.6447106597793188E-09, 3.0000000000000005E-14
DataValue, -0.15, 0.1, 0, 1.28851E-10, -1.22674E-10, -5.1E-13, 1.28851E-10, 1.135125543717522E-05, 3.2018124159992712E-09, 5.1E-13
DataValue, -0.1, 0.1, 0, 2.12364E-10, -2.02826E-10, 1.4300000000000002E-13, 2.12364E-10, 1.4572714228996601E-05, 5.7949746685509051E-09, 1.4300000000000002E-13
DataValue, -0.05, 0.1, 0, 3.59623E-10, -3.42327E-10, 9.4E-13, 3.59623E-10, 1.8963728536340106E-05, 1.0706366542758631E-08, 9.4E-13
DataValue, 0, 0.1, 0, 6.21E-10, -5.87889E-10, 4.86E-13, 6.21E-10, 2.4919871588754223E-05, 1.593355653950672E-08, 4.86E-13
DataValue, 0.05, 0.1, 0, 9.9771E-10, -9.32576E-10, 4.4900000000000006E-13, 9.9771E-10, 3.1586547769580643E-05, 2.8866523368251266E-08, 4.4900000000000006E-13
DataValue, 0.1, 0.1, 0, 1.75645E-09, -1.63447E-09, -1.8600000000000002E-13, 1.75645E-09, 4.1910022667614961E-05, 5.3046216114964175E-08, 1.8600000000000002E-13
DataValue, 0.15, 0.1, 0, 2.98316E-09, -2.92662E-09, 1.3480000000000001E-12, 2.98316E-09, 5.4618311947551067E-05, 8.1307533645902171E-08, 1.3480000000000001E-12
DataValue, 0.2, 0.1, 0, 4.95961E-09, -4.85785E-09, 2.381E-12, 4.95961E-09, 7.0424498578264654E-05, 1.1243959763395754E-07, 2.381E-12
DataValue, 0.25, 0.1, 0, 7.77048E-09, -7.62116E-09, 2.5090000000000003E-12, 7.77048E-09, 8.8150326148006959E-05, 1.1654630820432822E-07, 2.5090000000000003E-12
DataValue, 0.3, 0.1, 0, 1.0933499999999998E-08, -1.0613399999999999E-08, 1.143E-12, 1.0933499999999998E-08, 0.00010456337791024159, 1.4684092512121817E-07, 1.143E-12
DataValue, 0.35000000000000003, 0.1, 0, 1.59947E-08, -1.5787599999999997E-08, 2.027E-12, 1.59947E-08, 0.00012647015458201985, 2.0306881340923509E-07, 2.027E-12
DataValue, 0.4, 0.1, 0, 2.2388099999999997E-08, -2.2088999999999997E-08, 1.0180000000000001E-12, 2.2388099999999997E-08, 0.0001496265350798447, 2.1769533575640605E-07, 1.0180000000000001E-12
DataValue, 0.45, 0.1, 0, 2.9973299999999996E-08, -2.9618699999999996E-08, 3.15E-13, 2.9973299999999996E-08, 0.00017312798733884707, 2.2433795339653286E-07, 3.15E-13
DataValue, 0.5, 0.1, 0, 3.88054E-08, -3.83596E-08, 8.070000000000001E-13, 3.88054E-08, 0.00019699086273225973, 2.2762837107983434E-07, 8.070000000000001E-13
DataValue, 0.55, 0.1, 0, 4.87696E-08, -4.82932E-08, 3.079E-12, 4.87696E-08, 0.00022083840245754359, 2.3209484769987306E-07, 3.079E-12
DataValue, 0.6, 0.1, 0, 6.0106899999999991E-08, -5.9524999999999992E-08, 2.0040000000000003E-12, 6.0106899999999991E-08, 0.00024516708588226112, 2.3289827284763731E-07, 2.0040000000000003E-12
DataValue, 0.65, 0.1, 0, 7.24137E-08, -7.183319999999999E-08, 6.1900000000000009E-13, 7.24137E-08, 0.00026909793756177321, 2.284315730729415E-07, 6.1900000000000009E-13
DataValue, 0.70000000000000007, 0.1, 0, 8.5826499999999991E-08, -8.5195699999999988E-08, 1.8620000000000003E-12, 8.5826499999999991E-08, 0.00029296160157945612, 2.292356506687439E-07, 1.8620000000000003E-12
DataValue, 0.75, 0.1, 0, 1.004741E-07, -9.9819699999999987E-08, 2.4120000000000002E-12, 1.004741E-07, 0.00031697649755147464, 2.0311230848940595E-07, 2.4120000000000002E-12
DataValue, 0.8, 0.1, 0, 1.14264E-07, -1.12737E-07, 5.5100000000000008E-13, 1.14264E-07, 0.00033802958450407855, 2.0606932174970856E-07, 5.5100000000000008E-13
DataValue, 0.85000000000000009, 0.1, 0, 1.31313E-07, -1.3045E-07, 1.391E-12, 1.31313E-07, 0.00036237135648392523, 2.3751199039574944E-07, 1.391E-12
DataValue, 0.9, 0.1, 0, 1.49587E-07, -1.48599E-07, 1.6000000000000003E-13, 1.49587E-07, 0.00038676478640124414, 2.351273697186258E-07, 1.6000000000000003E-13
DataValue, 0.95000000000000007, 0.1, 0, 1.6880699999999998E-07, -1.67918E-07, 1.508E-12, 1.6880699999999998E-07, 0.00041086129046187839, 2.3007529730862071E-07, 1.508E-12
DataValue, 1, 0.1, 0, 1.88991E-07, -1.88059E-07, 2.4870000000000002E-12, 1.88991E-07, 0.00043473095127906407, 2.3329856561290154E-07, 2.4870000000000002E-12
DataValue, 1.05, 0.1, 0, 2.1083E-07, -2.09754E-07, 2.9860000000000004E-12, 2.1083E-07, 0.00045916228068080677, 2.3155302989621923E-07, 2.9860000000000004E-12
DataValue, 1.1, 0.1, 0, 2.33145E-07, -2.32337E-07, 4.0820000000000006E-12, 2.33145E-07, 0.00048285090866643295, 2.2612525536381589E-07, 4.0820000000000006E-12
DataValue, 1.1500000000000001, 0.1, 0, 2.5676E-07, -2.5582199999999997E-07, 3.9560000000000005E-12, 2.5676E-07, 0.000506714909983908, 2.31779096774429E-07, 3.9560000000000005E-12
DataValue, 1.2, 0.1, 0, 2.81955E-07, -2.80778E-07, 2.8980000000000004E-12, 2.81955E-07, 0.00053099435025242973, 2.3204128514971909E-07, 2.8980000000000004E-12
DataValue, 1.25, 0.1, 0, 3.07898E-07, -3.07117E-07, 5.064E-12, 3.07898E-07, 0.000554885573789768, 2.3197380747770448E-07, 5.064E-12
DataValue, 1.3, 0.1, 0, 3.3542399999999997E-07, -3.34212E-07, 6.1150000000000005E-12, 3.3542399999999997E-07, 0.00057915800952762443, 2.3493450433767702E-07, 6.1150000000000005E-12
DataValue, 1.35, 0.1, 0, 3.6403799999999997E-07, -3.63224E-07, 6.2490000000000005E-12, 3.6403799999999997E-07, 0.00060335561653141172, 2.3670629762280792E-07, 6.2490000000000005E-12
DataValue, 1.4000000000000001, 0.1, 0, 3.94146E-07, -3.93093E-07, 6.831E-12, 3.94146E-07, 0.00062781048095743037, 2.3905061266359024E-07, 6.831E-12
DataValue, 1.4500000000000002, 0.1, 0, 4.25428E-07, -4.24345E-07, 1.1699E-11, 4.25428E-07, 0.00065224841893254135, 2.3772770252348984E-07, 1.1699E-11
DataValue, 1.5, 0.1, 0, 4.5774399999999997E-07, -4.56492E-07, 1.2937000000000001E-11, 4.5774399999999997E-07, 0.00067656780887062607, 2.3761603207550535E-07, 1.2937000000000001E-11
DataValue, 1.55, 0.1, 0, 4.91393E-07, -4.90243E-07, 1.5451E-11, 4.91393E-07, 0.00070099429384268166, 2.3765676171894807E-07, 1.5451E-11
DataValue, 1.6, 0.1, 0, 5.26086E-07, -5.2468499999999994E-07, 1.2831000000000001E-11, 5.26086E-07, 0.00072531786135459253, 2.3548587274794728E-07, 1.2831000000000001E-11
DataValue, 1.6500000000000001, 0.1, 0, 5.61782E-07, -5.6063E-07, 2.3081E-11, 5.61782E-07, 0.00074952118048791656, 2.349738404826961E-07, 2.3081E-11
DataValue, 1.7000000000000002, 0.1, 0, 5.98754E-07, -5.97666E-07, 3.6926E-11, 5.98754E-07, 0.00077379196170547027, 2.3799910256999863E-07, 3.6926E-11
DataValue, 1.75, 0.1, 0, 6.3729299999999993E-07, -6.35927E-07, 3.3578000000000004E-11, 6.3729299999999993E-07, 0.0007983063321808239, 2.3482956602410511E-07, 3.3578000000000004E-11
DataValue, 1.8, 0.1, 0, 6.76097E-07, -6.75075E-07, 4.3919000000000006E-11, 6.76097E-07, 0.00082225117816881236, 2.3115828261885098E-07, 4.3919000000000006E-11
DataValue, 1.85, 0.1, 0, 7.16368E-07, -7.15473E-07, 5.5620000000000004E-11, 7.16368E-07, 0.00084638525507005379, 2.3433119725078148E-07, 5.5620000000000004E-11
DataValue, 1.9000000000000001, 0.1, 0, 7.58047E-07, -7.57332E-07, 6.7478E-11, 7.58047E-07, 0.00087065894585652772, 2.3275102820254513E-07, 6.7478E-11
DataValue, 1.9500000000000002, 0.1, 0, 8.00362E-07, -7.9969E-07, 8.4537000000000013E-11, 8.00362E-07, 0.00089462953226461289, 2.2438061977700021E-07, 8.4537000000000013E-11
DataValue, 2, 0.1, 0, 8.42775E-07, -8.42173E-07, 9.641800000000001E-11, 8.42775E-07, 0.0009180277773575263, 2.2301524930627226E-07, 9.641800000000001E-11
DataValue, 2.05, 0.1, 0, 8.87089E-07, -8.8655099999999993E-07, 1.1206100000000001E-10, 8.87089E-07, 0.0009418540226595627, 2.2644290211419614E-07, 1.1206100000000001E-10
DataValue, 2.1, 0.1, 0, 9.3241E-07, -9.31858E-07, 1.35308E-10, 9.3241E-07, 0.00096561379443336451, 2.2372096393781473E-07, 1.35308E-10
DataValue, 2.15, 0.1, 0, 9.78424E-07, -9.78334E-07, 1.63597E-10, 9.78424E-07, 0.0009891531731739023, 2.2314399544882305E-07, 1.63597E-10
DataValue, 2.2, 0.1, 0, 1.025869E-06, -1.0251439999999999E-06, 1.9012100000000002E-10, 1.025869E-06, 0.0010128519141513236, 2.2111597220183986E-07, 1.9012100000000002E-10
DataValue, 2.25, 0.1, 0, 1.073661E-06, -1.073456E-06, 2.2323900000000001E-10, 1.073661E-06, 0.0010361761433269924, 2.1500865697786048E-07, 2.2323900000000001E-10
