
SetupTitle, Transfer sat
PrimitiveTest, I/V Sweep
TestParameter, Context.MainFrame, 4155C
TestParameter, Channel.UnitType, SMU, SMU, SMU
TestParameter, Channel.Unit, SMU3:MP, SMU1:MP, SMU4:MP
TestParameter, Channel.IName, ID, IS, IG
TestParameter, Channel.VName, VD, VS, VG
TestParameter, Channel.Mode, V, COMMON, V
TestParameter, Channel.Func, CONST, CONST, VAR1
TestParameter, Channel.Index, 
TestParameter, Channel.Time, 
TestParameter, Measurement.Port.Unit, SMU3:MP, SMU1:MP, SMU4:MP
TestParameter, Measurement.Port.SeriesResistor, NONE, NONE, NONE
TestParameter, Measurement.Port.Filter, ON, ON, ON
TestParameter, Measurement.Primary.Locus, Double
TestParameter, Measurement.Primary.Scale, LINEAR
TestParameter, Measurement.Primary.Start, -2
TestParameter, Measurement.Primary.Stop, 3
TestParameter, Measurement.Primary.Step, 0.05
TestParameter, Measurement.Primary.Compliance, 0.001
TestParameter, Measurement.Primary.PowerCompliance, 0
TestParameter, Measurement.Aborting.Condition, CONTINUE AT ANY
TestParameter, Measurement.PostOutput.Value, START
TestParameter, Measurement.PostOutput.Retention, OFF
TestParameter, Measurement.Bias.Source, 5, 0, -2
TestParameter, Measurement.Bias.Compliance, 0.001, 0.1, 0.001
TestParameter, Measurement.Monitor.Unit, SMU3:MP, SMU1:MP, SMU4:MP
TestParameter, Measurement.Monitor.Adc, HR ADC, HR ADC, HR ADC
TestParameter, Measurement.Monitor.RangingMode, AUTO, AUTO, AUTO
TestParameter, Measurement.Monitor.RangeBoundary, , , 
TestParameter, Measurement.Monitor.RangeRating, BY FULL RANGE, BY FULL RANGE, BY FULL RANGE
TestParameter, Measurement.Monitor.RangeRatingCoeff, 50, 50, 50
TestParameter, Measurement.Timing.Hold, 0.5
TestParameter, Measurement.Timing.Delay, 0.05
TestParameter, Measurement.Adc.HighResolution.AutoZero, OFF
TestParameter, Measurement.Adc.HighResolution.Mode, AUTO
TestParameter, Measurement.Adc.HighResolution.Coeff, 1
TestParameter, Measurement.Ag16440ASelector.SemiconductorRelay.Channel1, DEFAULT
TestParameter, Measurement.Ag16440ASelector.SemiconductorRelay.Channel3, DEFAULT
TestParameter, Function.User.Name, absID, sqrtID, gm2, absIG
TestParameter, Function.User.Unit, A, A, A/V, A
TestParameter, Function.User.Definition, abs(ID), sqrt(abs(ID)), (delta(sqrtID)/delta(VG))^2, abs(IG)
TestParameter, Output.Graph.Enabled, true
TestParameter, Output.Graph.XAxis.Data, VG
TestParameter, Output.Graph.XAxis.Scale, Linear
TestParameter, Output.Graph.XAxis.Left, -5
TestParameter, Output.Graph.XAxis.Right, 7
TestParameter, Output.Graph.YAxis.Data, ID, absIG, gm2
TestParameter, Output.Graph.YAxis.Scale, Log, Log, Linear
TestParameter, Output.Graph.YAxis.Bottom, 1E-14, 1E-14, 0
TestParameter, Output.Graph.YAxis.Top, 0.01, 0.01, 1E-05
TestParameter, Output.Graph.YAxis.Group, , , 
TestParameter, Output.List.Data, VG, IG, VD, ID, VS, IS, sqrtID, gm2, absIG
TestParameter, AutoAnalysis.Interpolation, false
TestParameter, AutoAnalysis.Line1.Enabled, false
TestParameter, AutoAnalysis.Line1.Type, 1
TestParameter, AutoAnalysis.Line1.Fix, True
TestParameter, AutoAnalysis.Line1.YAxis, 0
TestParameter, AutoAnalysis.Line1.Point1.Type, 0
TestParameter, AutoAnalysis.Line1.Point1.XY.X, 
TestParameter, AutoAnalysis.Line1.Point1.XY.Y, 
TestParameter, AutoAnalysis.Line1.Point1.Data.Var, 
TestParameter, AutoAnalysis.Line1.Point1.Data.Condition, 
TestParameter, AutoAnalysis.Line1.Point1.Data.Start, false
TestParameter, AutoAnalysis.Line1.Point1.Data.StartVar, 
TestParameter, AutoAnalysis.Line1.Point1.Data.StartCondition, 
TestParameter, AutoAnalysis.Line1.Point2.Type, 0
TestParameter, AutoAnalysis.Line1.Point2.XY.X, 
TestParameter, AutoAnalysis.Line1.Point2.XY.Y, 
TestParameter, AutoAnalysis.Line1.Point2.Data.Var, 
TestParameter, AutoAnalysis.Line1.Point2.Data.Condition, 
TestParameter, AutoAnalysis.Line1.Point2.Data.Start, false
TestParameter, AutoAnalysis.Line1.Point2.Data.StartVar, 
TestParameter, AutoAnalysis.Line1.Point2.Data.StartCondition, 
TestParameter, AutoAnalysis.Line1.GradientExpr, 0
TestParameter, AutoAnalysis.Line2.Enabled, false
TestParameter, AutoAnalysis.Line2.Type, 1
TestParameter, AutoAnalysis.Line2.Fix, True
TestParameter, AutoAnalysis.Line2.YAxis, 0
TestParameter, AutoAnalysis.Line2.Point1.Type, 0
TestParameter, AutoAnalysis.Line2.Point1.XY.X, 
TestParameter, AutoAnalysis.Line2.Point1.XY.Y, 
TestParameter, AutoAnalysis.Line2.Point1.Data.Var, 
TestParameter, AutoAnalysis.Line2.Point1.Data.Condition, 
TestParameter, AutoAnalysis.Line2.Point1.Data.Start, false
TestParameter, AutoAnalysis.Line2.Point1.Data.StartVar, 
TestParameter, AutoAnalysis.Line2.Point1.Data.StartCondition, 
TestParameter, AutoAnalysis.Line2.Point2.Type, 0
TestParameter, AutoAnalysis.Line2.Point2.XY.X, 
TestParameter, AutoAnalysis.Line2.Point2.XY.Y, 
TestParameter, AutoAnalysis.Line2.Point2.Data.Var, 
TestParameter, AutoAnalysis.Line2.Point2.Data.Condition, 
TestParameter, AutoAnalysis.Line2.Point2.Data.Start, false
TestParameter, AutoAnalysis.Line2.Point2.Data.StartVar, 
TestParameter, AutoAnalysis.Line2.Point2.Data.StartCondition, 
TestParameter, AutoAnalysis.Line2.GradientExpr, 0
TestParameter, AutoAnalysis.Marker.Enabled, false
TestParameter, AutoAnalysis.Marker.Data.Var, 
TestParameter, AutoAnalysis.Marker.Data.Condition, 
TestParameter, AutoAnalysis.Marker.Data.Start, false
TestParameter, AutoAnalysis.Marker.Data.StartVar, 
TestParameter, AutoAnalysis.Marker.Data.StartCondition, 
MetaData, TestRecord.EntryPoint, true
MetaData, TestRecord.RecordTime, 05/02/2019 14:02:07
MetaData, TestRecord.TestTarget, 150-300-1-2
MetaData, TestRecord.IterationIndex, 1
MetaData, TestRecord.Preservation, true
MetaData, TestRecord.Flag, 
MetaData, TestRecord.Remarks, good
MetaData, TestRecord.LinkKey, c335cdcf-1a07-4374-bacc-07377d866820
Dimension1, 202, 202, 202, 202, 202, 202, 202, 202, 202, 202
Dimension2, 1, 1, 1, 1, 1, 1, 1, 1, 1, 1
DataName, VG, VD, VS, ID, IS, IG, absID, sqrtID, gm2, absIG
DataValue, -2, 5, 0, 2.228E-12, -4.3800000000000005E-13, -8.66E-13, 2.228E-12, 1.4926486525636233E-06, 3.1742245418777782E-12, 8.66E-13
DataValue, -1.9500000000000002, 5, 0, -1.9700000000000003E-12, 4.45E-13, -6.0400000000000005E-13, 1.9700000000000003E-12, 1.40356688476182E-06, 2.4528760448688687E-14, 6.0400000000000005E-13
DataValue, -1.9000000000000001, 5, 0, 2.2750000000000003E-12, -2.8900000000000003E-13, -2.277E-12, 2.2750000000000003E-12, 1.5083103128998357E-06, 4.9904642992441179E-12, 2.277E-12
DataValue, -1.85, 5, 0, 2.6470000000000003E-12, -9.4300000000000012E-13, -5.7700000000000007E-13, 2.6470000000000003E-12, 1.6269603560013379E-06, 1.8598988188920805E-12, 5.7700000000000007E-13
DataValue, -1.8, 5, 0, 2.7050000000000003E-12, 7.76E-13, -3.8220000000000005E-12, 2.7050000000000003E-12, 1.6446884203398527E-06, 2.4602518823352909E-11, 3.8220000000000005E-12
DataValue, -1.75, 5, 0, 4.507E-12, -8.5E-14, -4.6000000000000006E-12, 4.507E-12, 2.1229696182470439E-06, 6.4737663782152676E-11, 4.6000000000000006E-12
DataValue, -1.7000000000000002, 5, 0, 5.9990000000000006E-12, -7.52E-13, -2.6930000000000003E-12, 5.9990000000000006E-12, 2.4492856101320648E-06, 2.2585677676621642E-11, 2.6930000000000003E-12
DataValue, -1.6500000000000001, 5, 0, 2.715E-12, -1.7400000000000002E-13, -1.483E-12, 2.715E-12, 1.6477257053284081E-06, 1.0662613882077646E-10, 1.483E-12
DataValue, -1.6, 5, 0, 2.0070000000000002E-12, 4.35E-13, -3.2860000000000003E-12, 2.0070000000000002E-12, 1.4166862743741115E-06, 3.126850757494744E-12, 3.2860000000000003E-12
DataValue, -1.55, 5, 0, 3.3290000000000005E-12, -1.46E-13, -1.0238E-11, 3.3290000000000005E-12, 1.8245547402037574E-06, 6.3398277514327608E-11, 1.0238E-11
DataValue, -1.5, 5, 0, 4.8970000000000006E-12, -6.1E-14, -9.916000000000001E-12, 4.8970000000000006E-12, 2.2129166274399043E-06, 1.815360653566786E-10, 9.916000000000001E-12
DataValue, -1.4500000000000002, 5, 0, 1.0061000000000001E-11, -5.7100000000000009E-13, -1.0169E-11, 1.0061000000000001E-11, 3.1719079431786793E-06, 1.7198415189484679E-10, 1.0169E-11
DataValue, -1.4000000000000001, 5, 0, 1.2421000000000001E-11, 2.2900000000000003E-13, -2.1260000000000003E-11, 1.2421000000000001E-11, 3.5243439105739954E-06, 8.98556403228966E-11, 2.1260000000000003E-11
DataValue, -1.35, 5, 0, 1.6973E-11, -2.24E-13, -2.2007E-11, 1.6973E-11, 4.1198300935839578E-06, 1.0950291173726235E-11, 2.2007E-11
DataValue, -1.3, 5, 0, 1.4863E-11, -1.308E-12, -9.414E-12, 1.4863E-11, 3.8552561523198434E-06, 6.6749938378905708E-10, 9.414E-12
DataValue, -1.25, 5, 0, 2.36E-12, -2.43E-13, -1.091E-12, 2.36E-12, 1.5362291495737216E-06, 6.0160236730423636E-10, 1.091E-12
DataValue, -1.2, 5, 0, 1.967E-12, 5.7500000000000007E-13, -1.847E-12, 1.967E-12, 1.4024977718342372E-06, 3.3927299625101744E-12, 1.847E-12
DataValue, -1.1500000000000001, 5, 0, 1.8280000000000003E-12, -7.5000000000000009E-14, -6.4600000000000007E-13, 1.8280000000000003E-12, 1.3520355024924457E-06, 2.9028912166556779E-11, 6.4600000000000007E-13
DataValue, -1.1, 5, 0, 7.4600000000000005E-13, 2.403E-12, -1.8000000000000002E-12, 7.4600000000000005E-13, 8.6371291526756737E-07, 3.9341044280641134E-12, 1.8000000000000002E-12
DataValue, -1.05, 5, 0, 1.331E-12, -1.245E-12, -2.2960000000000003E-12, 1.331E-12, 1.1536897329871668E-06, 4.85150200869433E-12, 2.2960000000000003E-12
DataValue, -1, 5, 0, 1.1750000000000001E-12, 6.11E-13, -1.414E-12, 1.1750000000000001E-12, 1.08397416943394E-06, 2.2224917904360941E-13, 1.414E-12
DataValue, -0.95000000000000007, 5, 0, 1.4420000000000001E-12, -7.4200000000000007E-13, -5.19E-13, 1.4420000000000001E-12, 1.2008330441822461E-06, 6.3256250876596054E-12, 5.19E-13
DataValue, -0.9, 5, 0, 6.9300000000000008E-13, 8.2E-14, -1.581E-12, 6.9300000000000008E-13, 8.3246621553069655E-07, 2.8506421954893051E-12, 1.581E-12
DataValue, -0.85000000000000009, 5, 0, 1.876E-12, 3.8E-14, -8.290000000000001E-13, 1.876E-12, 1.3696714934611146E-06, 2.0277210022087497E-13, 8.290000000000001E-13
DataValue, -0.8, 5, 0, -7.7000000000000005E-13, -3.18E-13, -1.529E-12, 7.7000000000000005E-13, 8.7749643873921228E-07, 4.6471704179695219E-12, 1.529E-12
DataValue, -0.75, 5, 0, 2.5130000000000003E-12, -4.8000000000000004E-14, 9.5000000000000012E-14, 2.5130000000000003E-12, 1.5852444606432159E-06, 1.4865765770466244E-11, 9.5000000000000012E-14
DataValue, -0.70000000000000007, 5, 0, 2.4200000000000003E-13, 3.07E-13, -1.047E-12, 2.4200000000000003E-13, 4.9193495504995373E-07, 7.8492354664977842E-11, 1.047E-12
DataValue, -0.65, 5, 0, 4.89E-13, 1.2000000000000002E-13, -9.8700000000000014E-13, 4.89E-13, 6.9928534948188353E-07, 2.0286246974895867E-11, 9.8700000000000014E-13
DataValue, -0.6, 5, 0, 8.8800000000000005E-13, -1.7300000000000002E-13, 1.4860000000000001E-12, 8.8800000000000005E-13, 9.4233751915117972E-07, 3.8737058714333528E-12, 1.4860000000000001E-12
DataValue, -0.55, 5, 0, 8.0300000000000011E-13, -6.9500000000000007E-13, -1.669E-12, 8.0300000000000011E-13, 8.9610267268879411E-07, 1.5357241216555263E-11, 1.669E-12
DataValue, -0.5, 5, 0, 3.03E-13, -1.09E-13, -1.1580000000000001E-12, 3.03E-13, 5.5045435778091545E-07, 6.5834304769181878E-13, 1.1580000000000001E-12
DataValue, -0.45, 5, 0, 9.55E-13, -4.96E-13, 3.0000000000000005E-14, 9.55E-13, 9.7724101428460313E-07, 5.7569226048008762E-11, 3.0000000000000005E-14
DataValue, -0.4, 5, 0, 1.7140000000000002E-12, -1.153E-12, -4.47E-13, 1.7140000000000002E-12, 1.3091982279242514E-06, 8.82711169704077E-11, 4.47E-13
DataValue, -0.35000000000000003, 5, 0, 3.674E-12, -3.3830000000000004E-12, -7.4000000000000008E-13, 3.674E-12, 1.9167681132573132E-06, 3.983209616589965E-10, 7.4000000000000008E-13
DataValue, -0.3, 5, 0, 1.0923000000000001E-11, -8.757E-12, -1.3300000000000001E-13, 1.0923000000000001E-11, 3.304996217849576E-06, 9.7337601009309961E-10, 1.3300000000000001E-13
DataValue, -0.25, 5, 0, 2.5368E-11, -2.15E-11, -1.4E-13, 2.5368E-11, 5.0366655636442652E-06, 2.2060081259988315E-09, 1.4E-13
DataValue, -0.2, 5, 0, 6.4029E-11, -6.0592E-11, -4.6000000000000006E-13, 6.4029E-11, 8.00181229472424E-06, 5.2251043516450255E-09, 4.6000000000000006E-13
DataValue, -0.15, 5, 0, 1.50434E-10, -1.50562E-10, -8.9800000000000011E-13, 1.50434E-10, 1.2265153892226547E-05, 1.3680484214670777E-08, 8.9800000000000011E-13
DataValue, -0.1, 5, 0, 3.8801800000000006E-10, -3.60085E-10, -3.86E-13, 3.8801800000000006E-10, 1.9698172504067478E-05, 3.2384148488644521E-08, 3.86E-13
DataValue, -0.05, 5, 0, 9.1571300000000006E-10, -8.6692500000000008E-10, -5.87E-13, 9.1571300000000006E-10, 3.0260750155936319E-05, 4.9537060086841273E-08, 5.87E-13
DataValue, 0, 5, 0, 1.76023E-09, -1.70912E-09, 6.7100000000000007E-13, 1.76023E-09, 4.1955095042199582E-05, 8.70710464371908E-08, 6.7100000000000007E-13
DataValue, 0.05, 5, 0, 3.57228E-09, -3.45541E-09, -5.23E-13, 3.57228E-09, 5.9768553604717591E-05, 1.6298735812958212E-07, 5.23E-13
DataValue, 0.1, 5, 0, 6.7777E-09, -6.6262E-09, -6.9700000000000006E-13, 6.7777E-09, 8.2326787863975351E-05, 1.9681693015623151E-07, 6.9700000000000006E-13
DataValue, 0.15, 5, 0, 1.08436E-08, -1.0676699999999999E-08, 5.3000000000000006E-13, 1.08436E-08, 0.00010413260776529127, 2.6667280503573918E-07, 5.3000000000000006E-13
DataValue, 0.2, 5, 0, 1.79472E-08, -1.77558E-08, -1.9790000000000004E-12, 1.79472E-08, 0.0001339671601550171, 3.6306703080493949E-07, 1.9790000000000004E-12
DataValue, 0.25, 5, 0, 2.7023299999999996E-08, -2.6805899999999997E-08, 6.54E-13, 2.7023299999999996E-08, 0.0001643876516043708, 3.7839143027360317E-07, 6.54E-13
DataValue, 0.3, 5, 0, 3.8212699999999996E-08, -3.8338199999999993E-08, 5.2600000000000008E-13, 3.8212699999999996E-08, 0.00019548068958339594, 4.5309842032354079E-07, 5.2600000000000008E-13
DataValue, 0.35000000000000003, 5, 0, 5.3684999999999994E-08, -5.3392799999999996E-08, 2.12E-13, 5.3684999999999994E-08, 0.00023170023737579553, 5.1389523530534091E-07, 2.12E-13
DataValue, 0.4, 5, 0, 7.13783E-08, -7.1747099999999993E-08, -4.72E-13, 7.13783E-08, 0.00026716717612760741, 5.5716069107290578E-07, 4.72E-13
DataValue, 0.45, 5, 0, 9.38463E-08, -9.3265E-08, 3.3610000000000003E-12, 9.38463E-08, 0.00030634343472645204, 6.1185266055045191E-07, 3.3610000000000003E-12
DataValue, 0.5, 5, 0, 1.19293E-07, -1.16356E-07, -2.214E-12, 1.19293E-07, 0.0003453881874065759, 6.5280057372343229E-07, 2.214E-12
DataValue, 0.55, 5, 0, 1.4987699999999999E-07, -1.4949E-07, -7.1800000000000007E-13, 1.4987699999999999E-07, 0.00038713950973776881, 6.5714731964803234E-07, 7.1800000000000007E-13
DataValue, 0.6, 5, 0, 1.81862E-07, -1.80494E-07, 2.4120000000000002E-12, 1.81862E-07, 0.00042645281098850786, 8.1356606475724075E-07, 2.4120000000000002E-12
DataValue, 0.65, 5, 0, 2.27851E-07, -2.25197E-07, -4.12E-13, 2.27851E-07, 0.00047733740687274864, 8.3962693069253556E-07, 4.12E-13
DataValue, 0.70000000000000007, 5, 0, 2.68411E-07, -2.70138E-07, 5.1000000000000004E-14, 2.68411E-07, 0.00051808397002802548, 7.3717385018184031E-07, 5.1000000000000004E-14
DataValue, 0.75, 5, 0, 3.1719E-07, -3.1380599999999997E-07, 6.2E-14, 3.1719E-07, 0.00056319623578287529, 8.0650857756188292E-07, 6.2E-14
DataValue, 0.8, 5, 0, 3.6953E-07, -3.67678E-07, -6.81E-13, 3.6953E-07, 0.00060788979264337056, 7.344975390435667E-07, 6.81E-13
DataValue, 0.85000000000000009, 5, 0, 4.2107E-07, -4.19221E-07, -2.2800000000000004E-13, 4.2107E-07, 0.00064889906765228133, 9.73315195780181E-07, 2.2800000000000004E-13
DataValue, 0.9, 5, 0, 4.99208E-07, -4.941E-07, -3.3700000000000003E-13, 4.99208E-07, 0.00070654653066871682, 1.0239468792005774E-06, 3.3700000000000003E-13
DataValue, 0.95000000000000007, 5, 0, 5.62634E-07, -5.62121E-07, 4.7100000000000007E-12, 5.62634E-07, 0.0007500893280136707, 8.6434577834723435E-07, 4.7100000000000007E-12
DataValue, 1, 5, 0, 6.39227E-07, -6.4077E-07, -2.148E-12, 6.39227E-07, 0.00079951672903073141, 1.1088840627109049E-06, 2.148E-12
DataValue, 1.05, 5, 0, 7.3169699999999994E-07, -7.29444E-07, -3.768E-12, 7.3169699999999994E-07, 0.00085539289218463808, 1.2583131112107798E-06, 3.768E-12
DataValue, 1.1, 5, 0, 8.31181E-07, -8.2425E-07, 5.37E-13, 8.31181E-07, 0.00091169128546893545, 1.1521025832365626E-06, 5.37E-13
DataValue, 1.1500000000000001, 5, 0, 9.26847E-07, -9.18573E-07, 1.3670000000000001E-12, 9.26847E-07, 0.00096272893381262829, 1.1199929991970431E-06, 1.3670000000000001E-12
DataValue, 1.2, 5, 0, 1.035349E-06, -1.034161E-06, 2.389E-12, 1.035349E-06, 0.001017521007154152, 1.0272396141522946E-06, 2.389E-12
DataValue, 1.25, 5, 0, 1.1322700000000002E-06, -1.128693E-06, 3.275E-12, 1.1322700000000002E-06, 0.001064081763775698, 1.1306912260636579E-06, 3.275E-12
DataValue, 1.3, 5, 0, 1.2630500000000001E-06, -1.2615500000000002E-06, 6.208E-12, 1.2630500000000001E-06, 0.0011238549728501449, 1.4026258655396877E-06, 6.208E-12
DataValue, 1.35, 5, 0, 1.39834E-06, -1.3965100000000002E-06, 1.868E-12, 1.39834E-06, 0.0011825142705269988, 1.3998797223794552E-06, 1.868E-12
DataValue, 1.4000000000000001, 5, 0, 1.5429900000000002E-06, -1.5424300000000002E-06, -4.196E-12, 1.5429900000000002E-06, 0.001242171485745829, 1.523397840370969E-06, 4.196E-12
DataValue, 1.4500000000000002, 5, 0, 1.70548E-06, -1.6989100000000002E-06, -2E-13, 1.70548E-06, 0.0013059402742851604, 1.5181913172065091E-06, 2E-13
DataValue, 1.5, 5, 0, 1.8642800000000002E-06, -1.8577400000000003E-06, 6.9640000000000006E-12, 1.8642800000000002E-06, 0.001365386392198194, 1.3849021724935315E-06, 6.9640000000000006E-12
DataValue, 1.55, 5, 0, 2.0267E-06, -2.02667E-06, -3.4230000000000003E-12, 2.0267E-06, 0.0014236221408786814, 1.4656918181285904E-06, 3.4230000000000003E-12
DataValue, 1.6, 5, 0, 2.20954E-06, -2.19977E-06, 9.147E-12, 2.20954E-06, 0.0014864521519376262, 1.4962411625313069E-06, 9.147E-12
DataValue, 1.6500000000000001, 5, 0, 2.3899400000000004E-06, -2.3953100000000004E-06, -7.6830000000000011E-12, 2.3899400000000004E-06, 0.0015459430778654176, 1.4691291495795304E-06, 7.6830000000000011E-12
DataValue, 1.7000000000000002, 5, 0, 2.5845700000000002E-06, -2.5844800000000003E-06, 6.195E-12, 2.5845700000000002E-06, 0.0016076597898809313, 1.6038889528201337E-06, 6.195E-12
DataValue, 1.75, 5, 0, 2.7975500000000004E-06, -2.7899100000000004E-06, 3.77E-12, 2.7975500000000004E-06, 0.0016725878153328753, 1.7083635919170292E-06, 3.77E-12
DataValue, 1.8, 5, 0, 3.0219100000000005E-06, -3.0171000000000003E-06, 4.013E-12, 3.0219100000000005E-06, 0.00173836417358389, 1.664109620975576E-06, 4.013E-12
DataValue, 1.85, 5, 0, 3.2457200000000002E-06, -3.2442100000000005E-06, 7.0900000000000007E-12, 3.2457200000000002E-06, 0.0018015881882383665, 1.6161456849809188E-06, 7.0900000000000007E-12
DataValue, 1.9000000000000001, 5, 0, 3.4800600000000005E-06, -3.4719100000000004E-06, 4.3530000000000005E-12, 3.4800600000000005E-06, 0.0018654918922364687, 1.7099563446767124E-06, 4.3530000000000005E-12
DataValue, 1.9500000000000002, 5, 0, 3.7339900000000003E-06, -3.7239500000000006E-06, -7.830000000000001E-13, 3.7339900000000003E-06, 0.0019323534873309284, 1.59589866379392E-06, 7.830000000000001E-13
DataValue, 2, 5, 0, 3.96735E-06, -3.9656700000000004E-06, -1.18E-12, 3.96735E-06, 0.0019918207750698855, 1.7033127884793714E-06, 1.18E-12
DataValue, 2.05, 5, 0, 4.2554100000000006E-06, -4.24573E-06, -3.54E-13, 4.2554100000000006E-06, 0.0020628645132436596, 1.8926469278350345E-06, 3.54E-13
DataValue, 2.1, 5, 0, 4.5343200000000005E-06, -4.53796E-06, -1.623E-12, 4.5343200000000005E-06, 0.0021293942800712133, 1.7424587486239951E-06, 1.623E-12
DataValue, 2.15, 5, 0, 4.81744E-06, -4.8148800000000006E-06, 1.6910000000000002E-12, 4.81744E-06, 0.0021948667385515686, 1.7852318657174176E-06, 1.6910000000000002E-12
DataValue, 2.2, 5, 0, 5.1212E-06, -5.1197900000000007E-06, -2.2410000000000002E-12, 5.1212E-06, 0.0022630068493047035, 1.7644829997060516E-06, 2.2410000000000002E-12
DataValue, 2.25, 5, 0, 5.41819E-06, -5.4200400000000009E-06, 3.5500000000000004E-12, 5.41819E-06, 0.0023277005821196162, 1.7074711192459961E-06, 3.5500000000000004E-12
DataValue, 2.3000000000000003, 5, 0, 5.7296900000000005E-06, -5.74084E-06, 5.22E-13, 5.7296900000000005E-06, 0.0023936770876624106, 1.661434843499987E-06, 5.22E-13
