
SetupTitle, Transfer lin
PrimitiveTest, I/V Sweep
TestParameter, Context.MainFrame, 4155C
TestParameter, Channel.UnitType, SMU, SMU, SMU
TestParameter, Channel.Unit, SMU3:MP, SMU1:MP, SMU4:MP
TestParameter, Channel.IName, ID, IS, IG
TestParameter, Channel.VName, VD, VS, VG
TestParameter, Channel.Mode, V, COMMON, V
TestParameter, Channel.Func, CONST, CONST, VAR1
TestParameter, Channel.Index, 
TestParameter, Channel.Time, 
TestParameter, Measurement.Port.Unit, SMU3:MP, SMU1:MP, SMU4:MP
TestParameter, Measurement.Port.SeriesResistor, NONE, NONE, NONE
TestParameter, Measurement.Port.Filter, ON, ON, ON
TestParameter, Measurement.Primary.Locus, Double
TestParameter, Measurement.Primary.Scale, LINEAR
TestParameter, Measurement.Primary.Start, -2
TestParameter, Measurement.Primary.Stop, 3
TestParameter, Measurement.Primary.Step, 0.05
TestParameter, Measurement.Primary.Compliance, 0.001
TestParameter, Measurement.Primary.PowerCompliance, 0
TestParameter, Measurement.Aborting.Condition, CONTINUE AT ANY
TestParameter, Measurement.PostOutput.Value, START
TestParameter, Measurement.PostOutput.Retention, OFF
TestParameter, Measurement.Bias.Source, 0.1, 0, -2
TestParameter, Measurement.Bias.Compliance, 0.001, 0.1, 0.001
TestParameter, Measurement.Monitor.Unit, SMU3:MP, SMU1:MP, SMU4:MP
TestParameter, Measurement.Monitor.Adc, HR ADC, HR ADC, HR ADC
TestParameter, Measurement.Monitor.RangingMode, AUTO, AUTO, AUTO
TestParameter, Measurement.Monitor.RangeBoundary, , , 
TestParameter, Measurement.Monitor.RangeRating, BY FULL RANGE, BY FULL RANGE, BY FULL RANGE
TestParameter, Measurement.Monitor.RangeRatingCoeff, 50, 50, 50
TestParameter, Measurement.Timing.Hold, 0.5
TestParameter, Measurement.Timing.Delay, 0.05
TestParameter, Measurement.Adc.HighResolution.AutoZero, OFF
TestParameter, Measurement.Adc.HighResolution.Mode, AUTO
TestParameter, Measurement.Adc.HighResolution.Coeff, 1
TestParameter, Measurement.Ag16440ASelector.SemiconductorRelay.Channel1, DEFAULT
TestParameter, Measurement.Ag16440ASelector.SemiconductorRelay.Channel3, DEFAULT
TestParameter, Function.User.Name, absID, sqrtID, gm2, absIG
TestParameter, Function.User.Unit, A, A, A/V, A
TestParameter, Function.User.Definition, abs(ID), sqrt(abs(ID)), (delta(sqrtID)/delta(VG))^2, abs(IG)
TestParameter, Output.Graph.Enabled, true
TestParameter, Output.Graph.XAxis.Data, VG
TestParameter, Output.Graph.XAxis.Scale, Linear
TestParameter, Output.Graph.XAxis.Left, -5
TestParameter, Output.Graph.XAxis.Right, 7
TestParameter, Output.Graph.YAxis.Data, ID, absIG, gm2
TestParameter, Output.Graph.YAxis.Scale, Log, Log, Linear
TestParameter, Output.Graph.YAxis.Bottom, 1E-14, 1E-14, 0
TestParameter, Output.Graph.YAxis.Top, 0.01, 0.01, 1E-05
TestParameter, Output.Graph.YAxis.Group, , , 
TestParameter, Output.List.Data, VG, IG, VD, ID, VS, IS, sqrtID, gm2, absIG
TestParameter, AutoAnalysis.Interpolation, false
TestParameter, AutoAnalysis.Line1.Enabled, false
TestParameter, AutoAnalysis.Line1.Type, 1
TestParameter, AutoAnalysis.Line1.Fix, True
TestParameter, AutoAnalysis.Line1.YAxis, 0
TestParameter, AutoAnalysis.Line1.Point1.Type, 0
TestParameter, AutoAnalysis.Line1.Point1.XY.X, 
TestParameter, AutoAnalysis.Line1.Point1.XY.Y, 
TestParameter, AutoAnalysis.Line1.Point1.Data.Var, 
TestParameter, AutoAnalysis.Line1.Point1.Data.Condition, 
TestParameter, AutoAnalysis.Line1.Point1.Data.Start, false
TestParameter, AutoAnalysis.Line1.Point1.Data.StartVar, 
TestParameter, AutoAnalysis.Line1.Point1.Data.StartCondition, 
TestParameter, AutoAnalysis.Line1.Point2.Type, 0
TestParameter, AutoAnalysis.Line1.Point2.XY.X, 
TestParameter, AutoAnalysis.Line1.Point2.XY.Y, 
TestParameter, AutoAnalysis.Line1.Point2.Data.Var, 
TestParameter, AutoAnalysis.Line1.Point2.Data.Condition, 
TestParameter, AutoAnalysis.Line1.Point2.Data.Start, false
TestParameter, AutoAnalysis.Line1.Point2.Data.StartVar, 
TestParameter, AutoAnalysis.Line1.Point2.Data.StartCondition, 
TestParameter, AutoAnalysis.Line1.GradientExpr, 0
TestParameter, AutoAnalysis.Line2.Enabled, false
TestParameter, AutoAnalysis.Line2.Type, 1
TestParameter, AutoAnalysis.Line2.Fix, True
TestParameter, AutoAnalysis.Line2.YAxis, 0
TestParameter, AutoAnalysis.Line2.Point1.Type, 0
TestParameter, AutoAnalysis.Line2.Point1.XY.X, 
TestParameter, AutoAnalysis.Line2.Point1.XY.Y, 
TestParameter, AutoAnalysis.Line2.Point1.Data.Var, 
TestParameter, AutoAnalysis.Line2.Point1.Data.Condition, 
TestParameter, AutoAnalysis.Line2.Point1.Data.Start, false
TestParameter, AutoAnalysis.Line2.Point1.Data.StartVar, 
TestParameter, AutoAnalysis.Line2.Point1.Data.StartCondition, 
TestParameter, AutoAnalysis.Line2.Point2.Type, 0
TestParameter, AutoAnalysis.Line2.Point2.XY.X, 
TestParameter, AutoAnalysis.Line2.Point2.XY.Y, 
TestParameter, AutoAnalysis.Line2.Point2.Data.Var, 
TestParameter, AutoAnalysis.Line2.Point2.Data.Condition, 
TestParameter, AutoAnalysis.Line2.Point2.Data.Start, false
TestParameter, AutoAnalysis.Line2.Point2.Data.StartVar, 
TestParameter, AutoAnalysis.Line2.Point2.Data.StartCondition, 
TestParameter, AutoAnalysis.Line2.GradientExpr, 0
TestParameter, AutoAnalysis.Marker.Enabled, false
TestParameter, AutoAnalysis.Marker.Data.Var, 
TestParameter, AutoAnalysis.Marker.Data.Condition, 
TestParameter, AutoAnalysis.Marker.Data.Start, false
TestParameter, AutoAnalysis.Marker.Data.StartVar, 
TestParameter, AutoAnalysis.Marker.Data.StartCondition, 
MetaData, TestRecord.EntryPoint, true
MetaData, TestRecord.RecordTime, 05/02/2019 16:35:13
MetaData, TestRecord.TestTarget, br-br-2-5
MetaData, TestRecord.IterationIndex, 1
MetaData, TestRecord.Preservation, true
MetaData, TestRecord.Flag, 
MetaData, TestRecord.Remarks, good
MetaData, TestRecord.LinkKey, c08b3974-7ec9-4246-9766-353adb37df83
Dimension1, 202, 202, 202, 202, 202, 202, 202, 202, 202, 202
Dimension2, 1, 1, 1, 1, 1, 1, 1, 1, 1, 1
DataName, VG, VD, VS, ID, IS, IG, absID, sqrtID, gm2, absIG
DataValue, -2, 0.1, 0, -1.3510000000000002E-12, -1.7300000000000002E-13, -1.531E-12, 1.3510000000000002E-12, 1.1623252556836232E-06, 1.0998125451061557E-10, 1.531E-12
DataValue, -1.9500000000000002, 0.1, 0, 4.0700000000000003E-13, 6.16E-13, -3.5440000000000002E-12, 4.0700000000000003E-13, 6.379655163094633E-07, 5.2273999392906958E-11, 3.5440000000000002E-12
DataValue, -1.9000000000000001, 0.1, 0, 1.93E-13, -1.9360000000000002E-12, 8.070000000000001E-13, 1.93E-13, 4.3931765272977595E-07, 2.7000304671945874E-11, 8.070000000000001E-13
DataValue, -1.85, 0.1, 0, -1.3400000000000002E-12, -1.12E-12, 3.8560000000000005E-12, 1.3400000000000002E-12, 1.1575836902790227E-06, 3.398129370782493E-11, 3.8560000000000005E-12
DataValue, -1.8, 0.1, 0, 1.045E-12, 2.8510000000000003E-12, 3.828E-12, 1.045E-12, 1.0222524150130437E-06, 7.8420638301106815E-11, 3.828E-12
DataValue, -1.75, 0.1, 0, -7.4E-14, 2.147E-12, -3.6250000000000004E-12, 7.4E-14, 2.7202941017470887E-07, 2.6963236145821926E-11, 3.6250000000000004E-12
DataValue, -1.7000000000000002, 0.1, 0, 2.5300000000000003E-13, 1.1300000000000001E-13, -2.4760000000000004E-12, 2.5300000000000003E-13, 5.0299105359837175E-07, 4.5697143413091477E-12, 2.4760000000000004E-12
DataValue, -1.6500000000000001, 0.1, 0, 2.36E-13, -1.322E-12, -4.91E-13, 2.36E-13, 4.8579831205964476E-07, 6.6188912214264386E-12, 4.91E-13
DataValue, -1.6, 0.1, 0, -5.7800000000000006E-13, -4.12E-13, 1.003E-12, 5.7800000000000006E-13, 7.6026311234992855E-07, 2.5111731687343496E-11, 1.003E-12
DataValue, -1.55, 0.1, 0, -9.74E-13, 1.18E-13, 4.833E-12, 9.74E-13, 9.8691438331802636E-07, 2.2436401153930092E-14, 4.833E-12
DataValue, -1.5, 0.1, 0, -6.0100000000000006E-13, 1.719E-12, -2.84E-13, 6.0100000000000006E-13, 7.7524189773257227E-07, 1.9172689804137298E-11, 2.84E-13
DataValue, -1.4500000000000002, 0.1, 0, -2.03E-12, 3.86E-13, -1.4220000000000002E-12, 2.03E-12, 1.4247806848775006E-06, 1.9188741540577162E-13, 1.4220000000000002E-12
DataValue, -1.4000000000000001, 0.1, 0, -5.35E-13, -7.350000000000001E-13, -8.6000000000000007E-13, 5.35E-13, 7.3143694191638966E-07, 1.448222701740144E-10, 8.6000000000000007E-13
DataValue, -1.35, 0.1, 0, -4.9000000000000006E-14, 3.78E-13, 1.592E-12, 4.9000000000000006E-14, 2.2135943621178657E-07, 4.1215658212963027E-11, 1.592E-12
DataValue, -1.3, 0.1, 0, 8E-15, 3.9600000000000003E-13, -1.109E-12, 8E-15, 8.9442719099991593E-08, 1.2500847460061638E-12, 1.109E-12
DataValue, -1.25, 0.1, 0, -1.1100000000000001E-13, 8.5200000000000011E-13, -4.2000000000000003E-13, 1.1100000000000001E-13, 3.3316662497915367E-07, 4.2093940784624593E-11, 4.2000000000000003E-13
DataValue, -1.2, 0.1, 0, -5.45E-13, -2.5E-14, -1.975E-12, 5.45E-13, 7.3824115301167007E-07, 1.125025252596826E-11, 1.975E-12
DataValue, -1.1500000000000001, 0.1, 0, 4.47E-13, -1.021E-12, -8.5100000000000011E-13, 4.47E-13, 6.6858058601787115E-07, 6.3727387947929714E-12, 8.5100000000000011E-13
DataValue, -1.1, 0.1, 0, -2.36E-13, -3.27E-13, 9.42E-13, 2.36E-13, 4.8579831205964476E-07, 2.2193182698401495E-11, 9.42E-13
DataValue, -1.05, 0.1, 0, 3.9000000000000004E-14, -3.8400000000000003E-13, -1.2020000000000001E-12, 3.9000000000000004E-14, 1.97484176581315E-07, 5.8064361675289464E-11, 1.2020000000000001E-12
DataValue, -1, 0.1, 0, -1.5570000000000001E-12, -1.69E-13, -4.2600000000000005E-13, 1.5570000000000001E-12, 1.2477980605851254E-06, 5.1543672752891526E-11, 4.2600000000000005E-13
DataValue, -0.95000000000000007, 0.1, 0, -8.3800000000000006E-13, -8.7000000000000008E-14, -2.73E-13, 8.3800000000000006E-13, 9.1542339930766462E-07, 2.6363243857808866E-11, 2.73E-13
DataValue, -0.9, 0.1, 0, 3.1020000000000003E-12, -4E-15, -5.7200000000000009E-13, 3.1020000000000003E-12, 1.7612495564229392E-06, 2.5190555410833982E-11, 5.7200000000000009E-13
DataValue, -0.85000000000000009, 0.1, 0, -1.71E-13, 1.34E-13, -9.88E-13, 1.71E-13, 4.1352146256270667E-07, 9.7859418254648907E-11, 9.88E-13
DataValue, -0.8, 0.1, 0, 5.9600000000000009E-13, 7.95E-13, 4.65E-13, 5.9600000000000009E-13, 7.7201036262475136E-07, 5.8333676127808244E-13, 4.65E-13
DataValue, -0.75, 0.1, 0, -2.4000000000000004E-13, -6.5000000000000006E-13, -1.1810000000000001E-12, 2.4000000000000004E-13, 4.8989794855663568E-07, 5.2894929399347206E-11, 1.1810000000000001E-12
DataValue, -0.70000000000000007, 0.1, 0, 2E-15, 5.84E-13, -6.2700000000000005E-13, 2E-15, 4.4721359549995796E-08, 3.1275367797107003E-12, 6.2700000000000005E-13
DataValue, -0.65, 0.1, 0, 9.8000000000000012E-14, -6.2400000000000007E-13, 9.3E-13, 9.8000000000000012E-14, 3.1304951684997057E-07, 1.3066819575082986E-11, 9.3E-13
DataValue, -0.6, 0.1, 0, -1.65E-13, -4.93E-13, 1.2230000000000001E-12, 1.65E-13, 4.0620192023179803E-07, 1.3583045857302746E-10, 1.2230000000000001E-12
DataValue, -0.55, 0.1, 0, 2.186E-12, 1.235E-12, 1.139E-12, 2.186E-12, 1.4785127662620977E-06, 2.709790620274301E-13, 1.139E-12
DataValue, -0.5, 0.1, 0, 2.1000000000000001E-13, 8.7E-13, -1.3090000000000002E-12, 2.1000000000000001E-13, 4.58257569495584E-07, 6.3809253944366862E-11, 1.3090000000000002E-12
DataValue, -0.45, 0.1, 0, 4.6200000000000005E-13, -1.2840000000000002E-12, -4.8950000000000004E-12, 4.6200000000000005E-13, 6.7970581871865712E-07, 6.6410668868143777E-11, 4.8950000000000004E-12
DataValue, -0.4, 0.1, 0, -1.621E-12, -2.82E-12, -2.3960000000000003E-12, 1.621E-12, 1.2731849826321391E-06, 1.2753201526249638E-11, 2.3960000000000003E-12
DataValue, -0.35000000000000003, 0.1, 0, -1.0750000000000002E-12, -9.3500000000000016E-13, 2.703E-12, 1.0750000000000002E-12, 1.0368220676663861E-06, 5.1582202111694349E-11, 2.703E-12
DataValue, -0.3, 0.1, 0, -3.08E-13, 3.52E-13, -2.6260000000000003E-12, 3.08E-13, 5.5497747702046433E-07, 2.0747257242725339E-11, 2.6260000000000003E-12
DataValue, -0.25, 0.1, 0, 2.227E-12, -3.0310000000000003E-12, 3.7690000000000006E-12, 2.227E-12, 1.492313639956427E-06, 1.3947392075697579E-11, 3.7690000000000006E-12
DataValue, -0.2, 0.1, 0, 8.6200000000000006E-13, -3.6100000000000003E-13, 2.307E-12, 8.6200000000000006E-13, 9.2843955107481289E-07, 5.4450266463529562E-12, 2.307E-12
DataValue, -0.15, 0.1, 0, 1.5850000000000002E-12, 1.567E-12, -6.155E-12, 1.5850000000000002E-12, 1.2589678312014173E-06, 8.4553966947015389E-11, 6.155E-12
DataValue, -0.1, 0.1, 0, 3.4150000000000003E-12, -5.4310000000000006E-12, -4.152E-12, 3.4150000000000003E-12, 1.8479718612576329E-06, 4.5380025070897887E-11, 4.152E-12
DataValue, -0.05, 0.1, 0, 3.7350000000000005E-12, -7.769E-12, 3.708E-12, 3.7350000000000005E-12, 1.9326148090087691E-06, 1.3287051436853127E-10, 3.708E-12
DataValue, 0, 0.1, 0, 9.004E-12, -8.131E-12, -9.61E-13, 9.004E-12, 3.0006665926090487E-06, 4.3113335090096861E-10, 9.61E-13
DataValue, 0.05, 0.1, 0, 1.6072E-11, -1.5718E-11, 7.8900000000000007E-13, 1.6072E-11, 4.0089898977173786E-06, 7.7293107413103546E-10, 7.8900000000000007E-13
DataValue, 0.1, 0.1, 0, 3.3418E-11, -3.1845E-11, 3.77E-13, 3.3418E-11, 5.7808303901775221E-06, 1.3492856484354487E-09, 3.77E-13
DataValue, 0.15, 0.1, 0, 5.9017000000000007E-11, -5.4036000000000006E-11, -2.8470000000000003E-12, 5.9017000000000007E-11, 7.6822522739103022E-06, 1.7833044094768912E-09, 2.8470000000000003E-12
DataValue, 0.2, 0.1, 0, 1.0007500000000001E-10, -9.6806E-11, 5E-13, 1.0007500000000001E-10, 1.0003749297138549E-05, 2.5054612947957859E-09, 5E-13
DataValue, 0.25, 0.1, 0, 1.60978E-10, -1.5506100000000001E-10, -5.1650000000000007E-12, 1.60978E-10, 1.2687710589385306E-05, 3.5389403901901416E-09, 5.1650000000000007E-12
DataValue, 0.3, 0.1, 0, 2.5448700000000004E-10, -2.46836E-10, -1.9E-12, 2.5448700000000004E-10, 1.5952648682899028E-05, 5.0415923908460079E-09, 1.9E-12
DataValue, 0.35000000000000003, 0.1, 0, 3.9157E-10, -3.7669800000000004E-10, 2.005E-12, 3.9157E-10, 1.9788127753782065E-05, 6.34888796303791E-09, 2.005E-12
DataValue, 0.4, 0.1, 0, 5.72197E-10, -5.58371E-10, -4.46E-13, 5.72197E-10, 2.392063962355522E-05, 6.7075036634796047E-09, 4.46E-13
DataValue, 0.45, 0.1, 0, 7.827720000000001E-10, -7.7205600000000009E-10, 1.046E-12, 7.827720000000001E-10, 2.7978062835014151E-05, 7.0938849807870869E-09, 1.046E-12
DataValue, 0.5, 0.1, 0, 1.04608E-09, -1.02118E-09, 2.85E-13, 1.04608E-09, 3.2343160018773675E-05, 8.5749260202405821E-09, 2.85E-13
DataValue, 0.55, 0.1, 0, 1.38668E-09, -1.36904E-09, -8.43E-13, 1.38668E-09, 3.7238152478338663E-05, 8.9785026436225235E-09, 8.43E-13
DataValue, 0.6, 0.1, 0, 1.7488E-09, -1.73232E-09, 1.163E-12, 1.7488E-09, 4.1818656123792408E-05, 9.4137502718314451E-09, 1.163E-12
DataValue, 0.65, 0.1, 0, 2.20342E-09, -2.18816E-09, 1.46E-12, 2.20342E-09, 4.6940600763092073E-05, 1.0189002874357393E-08, 1.46E-12
DataValue, 0.70000000000000007, 0.1, 0, 2.69493E-09, -2.69094E-09, -1.9500000000000003E-13, 2.69493E-09, 5.1912715205429196E-05, 1.0436897766291138E-08, 1.9500000000000003E-13
DataValue, 0.75, 0.1, 0, 3.26689E-09, -3.23032E-09, -1.8500000000000002E-13, 3.26689E-09, 5.7156714391224413E-05, 9.8805467667660539E-09, 1.8500000000000002E-13
DataValue, 0.8, 0.1, 0, 3.82577E-09, -3.80907E-09, 1.6E-14, 3.82577E-09, 6.185280915205065E-05, 9.34799966487847E-09, 1.6E-14
DataValue, 0.85000000000000009, 0.1, 0, 4.46561E-09, -4.45146E-09, 3.3660000000000004E-12, 4.46561E-09, 6.6825219790136122E-05, 9.4321327849767944E-09, 3.3660000000000004E-12
DataValue, 0.9, 0.1, 0, 5.12151E-09, -5.11052E-09, 2.1000000000000001E-13, 5.12151E-09, 7.1564725947913756E-05, 9.7124095759461017E-09, 2.1000000000000001E-13
DataValue, 0.95000000000000007, 0.1, 0, 5.87988E-09, -5.84695E-09, -7.1500000000000008E-13, 5.87988E-09, 7.6680375585934631E-05, 1.0012453402211009E-08, 7.1500000000000008E-13
DataValue, 1, 0.1, 0, 6.65382E-09, -6.62376E-09, 1.926E-12, 6.65382E-09, 8.1570950711635088E-05, 9.2484790844880987E-09, 1.926E-12
DataValue, 1.05, 0.1, 0, 7.44722E-09, -7.40903E-09, 3.2320000000000004E-12, 7.44722E-09, 8.6297276897941578E-05, 8.9440271074685171E-09, 3.2320000000000004E-12
DataValue, 1.1, 0.1, 0, 8.28614E-09, -8.31362E-09, 3.844E-12, 8.28614E-09, 9.102823737720071E-05, 8.4402206834094922E-09, 3.844E-12
DataValue, 1.1500000000000001, 0.1, 0, 9.11726E-09, -9.14779E-09, -3.4700000000000004E-13, 9.11726E-09, 9.5484344266481719E-05, 9.085889685402435E-09, 3.4700000000000004E-13
DataValue, 1.2, 0.1, 0, 1.011236E-08, -1.002315E-08, -4.136E-12, 1.011236E-08, 0.00010056023070777035, 9.7193312893406336E-09, 4.136E-12
DataValue, 1.25, 0.1, 0, 1.109715E-08, -1.106948E-08, -4.583E-12, 1.109715E-08, 0.00010534301115878547, 7.9190315903587449E-09, 4.583E-12
DataValue, 1.3, 0.1, 0, 1.19813E-08, -1.1917399999999999E-08, -2.6960000000000002E-12, 1.19813E-08, 0.00010945912479094651, 7.4420326691053784E-09, 2.6960000000000002E-12
DataValue, 1.35, 0.1, 0, 1.2989099999999999E-08, -1.2950499999999999E-08, -2.2460000000000003E-12, 1.2989099999999999E-08, 0.0001139697328241143, 8.5223360129960312E-09, 2.2460000000000003E-12
DataValue, 1.4000000000000001, 0.1, 0, 1.4087499999999998E-08, -1.4145399999999999E-08, -1.395E-12, 1.4087499999999998E-08, 0.00011869077470469218, 8.740305309310322E-09, 1.395E-12
DataValue, 1.4500000000000002, 0.1, 0, 1.52075E-08, -1.5187099999999998E-08, 1.9120000000000003E-12, 1.52075E-08, 0.00012331869282472953, 8.4327326901864063E-09, 1.9120000000000003E-12
DataValue, 1.5, 0.1, 0, 1.6351699999999997E-08, -1.62869E-08, 2.6300000000000003E-12, 1.6351699999999997E-08, 0.00012787376587869773, 8.41682549721638E-09, 2.6300000000000003E-12
DataValue, 1.55, 0.1, 0, 1.7554399999999998E-08, -1.7500799999999998E-08, -4.4900000000000006E-13, 1.7554399999999998E-08, 0.00013249301868400461, 8.320157094665565E-09, 4.4900000000000006E-13
DataValue, 1.6, 0.1, 0, 1.8767699999999997E-08, -1.8833799999999998E-08, -2.1120000000000003E-12, 1.8767699999999997E-08, 0.0001369952553922945, 7.80066671657132E-09, 2.1120000000000003E-12
DataValue, 1.6500000000000001, 0.1, 0, 1.99728E-08, -1.9981899999999998E-08, 1.16E-13, 1.99728E-08, 0.00014132515699619795, 7.43456892729632E-09, 1.16E-13
DataValue, 1.7000000000000002, 0.1, 0, 2.1204499999999996E-08, -2.1222699999999998E-08, 8.6100000000000007E-13, 2.1204499999999996E-08, 0.00014561765002910876, 7.5640847323813727E-09, 8.6100000000000007E-13
DataValue, 1.75, 0.1, 0, 2.2506699999999998E-08, -2.2569599999999998E-08, 1.3650000000000001E-12, 2.2506699999999998E-08, 0.00015002233167098824, 7.5670995772825362E-09, 1.3650000000000001E-12
DataValue, 1.8, 0.1, 0, 2.38136E-08, -2.37502E-08, -3.8E-14, 2.38136E-08, 0.00015431655776357894, 7.3816710725271528E-09, 3.8E-14
DataValue, 1.85, 0.1, 0, 2.5158399999999998E-08, -2.51665E-08, -1.0330000000000001E-12, 2.5158399999999998E-08, 0.00015861399686030233, 7.5125392185295318E-09, 1.0330000000000001E-12
DataValue, 1.9000000000000001, 0.1, 0, 2.6563799999999998E-08, -2.6506699999999997E-08, -2.1370000000000003E-12, 2.6563799999999998E-08, 0.00016298404829921239, 7.7479620163167369E-09, 2.1370000000000003E-12
DataValue, 1.9500000000000002, 0.1, 0, 2.80282E-08, -2.8005099999999997E-08, 8.68E-13, 2.80282E-08, 0.00016741624771807545, 8.38804134548468E-09, 8.68E-13
DataValue, 2, 0.1, 0, 2.9633099999999997E-08, -2.9601599999999998E-08, 4.5800000000000007E-13, 2.9633099999999997E-08, 0.00017214267338460848, 7.8936676232314132E-09, 4.5800000000000007E-13
DataValue, 2.05, 0.1, 0, 3.1082E-08, -3.11159E-08, -1.3960000000000001E-12, 3.1082E-08, 0.00017630087918101827, 7.1528246653139875E-09, 1.3960000000000001E-12
DataValue, 2.1, 0.1, 0, 3.2616399999999994E-08, -3.2551699999999996E-08, 6.8E-14, 3.2616399999999994E-08, 0.00018060011074193724, 7.4452165449158942E-09, 6.8E-14
DataValue, 2.15, 0.1, 0, 3.4198899999999995E-08, -3.42489E-08, -6.16E-13, 3.4198899999999995E-08, 0.00018492944600576728, 6.7946155282716475E-09, 6.16E-13
DataValue, 2.2, 0.1, 0, 3.5661699999999996E-08, -3.56718E-08, -2.83E-13, 3.5661699999999996E-08, 0.00018884305653107819, 6.5745730915750328E-09, 2.83E-13
DataValue, 2.25, 0.1, 0, 3.7263599999999994E-08, -3.7293999999999996E-08, 9.8000000000000012E-14, 3.7263599999999994E-08, 0.0001930378201285955, 6.7867033169208508E-09, 9.8000000000000012E-14
