
SetupTitle, Transfer sat
PrimitiveTest, I/V Sweep
TestParameter, Context.MainFrame, 4155C
TestParameter, Channel.UnitType, SMU, SMU, SMU
TestParameter, Channel.Unit, SMU3:MP, SMU1:MP, SMU4:MP
TestParameter, Channel.IName, ID, IS, IG
TestParameter, Channel.VName, VD, VS, VG
TestParameter, Channel.Mode, V, COMMON, V
TestParameter, Channel.Func, CONST, CONST, VAR1
TestParameter, Channel.Index, 
TestParameter, Channel.Time, 
TestParameter, Measurement.Port.Unit, SMU3:MP, SMU1:MP, SMU4:MP
TestParameter, Measurement.Port.SeriesResistor, NONE, NONE, NONE
TestParameter, Measurement.Port.Filter, ON, ON, ON
TestParameter, Measurement.Primary.Locus, Double
TestParameter, Measurement.Primary.Scale, LINEAR
TestParameter, Measurement.Primary.Start, -2
TestParameter, Measurement.Primary.Stop, 3
TestParameter, Measurement.Primary.Step, 0.05
TestParameter, Measurement.Primary.Compliance, 0.001
TestParameter, Measurement.Primary.PowerCompliance, 0
TestParameter, Measurement.Aborting.Condition, CONTINUE AT ANY
TestParameter, Measurement.PostOutput.Value, START
TestParameter, Measurement.PostOutput.Retention, OFF
TestParameter, Measurement.Bias.Source, 5, 0, -2
TestParameter, Measurement.Bias.Compliance, 0.001, 0.1, 0.001
TestParameter, Measurement.Monitor.Unit, SMU3:MP, SMU1:MP, SMU4:MP
TestParameter, Measurement.Monitor.Adc, HR ADC, HR ADC, HR ADC
TestParameter, Measurement.Monitor.RangingMode, AUTO, AUTO, AUTO
TestParameter, Measurement.Monitor.RangeBoundary, , , 
TestParameter, Measurement.Monitor.RangeRating, BY FULL RANGE, BY FULL RANGE, BY FULL RANGE
TestParameter, Measurement.Monitor.RangeRatingCoeff, 50, 50, 50
TestParameter, Measurement.Timing.Hold, 0.5
TestParameter, Measurement.Timing.Delay, 0.05
TestParameter, Measurement.Adc.HighResolution.AutoZero, OFF
TestParameter, Measurement.Adc.HighResolution.Mode, AUTO
TestParameter, Measurement.Adc.HighResolution.Coeff, 1
TestParameter, Measurement.Ag16440ASelector.SemiconductorRelay.Channel1, DEFAULT
TestParameter, Measurement.Ag16440ASelector.SemiconductorRelay.Channel3, DEFAULT
TestParameter, Function.User.Name, absID, sqrtID, gm2, absIG
TestParameter, Function.User.Unit, A, A, A/V, A
TestParameter, Function.User.Definition, abs(ID), sqrt(abs(ID)), (delta(sqrtID)/delta(VG))^2, abs(IG)
TestParameter, Output.Graph.Enabled, true
TestParameter, Output.Graph.XAxis.Data, VG
TestParameter, Output.Graph.XAxis.Scale, Linear
TestParameter, Output.Graph.XAxis.Left, -5
TestParameter, Output.Graph.XAxis.Right, 7
TestParameter, Output.Graph.YAxis.Data, ID, absIG, gm2
TestParameter, Output.Graph.YAxis.Scale, Log, Log, Linear
TestParameter, Output.Graph.YAxis.Bottom, 1E-14, 1E-14, 0
TestParameter, Output.Graph.YAxis.Top, 0.01, 0.01, 1E-05
TestParameter, Output.Graph.YAxis.Group, , , 
TestParameter, Output.List.Data, VG, IG, VD, ID, VS, IS, sqrtID, gm2, absIG
TestParameter, AutoAnalysis.Interpolation, false
TestParameter, AutoAnalysis.Line1.Enabled, false
TestParameter, AutoAnalysis.Line1.Type, 1
TestParameter, AutoAnalysis.Line1.Fix, True
TestParameter, AutoAnalysis.Line1.YAxis, 0
TestParameter, AutoAnalysis.Line1.Point1.Type, 0
TestParameter, AutoAnalysis.Line1.Point1.XY.X, 
TestParameter, AutoAnalysis.Line1.Point1.XY.Y, 
TestParameter, AutoAnalysis.Line1.Point1.Data.Var, 
TestParameter, AutoAnalysis.Line1.Point1.Data.Condition, 
TestParameter, AutoAnalysis.Line1.Point1.Data.Start, false
TestParameter, AutoAnalysis.Line1.Point1.Data.StartVar, 
TestParameter, AutoAnalysis.Line1.Point1.Data.StartCondition, 
TestParameter, AutoAnalysis.Line1.Point2.Type, 0
TestParameter, AutoAnalysis.Line1.Point2.XY.X, 
TestParameter, AutoAnalysis.Line1.Point2.XY.Y, 
TestParameter, AutoAnalysis.Line1.Point2.Data.Var, 
TestParameter, AutoAnalysis.Line1.Point2.Data.Condition, 
TestParameter, AutoAnalysis.Line1.Point2.Data.Start, false
TestParameter, AutoAnalysis.Line1.Point2.Data.StartVar, 
TestParameter, AutoAnalysis.Line1.Point2.Data.StartCondition, 
TestParameter, AutoAnalysis.Line1.GradientExpr, 0
TestParameter, AutoAnalysis.Line2.Enabled, false
TestParameter, AutoAnalysis.Line2.Type, 1
TestParameter, AutoAnalysis.Line2.Fix, True
TestParameter, AutoAnalysis.Line2.YAxis, 0
TestParameter, AutoAnalysis.Line2.Point1.Type, 0
TestParameter, AutoAnalysis.Line2.Point1.XY.X, 
TestParameter, AutoAnalysis.Line2.Point1.XY.Y, 
TestParameter, AutoAnalysis.Line2.Point1.Data.Var, 
TestParameter, AutoAnalysis.Line2.Point1.Data.Condition, 
TestParameter, AutoAnalysis.Line2.Point1.Data.Start, false
TestParameter, AutoAnalysis.Line2.Point1.Data.StartVar, 
TestParameter, AutoAnalysis.Line2.Point1.Data.StartCondition, 
TestParameter, AutoAnalysis.Line2.Point2.Type, 0
TestParameter, AutoAnalysis.Line2.Point2.XY.X, 
TestParameter, AutoAnalysis.Line2.Point2.XY.Y, 
TestParameter, AutoAnalysis.Line2.Point2.Data.Var, 
TestParameter, AutoAnalysis.Line2.Point2.Data.Condition, 
TestParameter, AutoAnalysis.Line2.Point2.Data.Start, false
TestParameter, AutoAnalysis.Line2.Point2.Data.StartVar, 
TestParameter, AutoAnalysis.Line2.Point2.Data.StartCondition, 
TestParameter, AutoAnalysis.Line2.GradientExpr, 0
TestParameter, AutoAnalysis.Marker.Enabled, false
TestParameter, AutoAnalysis.Marker.Data.Var, 
TestParameter, AutoAnalysis.Marker.Data.Condition, 
TestParameter, AutoAnalysis.Marker.Data.Start, false
TestParameter, AutoAnalysis.Marker.Data.StartVar, 
TestParameter, AutoAnalysis.Marker.Data.StartCondition, 
MetaData, TestRecord.EntryPoint, true
MetaData, TestRecord.RecordTime, 05/02/2019 15:34:17
MetaData, TestRecord.TestTarget, 350-300-2-2
MetaData, TestRecord.IterationIndex, 1
MetaData, TestRecord.Preservation, true
MetaData, TestRecord.Flag, 
MetaData, TestRecord.Remarks, good
MetaData, TestRecord.LinkKey, 8452a130-7b00-4d33-80b9-bc896d891cb5
Dimension1, 202, 202, 202, 202, 202, 202, 202, 202, 202, 202
Dimension2, 1, 1, 1, 1, 1, 1, 1, 1, 1, 1
DataName, VG, VD, VS, ID, IS, IG, absID, sqrtID, gm2, absIG
DataValue, -2, 5, 0, 7.2050000000000009E-12, -2.068E-12, -3.3440000000000003E-12, 7.2050000000000009E-12, 2.68421310629391E-06, 3.5672289102221159E-11, 3.3440000000000003E-12
DataValue, -1.9500000000000002, 5, 0, 5.6910000000000007E-12, -2.407E-12, -1.1350000000000001E-12, 5.6910000000000007E-12, 2.385581690070579E-06, 4.0186591976022547E-12, 1.1350000000000001E-12
DataValue, -1.9000000000000001, 5, 0, 6.1690000000000009E-12, -2.395E-12, -2.9390000000000003E-12, 6.1690000000000009E-12, 2.4837471690975311E-06, 7.8197255120898522E-12, 2.9390000000000003E-12
DataValue, -1.85, 5, 0, 4.435E-12, -1.7030000000000001E-12, -2.2660000000000002E-12, 4.435E-12, 2.105943968865269E-06, 4.8011370267498394E-13, 2.2660000000000002E-12
DataValue, -1.8, 5, 0, 6.518E-12, -2.791E-12, -2.4260000000000004E-12, 6.518E-12, 2.5530374066981473E-06, 8.9182861050461953E-12, 2.4260000000000004E-12
DataValue, -1.75, 5, 0, 5.782E-12, -2.3790000000000003E-12, -3.0050000000000002E-12, 5.782E-12, 2.4045789652244735E-06, 1.6124822536409286E-14, 3.0050000000000002E-12
DataValue, -1.7000000000000002, 5, 0, 6.5830000000000005E-12, -3.8660000000000007E-12, -3.5630000000000005E-12, 6.5830000000000005E-12, 2.5657357619209347E-06, 1.5357477676197879E-13, 3.5630000000000005E-12
DataValue, -1.6500000000000001, 5, 0, 5.9720000000000008E-12, -2.729E-12, -2.014E-12, 5.9720000000000008E-12, 2.4437675830569486E-06, 2.4605175499744484E-13, 2.014E-12
DataValue, -1.6, 5, 0, 6.8400000000000007E-12, -2.779E-12, -4.039E-12, 6.8400000000000007E-12, 2.6153393661244042E-06, 7.7145834261141515E-13, 4.039E-12
DataValue, -1.55, 5, 0, 6.4090000000000007E-12, -3.2560000000000003E-12, -3.3750000000000005E-12, 6.4090000000000007E-12, 2.5316002844051035E-06, 1.60694862421578E-12, 3.3750000000000005E-12
DataValue, -1.5, 5, 0, 6.1930000000000008E-12, -2.598E-12, -1.8170000000000002E-12, 6.1930000000000008E-12, 2.4885738887965535E-06, 3.3952250832140673E-12, 1.8170000000000002E-12
DataValue, -1.4500000000000002, 5, 0, 5.5100000000000006E-12, -2.6880000000000003E-12, -1.6050000000000001E-12, 5.5100000000000006E-12, 2.3473389188611008E-06, 4.16382208195921E-13, 1.6050000000000001E-12
DataValue, -1.4000000000000001, 5, 0, 5.8760000000000004E-12, -2.4790000000000002E-12, -3.087E-12, 5.8760000000000004E-12, 2.42404620418011E-06, 1.1816922703173113E-11, 3.087E-12
DataValue, -1.35, 5, 0, 7.2420000000000008E-12, -4.1190000000000005E-12, -2.841E-12, 7.2420000000000008E-12, 2.691096430825176E-06, 1.3428381197810948E-13, 2.841E-12
DataValue, -1.3, 5, 0, 6.055E-12, -2.7840000000000003E-12, -2.67E-12, 6.055E-12, 2.4606909598728568E-06, 1.9991291994309863E-12, 2.67E-12
DataValue, -1.25, 5, 0, 6.5010000000000007E-12, -3.9220000000000005E-12, -1.114E-12, 6.5010000000000007E-12, 2.5497058653891827E-06, 1.2276051716582443E-12, 1.114E-12
DataValue, -1.2, 5, 0, 5.522E-12, -2.352E-12, -1.7080000000000002E-12, 5.522E-12, 2.3498936146132231E-06, 1.0734322318773964E-13, 1.7080000000000002E-12
DataValue, -1.1500000000000001, 5, 0, 6.3350000000000008E-12, -3.6930000000000005E-12, -2.7550000000000003E-12, 6.3350000000000008E-12, 2.5169425897306441E-06, 2.7598093296580518E-11, 2.7550000000000003E-12
DataValue, -1.1, 5, 0, 3.3290000000000005E-12, -2.7180000000000003E-12, -2.486E-12, 3.3290000000000005E-12, 1.8245547402037574E-06, 1.0233576784726341E-12, 2.486E-12
DataValue, -1.05, 5, 0, 5.8360000000000006E-12, -3.53E-12, -1.2360000000000002E-12, 5.8360000000000006E-12, 2.4157814470684224E-06, 4.9489533934709152E-11, 1.2360000000000002E-12
DataValue, -1, 5, 0, 6.3910000000000005E-12, -2.749E-12, -5.6520000000000006E-12, 6.3910000000000005E-12, 2.5280427211580111E-06, 9.8985115455846851E-14, 5.6520000000000006E-12
DataValue, -0.95000000000000007, 5, 0, 5.9890000000000004E-12, -3.4810000000000002E-12, -1.868E-12, 5.9890000000000004E-12, 2.44724334711528E-06, 5.15899127458839E-13, 1.868E-12
DataValue, -0.9, 5, 0, 6.0330000000000006E-12, -3.4230000000000003E-12, -3.137E-12, 6.0330000000000006E-12, 2.4562166028263875E-06, 2.4591706657833732E-14, 3.137E-12
DataValue, -0.85000000000000009, 5, 0, 6.066E-12, -3.1690000000000003E-12, -1.3710000000000001E-12, 6.066E-12, 2.4629250902128551E-06, 1.2642896161164759E-12, 1.3710000000000001E-12
DataValue, -0.8, 5, 0, 6.5980000000000008E-12, -2.9730000000000004E-12, -2.987E-12, 6.5980000000000008E-12, 2.5686572367678802E-06, 5.2299614844719881E-13, 2.987E-12
DataValue, -0.75, 5, 0, 5.7150000000000006E-12, -3.8740000000000007E-12, -2.6770000000000004E-12, 5.7150000000000006E-12, 2.3906066175763841E-06, 4.144489800750728E-14, 2.6770000000000004E-12
DataValue, -0.70000000000000007, 5, 0, 6.7030000000000008E-12, -2.903E-12, -1.362E-12, 6.7030000000000008E-12, 2.5890152568109756E-06, 2.7491869363502892E-11, 1.362E-12
DataValue, -0.65, 5, 0, 3.4830000000000004E-12, -3.4990000000000003E-12, -3.99E-13, 3.4830000000000004E-12, 1.866279721799495E-06, 3.8535204689643878E-11, 3.99E-13
DataValue, -0.6, 5, 0, 3.8740000000000007E-12, -2.478E-12, -3.13E-12, 3.8740000000000007E-12, 1.9682479518597245E-06, 7.0305435727185948E-12, 3.13E-12
DataValue, -0.55, 5, 0, 4.543E-12, -4.212E-12, -8.26E-13, 4.543E-12, 2.1314314438892938E-06, 2.8467709708906834E-11, 8.26E-13
DataValue, -0.5, 5, 0, 6.2590000000000007E-12, -5.6330000000000007E-12, 4.89E-13, 6.2590000000000007E-12, 2.5017993524661405E-06, 2.3514738721491587E-11, 4.89E-13
DataValue, -0.45, 5, 0, 2.711E-12, -4.091E-12, -3.695E-12, 2.711E-12, 1.6465114636709943E-06, 1.4225125836128178E-12, 3.695E-12
DataValue, -0.4, 5, 0, 6.8700000000000004E-12, -5.2840000000000005E-12, -7.578E-12, 6.8700000000000004E-12, 2.6210684844162314E-06, 8.5286701037966736E-11, 7.578E-12
DataValue, -0.35000000000000003, 5, 0, 6.605E-12, -2.23E-12, -9.912E-12, 6.605E-12, 2.5700194551792795E-06, 1.2950711131893165E-11, 9.912E-12
DataValue, -0.3, 5, 0, 8.886E-12, 3.684E-12, -2.4623E-11, 8.886E-12, 2.9809394492340835E-06, 5.6213734225113767E-13, 2.4623E-11
DataValue, -0.25, 5, 0, 6.9960000000000005E-12, -6.5460000000000006E-12, 1.2730000000000001E-12, 6.9960000000000005E-12, 2.6449952740978574E-06, 9.925101521277451E-11, 1.2730000000000001E-12
DataValue, -0.2, 5, 0, 3.939E-12, -7.866E-12, 4.907E-12, 3.939E-12, 1.9846914117816904E-06, 2.0505071971956791E-12, 4.907E-12
DataValue, -0.15, 5, 0, 6.2590000000000007E-12, 9.938E-12, 1.4402000000000001E-11, 6.2590000000000007E-12, 2.5017993524661405E-06, 5.9504680083136771E-11, 1.4402000000000001E-11
DataValue, -0.1, 5, 0, 7.5960000000000012E-12, -2.0570000000000002E-12, 2.8930000000000003E-12, 7.5960000000000012E-12, 2.7560841786854044E-06, 2.1566647592889452E-11, 2.8930000000000003E-12
DataValue, -0.05, 5, 0, 4.151E-12, -4.252E-12, -6.7430000000000007E-12, 4.151E-12, 2.0374003043093915E-06, 1.6981226533692263E-14, 6.7430000000000007E-12
DataValue, 0, 5, 0, 7.668E-12, -3.501E-12, -7.5540000000000011E-12, 7.668E-12, 2.7691153822114385E-06, 2.235199565135779E-11, 7.5540000000000011E-12
DataValue, 0.05, 5, 0, 6.3010000000000007E-12, -3.6200000000000003E-12, 4.7450000000000005E-12, 6.3010000000000007E-12, 2.5101792764661255E-06, 1.448572732223667E-11, 4.7450000000000005E-12
DataValue, 0.1, 5, 0, 5.7050000000000004E-12, -4.975E-12, 1.174E-12, 5.7050000000000004E-12, 2.3885141824992375E-06, 6.2718489041359959E-12, 1.174E-12
DataValue, 0.15, 5, 0, 7.621E-12, -7.2170000000000004E-12, 3.5290000000000004E-12, 7.621E-12, 2.7606158733152281E-06, 1.6182049820443082E-10, 3.5290000000000004E-12
DataValue, 0.2, 5, 0, 1.34E-11, -1.3962E-11, 3.8030000000000007E-12, 1.34E-11, 3.6606010435446255E-06, 4.055792440405924E-10, 3.8030000000000007E-12
DataValue, 0.25, 5, 0, 2.2796000000000003E-11, -3.4172E-11, -6.534E-12, 2.2796000000000003E-11, 4.7745156822446406E-06, 1.1578742265493771E-09, 6.534E-12
DataValue, 0.3, 5, 0, 4.9891000000000004E-11, -4.8391E-11, 8.6300000000000006E-13, 4.9891000000000004E-11, 7.0633561427978419E-06, 3.0473052576180055E-09, 8.6300000000000006E-13
DataValue, 0.35000000000000003, 5, 0, 1.0598200000000001E-10, -9.9305000000000013E-11, 1.5030000000000002E-12, 1.0598200000000001E-10, 1.0294755946597278E-05, 5.3489320847126843E-09, 1.5030000000000002E-12
DataValue, 0.4, 5, 0, 2.06698E-10, -1.96486E-10, -1.0119E-11, 2.06698E-10, 1.4376995513666964E-05, 8.3935485868921046E-09, 1.0119E-11
DataValue, 0.45, 5, 0, 3.78551E-10, -3.5077900000000005E-10, 8.5500000000000009E-13, 3.78551E-10, 1.9456387126082785E-05, 1.2582301459373987E-08, 8.5500000000000009E-13
DataValue, 0.5, 5, 0, 6.5505700000000009E-10, -6.2997100000000006E-10, 3.673E-12, 6.5505700000000009E-10, 2.5594081347061475E-05, 1.6817667081655414E-08, 3.673E-12
DataValue, 0.55, 5, 0, 1.05136E-09, -9.73563E-10, -5.085E-12, 1.05136E-09, 3.2424681956805682E-05, 2.0190450398197513E-08, 5.085E-12
DataValue, 0.6, 5, 0, 1.58431E-09, -1.52467E-09, -5.724E-12, 1.58431E-09, 3.9803391815271219E-05, 2.7381482108867405E-08, 5.724E-12
DataValue, 0.65, 5, 0, 2.39826E-09, -2.35818E-09, -1.8950000000000003E-12, 2.39826E-09, 4.8972032835078431E-05, 3.5046802392012525E-08, 1.8950000000000003E-12
DataValue, 0.70000000000000007, 5, 0, 3.42508E-09, -3.44541E-09, -2.122E-12, 3.42508E-09, 5.8524183035733187E-05, 4.0098595686445361E-08, 2.122E-12
DataValue, 0.75, 5, 0, 4.76054E-09, -4.73428E-09, 9.32E-13, 4.76054E-09, 6.8996666586147474E-05, 4.4081630345401876E-08, 9.32E-13
DataValue, 0.8, 5, 0, 6.3234E-09, -6.27443E-09, -1.7370000000000002E-12, 6.3234E-09, 7.9519808852888973E-05, 4.4749108574311037E-08, 1.7370000000000002E-12
DataValue, 0.85000000000000009, 5, 0, 8.12714E-09, -8.19087E-09, 2.3000000000000003E-14, 8.12714E-09, 9.0150651689269561E-05, 4.5158688260958537E-08, 2.3000000000000003E-14
DataValue, 0.9, 5, 0, 1.015467E-08, -9.96658E-09, -1.694E-12, 1.015467E-08, 0.00010077038255360551, 3.7652908317561384E-08, 1.694E-12
DataValue, 0.95000000000000007, 5, 0, 1.2002299999999999E-08, -1.1309799999999999E-08, -4.89E-13, 1.2002299999999999E-08, 0.00010955500901373701, 3.3147685921353195E-08, 4.89E-13
DataValue, 1, 5, 0, 1.4155499999999999E-08, -1.4197899999999999E-08, -2.277E-12, 1.4155499999999999E-08, 0.00011897688851201312, 3.6440757096382708E-08, 2.277E-12
DataValue, 1.05, 5, 0, 1.65494E-08, -1.6705499999999997E-08, -2.435E-12, 1.65494E-08, 0.00012864447131532704, 4.0859077334983469E-08, 2.435E-12
DataValue, 1.1, 5, 0, 1.9374E-08, -1.95908E-08, 2.0030000000000002E-12, 1.9374E-08, 0.00013919051691835906, 5.4677206648063618E-08, 2.0030000000000002E-12
DataValue, 1.1500000000000001, 5, 0, 2.3112399999999997E-08, -2.26649E-08, -3.31E-13, 2.3112399999999997E-08, 0.000152027629067877, 4.5907807732586194E-08, 3.31E-13
DataValue, 1.2, 5, 0, 2.5797699999999997E-08, -2.6319099999999998E-08, 1.884E-12, 2.5797699999999997E-08, 0.00016061662429524534, 4.9881041353968006E-08, 1.884E-12
DataValue, 1.25, 5, 0, 3.0401999999999997E-08, -2.9587099999999998E-08, -1.5000000000000002E-13, 3.0401999999999997E-08, 0.00017436169304064467, 3.4678050068586095E-08, 1.5000000000000002E-13
DataValue, 1.3, 5, 0, 3.21265E-08, -3.22371E-08, -1.088E-12, 3.21265E-08, 0.00017923866770314936, 4.2243239274937137E-08, 1.088E-12
DataValue, 1.35, 5, 0, 3.7991799999999996E-08, -3.54816E-08, -1.285E-12, 3.7991799999999996E-08, 0.00019491485320518803, 6.5507510759260325E-08, 1.285E-12
DataValue, 1.4000000000000001, 5, 0, 4.1956599999999995E-08, -4.1808399999999995E-08, -1.9600000000000002E-13, 4.1956599999999995E-08, 0.00020483310279346937, 6.9090418884091446E-08, 1.9600000000000002E-13
DataValue, 1.4500000000000002, 5, 0, 4.8929399999999996E-08, -4.76289E-08, -8.43E-13, 4.8929399999999996E-08, 0.00022119990958406832, 5.1979698283817271E-08, 8.43E-13
DataValue, 1.5, 5, 0, 5.1816399999999994E-08, -5.0628099999999994E-08, 1.6800000000000002E-13, 5.1816399999999994E-08, 0.00022763215941514061, 4.3739149037808709E-08, 1.6800000000000002E-13
DataValue, 1.55, 5, 0, 5.8619099999999996E-08, -5.7304999999999996E-08, -6.81E-13, 5.8619099999999996E-08, 0.00024211381621047569, 1.0983080034975542E-07, 6.81E-13
DataValue, 1.6, 5, 0, 6.800249999999999E-08, -6.6961E-08, 5E-14, 6.800249999999999E-08, 0.00026077288969522883, 1.196492863380285E-07, 5E-14
DataValue, 1.6500000000000001, 5, 0, 7.65652E-08, -7.5286499999999991E-08, -9.1E-14, 7.65652E-08, 0.00027670417416439527, 6.5345431614812044E-08, 9.1E-14
DataValue, 1.7000000000000002, 5, 0, 8.19881E-08, -8.20727E-08, 1.5470000000000002E-12, 8.19881E-08, 0.00028633564221032629, 4.87963773997032E-08, 1.5470000000000002E-12
DataValue, 1.75, 5, 0, 8.92779E-08, -8.7776399999999987E-08, -1.734E-12, 8.92779E-08, 0.00029879407624650126, 8.8804525276206463E-08, 1.734E-12
DataValue, 1.8, 5, 0, 9.9941799999999985E-08, -9.874379999999999E-08, 2.198E-12, 9.9941799999999985E-08, 0.00031613573034378761, 1.0418966150269421E-07, 2.198E-12
DataValue, 1.85, 5, 0, 1.09609E-07, -1.1127389999999999E-07, 2.9310000000000003E-12, 1.09609E-07, 0.00033107249961300019, 1.0598069783687537E-07, 2.9310000000000003E-12
DataValue, 1.9000000000000001, 5, 0, 1.2158499999999999E-07, -1.20783E-07, 7.54E-13, 1.2158499999999999E-07, 0.00034869040709488983, 1.0760927724623369E-07, 7.54E-13
DataValue, 1.9500000000000002, 5, 0, 1.32406E-07, -1.32777E-07, -4.46E-13, 1.32406E-07, 0.00036387635262544887, 1.2065163471630179E-07, 4.46E-13
DataValue, 2, 5, 0, 1.47015E-07, -1.45314E-07, -3.89E-13, 1.47015E-07, 0.00038342535127453426, 8.9630327999298856E-08, 3.89E-13
DataValue, 2.05, 5, 0, 1.5509E-07, -1.55118E-07, -1.6E-14, 1.5509E-07, 0.00039381467722775389, 9.2780541803386151E-08, 1.6E-14
DataValue, 2.1, 5, 0, 1.71301E-07, -1.73914E-07, 6.4900000000000006E-13, 1.71301E-07, 0.00041388524979757375, 1.7099843909558628E-07, 6.4900000000000006E-13
DataValue, 2.15, 5, 0, 1.8937E-07, -1.88172E-07, 2.917E-12, 1.8937E-07, 0.00043516663475041376, 1.1966956621950658E-07, 2.917E-12
DataValue, 2.2, 5, 0, 2.01133E-07, -2.00917E-07, 1.2500000000000001E-12, 2.01133E-07, 0.00044847853906290769, 1.4111929163017436E-07, 1.2500000000000001E-12
DataValue, 2.25, 5, 0, 2.23476E-07, -2.24625E-07, 3.522E-12, 2.23476E-07, 0.00047273248248877507, 2.4329196072707034E-07, 3.522E-12
