
SetupTitle, Transfer sat
PrimitiveTest, I/V Sweep
TestParameter, Context.MainFrame, 4155C
TestParameter, Channel.UnitType, SMU, SMU, SMU
TestParameter, Channel.Unit, SMU3:MP, SMU1:MP, SMU4:MP
TestParameter, Channel.IName, ID, IS, IG
TestParameter, Channel.VName, VD, VS, VG
TestParameter, Channel.Mode, V, COMMON, V
TestParameter, Channel.Func, CONST, CONST, VAR1
TestParameter, Channel.Index, 
TestParameter, Channel.Time, 
TestParameter, Measurement.Port.Unit, SMU3:MP, SMU1:MP, SMU4:MP
TestParameter, Measurement.Port.SeriesResistor, NONE, NONE, NONE
TestParameter, Measurement.Port.Filter, ON, ON, ON
TestParameter, Measurement.Primary.Locus, Double
TestParameter, Measurement.Primary.Scale, LINEAR
TestParameter, Measurement.Primary.Start, -2
TestParameter, Measurement.Primary.Stop, 3
TestParameter, Measurement.Primary.Step, 0.05
TestParameter, Measurement.Primary.Compliance, 0.001
TestParameter, Measurement.Primary.PowerCompliance, 0
TestParameter, Measurement.Aborting.Condition, CONTINUE AT ANY
TestParameter, Measurement.PostOutput.Value, START
TestParameter, Measurement.PostOutput.Retention, OFF
TestParameter, Measurement.Bias.Source, 5, 0, -2
TestParameter, Measurement.Bias.Compliance, 0.001, 0.1, 0.001
TestParameter, Measurement.Monitor.Unit, SMU3:MP, SMU1:MP, SMU4:MP
TestParameter, Measurement.Monitor.Adc, HR ADC, HR ADC, HR ADC
TestParameter, Measurement.Monitor.RangingMode, AUTO, AUTO, AUTO
TestParameter, Measurement.Monitor.RangeBoundary, , , 
TestParameter, Measurement.Monitor.RangeRating, BY FULL RANGE, BY FULL RANGE, BY FULL RANGE
TestParameter, Measurement.Monitor.RangeRatingCoeff, 50, 50, 50
TestParameter, Measurement.Timing.Hold, 0.5
TestParameter, Measurement.Timing.Delay, 0.05
TestParameter, Measurement.Adc.HighResolution.AutoZero, OFF
TestParameter, Measurement.Adc.HighResolution.Mode, AUTO
TestParameter, Measurement.Adc.HighResolution.Coeff, 1
TestParameter, Measurement.Ag16440ASelector.SemiconductorRelay.Channel1, DEFAULT
TestParameter, Measurement.Ag16440ASelector.SemiconductorRelay.Channel3, DEFAULT
TestParameter, Function.User.Name, absID, sqrtID, gm2, absIG
TestParameter, Function.User.Unit, A, A, A/V, A
TestParameter, Function.User.Definition, abs(ID), sqrt(abs(ID)), (delta(sqrtID)/delta(VG))^2, abs(IG)
TestParameter, Output.Graph.Enabled, true
TestParameter, Output.Graph.XAxis.Data, VG
TestParameter, Output.Graph.XAxis.Scale, Linear
TestParameter, Output.Graph.XAxis.Left, -5
TestParameter, Output.Graph.XAxis.Right, 7
TestParameter, Output.Graph.YAxis.Data, ID, absIG, gm2
TestParameter, Output.Graph.YAxis.Scale, Log, Log, Linear
TestParameter, Output.Graph.YAxis.Bottom, 1E-14, 1E-14, 0
TestParameter, Output.Graph.YAxis.Top, 0.01, 0.01, 1E-05
TestParameter, Output.Graph.YAxis.Group, , , 
TestParameter, Output.List.Data, VG, IG, VD, ID, VS, IS, sqrtID, gm2, absIG
TestParameter, AutoAnalysis.Interpolation, false
TestParameter, AutoAnalysis.Line1.Enabled, false
TestParameter, AutoAnalysis.Line1.Type, 1
TestParameter, AutoAnalysis.Line1.Fix, True
TestParameter, AutoAnalysis.Line1.YAxis, 0
TestParameter, AutoAnalysis.Line1.Point1.Type, 0
TestParameter, AutoAnalysis.Line1.Point1.XY.X, 
TestParameter, AutoAnalysis.Line1.Point1.XY.Y, 
TestParameter, AutoAnalysis.Line1.Point1.Data.Var, 
TestParameter, AutoAnalysis.Line1.Point1.Data.Condition, 
TestParameter, AutoAnalysis.Line1.Point1.Data.Start, false
TestParameter, AutoAnalysis.Line1.Point1.Data.StartVar, 
TestParameter, AutoAnalysis.Line1.Point1.Data.StartCondition, 
TestParameter, AutoAnalysis.Line1.Point2.Type, 0
TestParameter, AutoAnalysis.Line1.Point2.XY.X, 
TestParameter, AutoAnalysis.Line1.Point2.XY.Y, 
TestParameter, AutoAnalysis.Line1.Point2.Data.Var, 
TestParameter, AutoAnalysis.Line1.Point2.Data.Condition, 
TestParameter, AutoAnalysis.Line1.Point2.Data.Start, false
TestParameter, AutoAnalysis.Line1.Point2.Data.StartVar, 
TestParameter, AutoAnalysis.Line1.Point2.Data.StartCondition, 
TestParameter, AutoAnalysis.Line1.GradientExpr, 0
TestParameter, AutoAnalysis.Line2.Enabled, false
TestParameter, AutoAnalysis.Line2.Type, 1
TestParameter, AutoAnalysis.Line2.Fix, True
TestParameter, AutoAnalysis.Line2.YAxis, 0
TestParameter, AutoAnalysis.Line2.Point1.Type, 0
TestParameter, AutoAnalysis.Line2.Point1.XY.X, 
TestParameter, AutoAnalysis.Line2.Point1.XY.Y, 
TestParameter, AutoAnalysis.Line2.Point1.Data.Var, 
TestParameter, AutoAnalysis.Line2.Point1.Data.Condition, 
TestParameter, AutoAnalysis.Line2.Point1.Data.Start, false
TestParameter, AutoAnalysis.Line2.Point1.Data.StartVar, 
TestParameter, AutoAnalysis.Line2.Point1.Data.StartCondition, 
TestParameter, AutoAnalysis.Line2.Point2.Type, 0
TestParameter, AutoAnalysis.Line2.Point2.XY.X, 
TestParameter, AutoAnalysis.Line2.Point2.XY.Y, 
TestParameter, AutoAnalysis.Line2.Point2.Data.Var, 
TestParameter, AutoAnalysis.Line2.Point2.Data.Condition, 
TestParameter, AutoAnalysis.Line2.Point2.Data.Start, false
TestParameter, AutoAnalysis.Line2.Point2.Data.StartVar, 
TestParameter, AutoAnalysis.Line2.Point2.Data.StartCondition, 
TestParameter, AutoAnalysis.Line2.GradientExpr, 0
TestParameter, AutoAnalysis.Marker.Enabled, false
TestParameter, AutoAnalysis.Marker.Data.Var, 
TestParameter, AutoAnalysis.Marker.Data.Condition, 
TestParameter, AutoAnalysis.Marker.Data.Start, false
TestParameter, AutoAnalysis.Marker.Data.StartVar, 
TestParameter, AutoAnalysis.Marker.Data.StartCondition, 
MetaData, TestRecord.EntryPoint, true
MetaData, TestRecord.RecordTime, 05/02/2019 10:31:45
MetaData, TestRecord.TestTarget, 250-300-50-10
MetaData, TestRecord.IterationIndex, 2
MetaData, TestRecord.Preservation, true
MetaData, TestRecord.Flag, 
MetaData, TestRecord.Remarks, bad
MetaData, TestRecord.LinkKey, b039e35f-5b6b-4fc2-aaee-486ecf7ce33d
Dimension1, 202, 202, 202, 202, 202, 202, 202, 202, 202, 202
Dimension2, 1, 1, 1, 1, 1, 1, 1, 1, 1, 1
DataName, VG, VD, VS, ID, IS, IG, absID, sqrtID, gm2, absIG
DataValue, -2, 5, 0, 6.5598000000000007E-11, -1.075E-11, -5.0964000000000006E-11, 6.5598000000000007E-11, 8.0992592253859856E-06, 3.7620874466088206E-14, 5.0964000000000006E-11
DataValue, -1.9500000000000002, 5, 0, 6.5441E-11, -1.0428E-11, -4.9279E-11, 6.5441E-11, 8.0895611747486039E-06, 3.79429807797827E-13, 4.9279E-11
DataValue, -1.9000000000000001, 5, 0, 6.460400000000001E-11, -8.734E-12, -5.2200000000000005E-11, 6.460400000000001E-11, 8.03766135141311E-06, 1.2645176471540138E-12, 5.2200000000000005E-11
DataValue, -1.85, 5, 0, 6.7273E-11, -8.799E-12, -5.2166000000000004E-11, 6.7273E-11, 8.2020119482965887E-06, 1.6196032267316074E-12, 5.2166000000000004E-11
DataValue, -1.8, 5, 0, 6.6666E-11, -1.3377000000000002E-11, -4.9446000000000006E-11, 6.6666E-11, 8.1649249843461522E-06, 3.1280865505280735E-12, 4.9446000000000006E-11
DataValue, -1.75, 5, 0, 6.4403E-11, -1.4846E-11, -4.7845000000000004E-11, 6.4403E-11, 8.0251479737136319E-06, 6.4828928535407992E-12, 4.7845000000000004E-11
DataValue, -1.7000000000000002, 5, 0, 6.257300000000001E-11, -1.6637E-11, -4.7836000000000004E-11, 6.257300000000001E-11, 7.910309728449323E-06, 4.825428492224383E-12, 4.7836000000000004E-11
DataValue, -1.6500000000000001, 5, 0, 6.7977000000000007E-11, -1.675E-11, -4.7592000000000005E-11, 6.7977000000000007E-11, 8.2448165534473838E-06, 2.8317566365012418E-11, 4.7592000000000005E-11
DataValue, -1.6, 5, 0, 7.1275000000000007E-11, -1.9056E-11, -4.7423E-11, 7.1275000000000007E-11, 8.44245225038318E-06, 8.1032307608511916E-12, 4.7423E-11
DataValue, -1.55, 5, 0, 7.2752000000000012E-11, -2.083E-11, -4.6411000000000007E-11, 7.2752000000000012E-11, 8.5294782958865673E-06, 4.5225060218050262E-12, 4.6411000000000007E-11
DataValue, -1.5, 5, 0, 7.4911000000000011E-11, -2.6291000000000003E-11, -4.8603000000000005E-11, 7.4911000000000011E-11, 8.6551140951462923E-06, 8.0933361946701729E-12, 4.8603000000000005E-11
DataValue, -1.4500000000000002, 5, 0, 7.768600000000001E-11, -2.7099000000000003E-11, -4.4667000000000006E-11, 7.768600000000001E-11, 8.8139661900871844E-06, 8.07589425495134E-12, 4.4667000000000006E-11
DataValue, -1.4000000000000001, 5, 0, 7.9911000000000007E-11, -3.0913E-11, -4.4051E-11, 7.9911000000000007E-11, 8.9392952742372257E-06, 6.4852249835263675E-12, 4.4051E-11
DataValue, -1.35, 5, 0, 8.224E-11, -3.5896000000000005E-11, -4.4528E-11, 8.224E-11, 9.0686272390037076E-06, 2.5739827926150463E-11, 4.4528E-11
DataValue, -1.3, 5, 0, 8.9239000000000011E-11, -3.8776000000000005E-11, -4.243E-11, 8.9239000000000011E-11, 9.4466396141696872E-06, 2.3625186981649377E-11, 4.243E-11
DataValue, -1.25, 5, 0, 9.1292E-11, -4.5113000000000006E-11, -4.3047E-11, 9.1292E-11, 9.55468471484015E-06, 2.8381097424919091E-11, 4.3047E-11
DataValue, -1.2, 5, 0, 9.9588000000000011E-11, -5.1914000000000007E-11, -4.3152000000000005E-11, 9.9588000000000011E-11, 9.9793787381780441E-06, 4.8295470326872813E-11, 4.3152000000000005E-11
DataValue, -1.1500000000000001, 5, 0, 1.05055E-10, -5.8064000000000006E-11, -4.1773E-11, 1.05055E-10, 1.0249634139812016E-05, 4.2945556358251055E-11, 4.1773E-11
DataValue, -1.1, 5, 0, 1.13097E-10, -6.7432000000000011E-11, -4.1011000000000004E-11, 1.13097E-10, 1.0634707330246565E-05, 5.9630490416253586E-11, 4.1011000000000004E-11
DataValue, -1.05, 5, 0, 1.21481E-10, -7.7726E-11, -3.9149000000000006E-11, 1.21481E-10, 1.102184195132556E-05, 6.1027753403283426E-11, 3.9149000000000006E-11
DataValue, -1, 5, 0, 1.3032300000000002E-10, -8.9094000000000008E-11, -3.9365000000000004E-11, 1.3032300000000002E-10, 1.1415909950590887E-05, 6.7397822906023712E-11, 3.9365000000000004E-11
DataValue, -0.95000000000000007, 5, 0, 1.40252E-10, -1.0092600000000001E-10, -3.8066E-11, 1.40252E-10, 1.1842803722092163E-05, 1.4975637075089426E-10, 3.8066E-11
DataValue, -0.9, 5, 0, 1.59761E-10, -1.1499600000000001E-10, -3.7398000000000004E-11, 1.59761E-10, 1.2639659805548567E-05, 1.4375417643945033E-10, 3.7398000000000004E-11
DataValue, -0.85000000000000009, 5, 0, 1.70088E-10, -1.28646E-10, -3.6926E-11, 1.70088E-10, 1.3041779019750335E-05, 1.1061241011002317E-10, 3.6926E-11
DataValue, -0.8, 5, 0, 1.8745400000000002E-10, -1.4096200000000001E-10, -3.6534000000000004E-11, 1.8745400000000002E-10, 1.3691384152086304E-05, 1.5244103017720383E-10, 3.6534000000000004E-11
DataValue, -0.75, 5, 0, 2.0381700000000003E-10, -1.6026200000000002E-10, -3.5866000000000006E-11, 2.0381700000000003E-10, 1.4276449138353698E-05, 1.5208473427955402E-10, 3.5866000000000006E-11
DataValue, -0.70000000000000007, 5, 0, 2.22744E-10, -1.8360900000000002E-10, -3.5302E-11, 2.22744E-10, 1.4924610547682644E-05, 1.7507689026988443E-10, 3.5302E-11
DataValue, -0.65, 5, 0, 2.4334800000000003E-10, -1.9319400000000002E-10, -3.4571000000000005E-11, 2.4334800000000003E-10, 1.5599615379873955E-05, 1.683436615392098E-10, 3.4571000000000005E-11
DataValue, -0.6, 5, 0, 2.63156E-10, -2.2137100000000002E-10, -3.3985E-11, 2.63156E-10, 1.6222083713259528E-05, 1.6642445350651369E-10, 3.3985E-11
DataValue, -0.55, 5, 0, 2.85261E-10, -2.41025E-10, -3.3186E-11, 2.85261E-10, 1.6889671400000653E-05, 1.3637531088806766E-10, 3.3186E-11
DataValue, -0.5, 5, 0, 3.0240800000000003E-10, -2.64392E-10, -3.3295E-11, 3.0240800000000003E-10, 1.7389882115759153E-05, 2.8137484215663065E-10, 3.3295E-11
DataValue, -0.45, 5, 0, 3.44737E-10, -3.0534500000000005E-10, -3.2482000000000005E-11, 3.44737E-10, 1.8567094549228751E-05, 3.575546060212007E-10, 3.2482000000000005E-11
DataValue, -0.4, 5, 0, 3.7174900000000003E-10, -3.3707300000000003E-10, -3.2767E-11, 3.7174900000000003E-10, 1.9280793552133688E-05, 3.69793138038616E-10, 3.2767E-11
DataValue, -0.35000000000000003, 5, 0, 4.1984400000000005E-10, -3.87476E-10, -3.1018E-11, 4.1984400000000005E-10, 2.0490095168153809E-05, 8.1895826960290252E-10, 3.1018E-11
DataValue, -0.3, 5, 0, 4.9029200000000009E-10, -4.5991100000000003E-10, -2.9727000000000004E-11, 4.9029200000000009E-10, 2.2142538246551593E-05, 1.9618830813114638E-09, 2.9727000000000004E-11
DataValue, -0.25, 5, 0, 6.20977E-10, -5.7176E-10, -2.7621000000000003E-11, 6.20977E-10, 2.4919410105377697E-05, 4.3752243084097921E-09, 2.7621000000000003E-11
DataValue, -0.2, 5, 0, 8.2697000000000009E-10, -7.69444E-10, -2.8212000000000003E-11, 8.2697000000000009E-10, 2.8757086083259549E-05, 8.8660949842103119E-09, 2.8212000000000003E-11
DataValue, -0.15, 5, 0, 1.1789199999999999E-09, -1.10596E-09, -2.972E-11, 1.1789199999999999E-09, 3.4335404468274434E-05, 2.0755886954515894E-08, 2.972E-11
DataValue, -0.1, 5, 0, 1.86313E-09, -1.8207E-09, -2.8006000000000003E-11, 1.86313E-09, 4.31639896209792E-05, 4.813280646518425E-08, 2.8006000000000003E-11
DataValue, -0.05, 5, 0, 3.16683E-09, -3.07185E-09, -2.6688000000000003E-11, 3.16683E-09, 5.6274594623151218E-05, 8.5956178104623977E-08, 2.6688000000000003E-11
DataValue, 0, 5, 0, 5.25368E-09, -5.11951E-09, -2.5458E-11, 5.25368E-09, 7.2482273695021455E-05, 1.2552606856346939E-07, 2.5458E-11
DataValue, 0.05, 5, 0, 8.40967E-09, -8.24316E-09, -2.5979E-11, 8.40967E-09, 9.17042529002881E-05, 1.4739094560023038E-07, 2.5979E-11
DataValue, 0.1, 5, 0, 1.2293E-08, -1.1887499999999998E-08, -2.4963000000000003E-11, 1.2293E-08, 0.00011087380213558115, 2.0632875233854538E-07, 2.4963000000000003E-11
DataValue, 0.15, 5, 0, 1.8803999999999998E-08, -1.8507299999999998E-08, -2.4235E-11, 1.8803999999999998E-08, 0.00013712767773137557, 3.09185204277131E-07, 2.4235E-11
DataValue, 0.2, 5, 0, 2.7714999999999997E-08, -2.7364499999999997E-08, -2.3286000000000002E-11, 2.7714999999999997E-08, 0.00016647822680458847, 3.58664024816056E-07, 2.3286000000000002E-11
DataValue, 0.25, 5, 0, 3.8815399999999996E-08, -3.8296999999999995E-08, -2.3298000000000002E-11, 3.8815399999999996E-08, 0.00019701624298519143, 4.0294658015315645E-07, 2.3298000000000002E-11
DataValue, 0.3, 5, 0, 5.2879899999999996E-08, -5.1995799999999994E-08, -2.3428000000000002E-11, 5.2879899999999996E-08, 0.00022995630019636339, 4.428355995079226E-07, 2.3428000000000002E-11
DataValue, 0.35000000000000003, 5, 0, 6.9465E-08, -6.8926899999999987E-08, -2.1051000000000003E-11, 6.9465E-08, 0.000263562136886162, 4.7849644615106163E-07, 2.1051000000000003E-11
DataValue, 0.4, 5, 0, 8.94786E-08, -8.8560399999999989E-08, -2.0556000000000002E-11, 8.94786E-08, 0.0002991297377393294, 4.4968412996051925E-07, 2.0556000000000002E-11
DataValue, 0.45, 5, 0, 1.0931E-07, -1.06717E-07, -2.0889000000000003E-11, 1.0931E-07, 0.00033062062851552381, 4.4979731979023254E-07, 2.0889000000000003E-11
DataValue, 0.5, 5, 0, 1.341E-07, -1.3262E-07, -1.9518000000000003E-11, 1.341E-07, 0.00036619666847201109, 5.2949318727217946E-07, 1.9518000000000003E-11
DataValue, 0.55, 5, 0, 1.62721E-07, -1.60845E-07, -1.9359000000000003E-11, 1.62721E-07, 0.00040338691104199205, 5.5870599732517107E-07, 1.9359000000000003E-11
DataValue, 0.6, 5, 0, 1.94431E-07, -1.92415E-07, -1.9198E-11, 1.94431E-07, 0.00044094330701349808, 5.4570618325418411E-07, 1.9198E-11
DataValue, 0.65, 5, 0, 2.27776E-07, -2.25396E-07, -1.7946E-11, 2.27776E-07, 0.0004772588396247889, 5.096473927918852E-07, 1.7946E-11
DataValue, 0.70000000000000007, 5, 0, 2.62485E-07, -2.59402E-07, -1.6960000000000002E-11, 2.62485E-07, 0.00051233289958775823, 4.7882267514804544E-07, 1.6960000000000002E-11
DataValue, 0.75, 5, 0, 2.98614E-07, -2.9462E-07, -1.7301E-11, 2.98614E-07, 0.00054645585366065936, 4.5155638320972071E-07, 1.7301E-11
DataValue, 0.8, 5, 0, 3.35856E-07, -3.32957E-07, -1.5947E-11, 3.35856E-07, 0.00057953084473563613, 4.3396152081724916E-07, 1.5947E-11
DataValue, 0.85000000000000009, 5, 0, 3.7495E-07, -3.70563E-07, -1.5288000000000002E-11, 3.7495E-07, 0.00061233160950582973, 4.1697963618594858E-07, 1.5288000000000002E-11
DataValue, 0.9, 5, 0, 4.14871E-07, -4.09366E-07, -1.5465000000000002E-11, 4.14871E-07, 0.00064410480513655535, 3.8075664424229529E-07, 1.5465000000000002E-11
DataValue, 0.95000000000000007, 5, 0, 4.54326E-07, -4.47914E-07, -1.3462E-11, 4.54326E-07, 0.000674037090967552, 4.22778476756306E-07, 1.3462E-11
DataValue, 1, 5, 0, 5.0285999999999994E-07, -4.9471699999999994E-07, -1.2893000000000002E-11, 5.0285999999999994E-07, 0.000709126222896883, 4.2074418861631096E-07, 1.2893000000000002E-11
DataValue, 1.05, 5, 0, 5.45976E-07, -5.36502E-07, -1.4014E-11, 5.45976E-07, 0.00073890188793912287, 3.2533619981000813E-07, 1.4014E-11
DataValue, 1.1, 5, 0, 5.87008E-07, -5.79999E-07, -1.1112E-11, 5.87008E-07, 0.0007661644732040242, 3.8943272779621336E-07, 1.1112E-11
DataValue, 1.1500000000000001, 5, 0, 6.42092E-07, -6.33828E-07, -1.0807000000000001E-11, 6.42092E-07, 0.00080130643327006924, 4.3382738818626743E-07, 1.0807000000000001E-11
DataValue, 1.2, 5, 0, 6.9227399999999994E-07, -6.82549E-07, -1.1211000000000001E-11, 6.9227399999999994E-07, 0.00083203004753434234, 3.6373046338863992E-07, 1.1211000000000001E-11
DataValue, 1.25, 5, 0, 7.42383E-07, -7.34771E-07, -9.9430000000000016E-12, 7.42383E-07, 0.00086161650402020507, 3.920235024582969E-07, 9.9430000000000016E-12
DataValue, 1.3, 5, 0, 8.00384E-07, -7.92883E-07, -8.691E-12, 8.00384E-07, 0.00089464182777243312, 4.561302044685152E-07, 8.691E-12
DataValue, 1.35, 5, 0, 8.63327E-07, -8.50112E-07, -8.5970000000000014E-12, 8.63327E-07, 0.00092915391620549065, 4.2329664220024265E-07, 8.5970000000000014E-12
DataValue, 1.4000000000000001, 5, 0, 9.2102999999999993E-07, -9.09507E-07, -6.539E-12, 9.2102999999999993E-07, 0.00095970307908227524, 3.6701062619611623E-07, 6.539E-12
DataValue, 1.4500000000000002, 5, 0, 9.7957599999999988E-07, -9.74034E-07, -7.1460000000000004E-12, 9.7957599999999988E-07, 0.00098973531815329282, 2.8028524263604231E-07, 7.1460000000000004E-12
DataValue, 1.5, 5, 0, 1.02545E-06, -1.00173E-06, -5.758E-12, 1.02545E-06, 0.0010126450513383257, 4.0108955212630083E-07, 5.758E-12
DataValue, 1.55, 5, 0, 1.1089500000000002E-06, -1.0961300000000002E-06, -6.1560000000000008E-12, 1.1089500000000002E-06, 0.0010530669494386387, 6.145172927803498E-07, 6.1560000000000008E-12
DataValue, 1.6, 5, 0, 1.19036E-06, -1.17416E-06, -4.323E-12, 1.19036E-06, 0.001091036204715499, 5.6833122698409294E-07, 4.323E-12
DataValue, 1.6500000000000001, 5, 0, 1.2734100000000002E-06, -1.2689900000000002E-06, -3.5770000000000002E-12, 1.2734100000000002E-06, 0.0011284546955903903, 5.8981478639544878E-07, 3.5770000000000002E-12
DataValue, 1.7000000000000002, 5, 0, 1.3638400000000002E-06, -1.3532600000000002E-06, -3.639E-12, 1.3638400000000002E-06, 0.0011678356048691102, 6.611274516564759E-07, 3.639E-12
DataValue, 1.75, 5, 0, 1.4635300000000002E-06, -1.45543E-06, -1.565E-12, 1.4635300000000002E-06, 0.0012097644398807565, 7.3669635621843136E-07, 1.565E-12
DataValue, 1.8, 5, 0, 1.5716800000000002E-06, -1.5493800000000002E-06, -8.3400000000000008E-13, 1.5716800000000002E-06, 0.0012536666223522106, 7.3102520318040353E-07, 8.3400000000000008E-13
DataValue, 1.85, 5, 0, 1.6777100000000001E-06, -1.6556500000000002E-06, 2.5E-13, 1.6777100000000001E-06, 0.0012952644517626507, 6.5752697042695453E-07, 2.5E-13
DataValue, 1.9000000000000001, 5, 0, 1.7815700000000003E-06, -1.7615200000000001E-06, 1.7490000000000001E-12, 1.7815700000000003E-06, 0.0013347546591040618, 6.3580476032728794E-07, 1.7490000000000001E-12
DataValue, 1.9500000000000002, 5, 0, 1.8906300000000001E-06, -1.8722300000000002E-06, 1.922E-12, 1.8906300000000001E-06, 0.0013750018181806162, 7.85939402078629E-07, 1.922E-12
DataValue, 2, 5, 0, 2.02609E-06, -2.00536E-06, 4.159E-12, 2.02609E-06, 0.00142340788251295, 9.2116704245514167E-07, 4.159E-12
DataValue, 2.05, 5, 0, 2.1637800000000002E-06, -2.13921E-06, 4.975E-12, 2.1637800000000002E-06, 0.001470979265659445, 9.0931603517846577E-07, 4.975E-12
DataValue, 2.1, 5, 0, 2.30665E-06, -2.28336E-06, 6.2400000000000009E-12, 2.30665E-06, 0.0015187659464183413, 9.4437365896704678E-07, 6.2400000000000009E-12
DataValue, 2.15, 5, 0, 2.4591200000000004E-06, -2.42057E-06, 8.4190000000000012E-12, 2.4591200000000004E-06, 0.0015681581552891917, 9.0479412332998145E-07, 8.4190000000000012E-12
DataValue, 2.2, 5, 0, 2.6046300000000004E-06, -2.5742600000000002E-06, 9.292E-12, 2.6046300000000004E-06, 0.0016138866131175389, 1.0002899739331621E-06, 9.292E-12
