
SetupTitle, Transfer lin
PrimitiveTest, I/V Sweep
TestParameter, Context.MainFrame, 4155C
TestParameter, Channel.UnitType, SMU, SMU, SMU
TestParameter, Channel.Unit, SMU3:MP, SMU1:MP, SMU4:MP
TestParameter, Channel.IName, ID, IS, IG
TestParameter, Channel.VName, VD, VS, VG
TestParameter, Channel.Mode, V, COMMON, V
TestParameter, Channel.Func, CONST, CONST, VAR1
TestParameter, Channel.Index, 
TestParameter, Channel.Time, 
TestParameter, Measurement.Port.Unit, SMU3:MP, SMU1:MP, SMU4:MP
TestParameter, Measurement.Port.SeriesResistor, NONE, NONE, NONE
TestParameter, Measurement.Port.Filter, ON, ON, ON
TestParameter, Measurement.Primary.Locus, Double
TestParameter, Measurement.Primary.Scale, LINEAR
TestParameter, Measurement.Primary.Start, -2
TestParameter, Measurement.Primary.Stop, 3
TestParameter, Measurement.Primary.Step, 0.05
TestParameter, Measurement.Primary.Compliance, 0.001
TestParameter, Measurement.Primary.PowerCompliance, 0
TestParameter, Measurement.Aborting.Condition, CONTINUE AT ANY
TestParameter, Measurement.PostOutput.Value, START
TestParameter, Measurement.PostOutput.Retention, OFF
TestParameter, Measurement.Bias.Source, 0.1, 0, -2
TestParameter, Measurement.Bias.Compliance, 0.001, 0.1, 0.001
TestParameter, Measurement.Monitor.Unit, SMU3:MP, SMU1:MP, SMU4:MP
TestParameter, Measurement.Monitor.Adc, HR ADC, HR ADC, HR ADC
TestParameter, Measurement.Monitor.RangingMode, AUTO, AUTO, AUTO
TestParameter, Measurement.Monitor.RangeBoundary, , , 
TestParameter, Measurement.Monitor.RangeRating, BY FULL RANGE, BY FULL RANGE, BY FULL RANGE
TestParameter, Measurement.Monitor.RangeRatingCoeff, 50, 50, 50
TestParameter, Measurement.Timing.Hold, 0.5
TestParameter, Measurement.Timing.Delay, 0.05
TestParameter, Measurement.Adc.HighResolution.AutoZero, OFF
TestParameter, Measurement.Adc.HighResolution.Mode, AUTO
TestParameter, Measurement.Adc.HighResolution.Coeff, 1
TestParameter, Measurement.Ag16440ASelector.SemiconductorRelay.Channel1, DEFAULT
TestParameter, Measurement.Ag16440ASelector.SemiconductorRelay.Channel3, DEFAULT
TestParameter, Function.User.Name, absID, sqrtID, gm2, absIG
TestParameter, Function.User.Unit, A, A, A/V, A
TestParameter, Function.User.Definition, abs(ID), sqrt(abs(ID)), (delta(sqrtID)/delta(VG))^2, abs(IG)
TestParameter, Output.Graph.Enabled, true
TestParameter, Output.Graph.XAxis.Data, VG
TestParameter, Output.Graph.XAxis.Scale, Linear
TestParameter, Output.Graph.XAxis.Left, -5
TestParameter, Output.Graph.XAxis.Right, 7
TestParameter, Output.Graph.YAxis.Data, ID, absIG, gm2
TestParameter, Output.Graph.YAxis.Scale, Log, Log, Linear
TestParameter, Output.Graph.YAxis.Bottom, 1E-14, 1E-14, 0
TestParameter, Output.Graph.YAxis.Top, 0.01, 0.01, 1E-05
TestParameter, Output.Graph.YAxis.Group, , , 
TestParameter, Output.List.Data, VG, IG, VD, ID, VS, IS, sqrtID, gm2, absIG
TestParameter, AutoAnalysis.Interpolation, false
TestParameter, AutoAnalysis.Line1.Enabled, false
TestParameter, AutoAnalysis.Line1.Type, 1
TestParameter, AutoAnalysis.Line1.Fix, True
TestParameter, AutoAnalysis.Line1.YAxis, 0
TestParameter, AutoAnalysis.Line1.Point1.Type, 0
TestParameter, AutoAnalysis.Line1.Point1.XY.X, 
TestParameter, AutoAnalysis.Line1.Point1.XY.Y, 
TestParameter, AutoAnalysis.Line1.Point1.Data.Var, 
TestParameter, AutoAnalysis.Line1.Point1.Data.Condition, 
TestParameter, AutoAnalysis.Line1.Point1.Data.Start, false
TestParameter, AutoAnalysis.Line1.Point1.Data.StartVar, 
TestParameter, AutoAnalysis.Line1.Point1.Data.StartCondition, 
TestParameter, AutoAnalysis.Line1.Point2.Type, 0
TestParameter, AutoAnalysis.Line1.Point2.XY.X, 
TestParameter, AutoAnalysis.Line1.Point2.XY.Y, 
TestParameter, AutoAnalysis.Line1.Point2.Data.Var, 
TestParameter, AutoAnalysis.Line1.Point2.Data.Condition, 
TestParameter, AutoAnalysis.Line1.Point2.Data.Start, false
TestParameter, AutoAnalysis.Line1.Point2.Data.StartVar, 
TestParameter, AutoAnalysis.Line1.Point2.Data.StartCondition, 
TestParameter, AutoAnalysis.Line1.GradientExpr, 0
TestParameter, AutoAnalysis.Line2.Enabled, false
TestParameter, AutoAnalysis.Line2.Type, 1
TestParameter, AutoAnalysis.Line2.Fix, True
TestParameter, AutoAnalysis.Line2.YAxis, 0
TestParameter, AutoAnalysis.Line2.Point1.Type, 0
TestParameter, AutoAnalysis.Line2.Point1.XY.X, 
TestParameter, AutoAnalysis.Line2.Point1.XY.Y, 
TestParameter, AutoAnalysis.Line2.Point1.Data.Var, 
TestParameter, AutoAnalysis.Line2.Point1.Data.Condition, 
TestParameter, AutoAnalysis.Line2.Point1.Data.Start, false
TestParameter, AutoAnalysis.Line2.Point1.Data.StartVar, 
TestParameter, AutoAnalysis.Line2.Point1.Data.StartCondition, 
TestParameter, AutoAnalysis.Line2.Point2.Type, 0
TestParameter, AutoAnalysis.Line2.Point2.XY.X, 
TestParameter, AutoAnalysis.Line2.Point2.XY.Y, 
TestParameter, AutoAnalysis.Line2.Point2.Data.Var, 
TestParameter, AutoAnalysis.Line2.Point2.Data.Condition, 
TestParameter, AutoAnalysis.Line2.Point2.Data.Start, false
TestParameter, AutoAnalysis.Line2.Point2.Data.StartVar, 
TestParameter, AutoAnalysis.Line2.Point2.Data.StartCondition, 
TestParameter, AutoAnalysis.Line2.GradientExpr, 0
TestParameter, AutoAnalysis.Marker.Enabled, false
TestParameter, AutoAnalysis.Marker.Data.Var, 
TestParameter, AutoAnalysis.Marker.Data.Condition, 
TestParameter, AutoAnalysis.Marker.Data.Start, false
TestParameter, AutoAnalysis.Marker.Data.StartVar, 
TestParameter, AutoAnalysis.Marker.Data.StartCondition, 
MetaData, TestRecord.EntryPoint, true
MetaData, TestRecord.RecordTime, 05/02/2019 18:32:55
MetaData, TestRecord.TestTarget, 350-300-100-10
MetaData, TestRecord.IterationIndex, 1
MetaData, TestRecord.Preservation, true
MetaData, TestRecord.Flag, 
MetaData, TestRecord.Remarks, good
MetaData, TestRecord.LinkKey, 4bd78932-8642-4e7c-aadf-d48caef932bb
Dimension1, 202, 202, 202, 202, 202, 202, 202, 202, 202, 202
Dimension2, 1, 1, 1, 1, 1, 1, 1, 1, 1, 1
DataName, VG, VD, VS, ID, IS, IG, absID, sqrtID, gm2, absIG
DataValue, -2, 0.1, 0, -1.072E-12, 4.7900000000000008E-13, -3.192E-12, 1.072E-12, 1.0353743284435828E-06, 1.2523908986760383E-12, 3.192E-12
DataValue, -1.9500000000000002, 0.1, 0, 1.191E-12, 8.6100000000000007E-13, -1.7580000000000002E-12, 1.191E-12, 1.0913294644606641E-06, 4.0444501615071226E-12, 1.7580000000000002E-12
DataValue, -1.9000000000000001, 0.1, 0, 6.9600000000000006E-13, 4.6200000000000005E-13, -4.69E-13, 6.9600000000000006E-13, 8.3426614458456847E-07, 4.0495015230855543E-11, 4.69E-13
DataValue, -1.85, 0.1, 0, 2.0700000000000003E-13, 9.8E-13, -7.6100000000000009E-13, 2.0700000000000003E-13, 4.5497252664309304E-07, 6.0605518451232345E-11, 7.6100000000000009E-13
DataValue, -1.8, 0.1, 0, -2.6010000000000003E-12, 1.811E-12, -1.4150000000000001E-12, 2.6010000000000003E-12, 1.6127616066858736E-06, 3.1516271701450049E-11, 1.4150000000000001E-12
DataValue, -1.75, 0.1, 0, 1.0330000000000001E-12, -1.75E-13, -2.457E-12, 1.0330000000000001E-12, 1.016366075781753E-06, 1.2631182669584926E-10, 2.457E-12
DataValue, -1.7000000000000002, 0.1, 0, 2.3900000000000004E-13, 6.7000000000000007E-13, -6.2360000000000005E-12, 2.3900000000000004E-13, 4.8887626246321274E-07, 2.8690476308073936E-12, 6.2360000000000005E-12
DataValue, -1.6500000000000001, 0.1, 0, 1.406E-12, 1.3230000000000001E-12, -9.49E-13, 1.406E-12, 1.1857487086225311E-06, 1.5950474958120786E-11, 9.49E-13
DataValue, -1.6, 0.1, 0, 7.8900000000000007E-13, -7.6400000000000008E-13, -1.7E-13, 7.8900000000000007E-13, 8.882567196480982E-07, 3.4501883167339867E-12, 1.7E-13
DataValue, -1.55, 0.1, 0, -1.881E-12, -1.06E-13, -4.867E-12, 1.881E-12, 1.3714955340794953E-06, 1.1487706768631939E-11, 4.867E-12
DataValue, -1.5, 0.1, 0, 1.506E-12, 2.6470000000000003E-12, -3.7000000000000004E-13, 1.506E-12, 1.2271919165313956E-06, 9.1325739394070653E-13, 3.7000000000000004E-13
DataValue, -1.4500000000000002, 0.1, 0, -1.6280000000000001E-12, 1.994E-12, -4.02E-12, 1.6280000000000001E-12, 1.2759310326189266E-06, 1.4563015344252468E-11, 4.02E-12
DataValue, -1.4000000000000001, 0.1, 0, 7.1500000000000008E-13, 2.5E-13, -3.317E-12, 7.1500000000000008E-13, 8.4557672626438817E-07, 8.6133339591939E-11, 3.317E-12
DataValue, -1.35, 0.1, 0, -1.2100000000000002E-13, 1.185E-12, 2.148E-12, 1.2100000000000002E-13, 3.4785054261852176E-07, 3.0279964075652965E-12, 2.148E-12
DataValue, -1.3, 0.1, 0, 4.5100000000000005E-13, 4.12E-13, -2.611E-12, 4.5100000000000005E-13, 6.7156533561523263E-07, 1.2967659839281998E-10, 2.611E-12
DataValue, -1.25, 0.1, 0, -2.21E-12, -3.4E-13, 7.4100000000000007E-13, 2.21E-12, 1.4866068747318505E-06, 3.1090132466161394E-13, 7.4100000000000007E-13
DataValue, -1.2, 0.1, 0, -5.2900000000000007E-13, 9.61E-13, 5.700000000000001E-14, 5.2900000000000007E-13, 7.2732386183872732E-07, 4.4549604806939685E-12, 5.700000000000001E-14
DataValue, -1.1500000000000001, 0.1, 0, 1.627E-12, 8.5200000000000011E-13, -9.61E-13, 1.627E-12, 1.2755391017134677E-06, 5.2308085879550564E-12, 9.61E-13
DataValue, -1.1, 0.1, 0, 9.1400000000000014E-13, 3.0900000000000005E-13, 2.4200000000000003E-13, 9.1400000000000014E-13, 9.5603347221736974E-07, 4.6660726480507308E-11, 2.4200000000000003E-13
DataValue, -1.05, 0.1, 0, 3.51E-13, 5.3100000000000006E-13, -2.6420000000000003E-12, 3.51E-13, 5.92452529743945E-07, 1.0166671226630264E-11, 2.6420000000000003E-12
DataValue, -1, 0.1, 0, 4.0600000000000004E-13, -1.034E-12, 1.63E-13, 4.0600000000000004E-13, 6.3718129288295966E-07, 7.41190042638981E-14, 1.63E-13
DataValue, -0.95000000000000007, 0.1, 0, 3.8400000000000003E-13, 7.78E-13, 2.9700000000000005E-13, 3.8400000000000003E-13, 6.1967733539318668E-07, 1.0293620946749898E-12, 2.9700000000000005E-13
DataValue, -0.9, 0.1, 0, 2.8700000000000004E-13, -3.14E-13, -1.2000000000000002E-13, 2.8700000000000004E-13, 5.35723809439155E-07, 7.0809967143412386E-11, 1.2000000000000002E-13
DataValue, -0.85000000000000009, 0.1, 0, 2.135E-12, 8.72E-13, 8.89E-13, 2.135E-12, 1.4611639196202458E-06, 5.259559592670566E-11, 8.89E-13
DataValue, -0.8, 0.1, 0, 1.59E-12, 8.8700000000000006E-13, -7.7770000000000013E-12, 1.59E-12, 1.2609520212918492E-06, 5.49735870129478E-11, 7.7770000000000013E-12
DataValue, -0.75, 0.1, 0, 5.18E-13, -1.318E-12, -3.059E-12, 5.18E-13, 7.1972216861786323E-07, 7.7468755084608056E-11, 3.059E-12
DataValue, -0.70000000000000007, 0.1, 0, 1.4500000000000001E-13, -1.3670000000000001E-12, 1.3630000000000002E-12, 1.4500000000000001E-13, 3.8078865529319543E-07, 1.6607549064654434E-13, 1.3630000000000002E-12
DataValue, -0.65, 0.1, 0, -4.6100000000000006E-13, 1.2440000000000002E-12, 7.29E-13, 4.6100000000000006E-13, 6.7896980787071825E-07, 6.7996478875967824E-13, 7.29E-13
DataValue, -0.6, 0.1, 0, -8.9000000000000012E-14, 1.433E-12, -2.811E-12, 8.9000000000000012E-14, 2.9832867780352596E-07, 4.7807764804653967E-11, 2.811E-12
DataValue, -0.55, 0.1, 0, -1.8780000000000003E-12, 2.1000000000000002E-14, 1.053E-12, 1.8780000000000003E-12, 1.3704014010500721E-06, 1.705756840142168E-11, 1.053E-12
DataValue, -0.5, 0.1, 0, 5.0600000000000007E-13, 4.7900000000000008E-13, -2.449E-12, 5.0600000000000007E-13, 7.1133676975114961E-07, 1.4853366746993421E-10, 2.449E-12
DataValue, -0.45, 0.1, 0, -2.3000000000000003E-14, -4.0500000000000004E-13, 1.7370000000000002E-12, 2.3000000000000003E-14, 1.5165750888103103E-07, 4.5066830576449831E-13, 1.7370000000000002E-12
DataValue, -0.4, 0.1, 0, 4.1500000000000005E-13, 1.4930000000000002E-12, -1.9870000000000003E-12, 4.1500000000000005E-13, 6.4420493633625633E-07, 1.3539289356123571E-11, 1.9870000000000003E-12
DataValue, -0.35000000000000003, 0.1, 0, -2.7E-13, -3.99E-13, -2.1160000000000003E-12, 2.7E-13, 5.1961524227066323E-07, 7.3645963897460283E-12, 2.1160000000000003E-12
DataValue, -0.3, 0.1, 0, -1.3900000000000001E-13, -5.3200000000000006E-13, 1.864E-12, 1.3900000000000001E-13, 3.72827037646145E-07, 2.3088830867423344E-12, 1.864E-12
DataValue, -0.25, 0.1, 0, 4.5100000000000005E-13, 1.544E-12, -1.3200000000000002E-13, 4.5100000000000005E-13, 6.7156533561523263E-07, 1.3451835932644151E-11, 1.3200000000000002E-13
DataValue, -0.2, 0.1, 0, 5.4700000000000009E-13, -2.3000000000000003E-13, -5.7780000000000006E-12, 5.4700000000000009E-13, 7.3959448348402393E-07, 6.1772520535755047E-14, 5.7780000000000006E-12
DataValue, -0.15, 0.1, 0, -4.8500000000000005E-13, 3.75E-13, -6.3E-13, 4.8500000000000005E-13, 6.96419413859206E-07, 7.4974983530961857E-12, 6.3E-13
DataValue, -0.1, 0.1, 0, 1.0270000000000002E-12, -7.6100000000000009E-13, -4.609E-12, 1.0270000000000002E-12, 1.0134100848126587E-06, 1.9400000000000011E-10, 4.609E-12
DataValue, -0.05, 0.1, 0, 4.365E-12, -5.7200000000000007E-12, 5.6890000000000005E-12, 4.365E-12, 2.0892582415776181E-06, 3.4515196108243473E-10, 5.6890000000000005E-12
DataValue, 0, 0.1, 0, 8.2440000000000008E-12, -6.04E-12, -5.309E-12, 8.2440000000000008E-12, 2.8712366673612958E-06, 3.9102521351018664E-10, 5.309E-12
DataValue, 0.05, 0.1, 0, 1.6538E-11, -1.6887000000000003E-11, 1.2460000000000001E-12, 1.6538E-11, 4.0666939889792541E-06, 8.8697214063354353E-10, 1.2460000000000001E-12
DataValue, 0.1, 0.1, 0, 3.4216000000000004E-11, -3.1098000000000003E-11, -3.606E-12, 3.4216000000000004E-11, 5.8494444180622834E-06, 1.9971399805253547E-09, 3.606E-12
DataValue, 0.15, 0.1, 0, 7.2857000000000008E-11, -6.7203000000000011E-11, -2.987E-12, 7.2857000000000008E-11, 8.5356312010301849E-06, 3.7716102599143573E-09, 2.987E-12
DataValue, 0.2, 0.1, 0, 1.43779E-10, -1.36995E-10, 4.5840000000000007E-12, 1.43779E-10, 1.1990788130894482E-05, 6.8449378934706154E-09, 4.5840000000000007E-12
DataValue, 0.25, 0.1, 0, 2.82544E-10, -2.68766E-10, 7.472E-12, 2.82544E-10, 1.6809045184066823E-05, 1.3347477307220043E-08, 7.472E-12
DataValue, 0.3, 0.1, 0, 5.5431600000000007E-10, -5.22647E-10, 4.13E-12, 5.5431600000000007E-10, 2.3543916411676288E-05, 2.0811961482531134E-08, 4.13E-12
DataValue, 0.35000000000000003, 0.1, 0, 9.7565E-10, -9.04814E-10, 4.7000000000000006E-12, 9.7565E-10, 3.1235396587845654E-05, 3.6845477261042412E-08, 4.7000000000000006E-12
DataValue, 0.4, 0.1, 0, 1.82663E-09, -1.69672E-09, -4.9950000000000004E-12, 1.82663E-09, 4.2739092175665123E-05, 6.4364993213053663E-08, 4.9950000000000004E-12
DataValue, 0.45, 0.1, 0, 3.2042E-09, -3.14496E-09, -1.2670000000000002E-12, 3.2042E-09, 5.6605653427904176E-05, 9.5757394178925534E-08, 1.2670000000000002E-12
DataValue, 0.5, 0.1, 0, 5.4293E-09, -5.33309E-09, -3.2310000000000003E-12, 5.4293E-09, 7.3683783833351015E-05, 1.3016144495584025E-07, 3.2310000000000003E-12
DataValue, 0.55, 0.1, 0, 8.59024E-09, -8.42778E-09, -4.922E-12, 8.59024E-09, 9.268354762308141E-05, 1.3276923482453048E-07, 4.922E-12
DataValue, 0.6, 0.1, 0, 1.2126699999999999E-08, -1.1778599999999999E-08, 6.7100000000000007E-13, 1.2126699999999999E-08, 0.00011012129675952785, 1.6383475741701426E-07, 6.7100000000000007E-13
DataValue, 0.65, 0.1, 0, 1.7731599999999998E-08, -1.75048E-08, 2.018E-12, 1.7731599999999998E-08, 0.0001331600540702804, 2.2351376100348496E-07, 2.018E-12
DataValue, 0.70000000000000007, 0.1, 0, 2.4774299999999997E-08, -2.4428899999999998E-08, -2.332E-12, 2.4774299999999997E-08, 0.00015739853874798202, 2.36909852403365E-07, 2.332E-12
DataValue, 0.75, 0.1, 0, 3.30634E-08, -3.26911E-08, -1.969E-12, 3.30634E-08, 0.00018183344026883504, 2.3692548284992031E-07, 1.969E-12
DataValue, 0.8, 0.1, 0, 4.2466299999999994E-08, -4.1974199999999993E-08, 2.612E-12, 4.2466299999999994E-08, 0.00020607353056615495, 2.4344442470813492E-07, 2.612E-12
DataValue, 0.85000000000000009, 0.1, 0, 5.3441199999999993E-08, -5.2889499999999992E-08, -1.214E-12, 5.3441199999999993E-08, 0.00023117352789625372, 2.5439003498388643E-07, 1.214E-12
DataValue, 0.9, 0.1, 0, 6.5797699999999988E-08, -6.52012E-08, 1.251E-12, 6.5797699999999988E-08, 0.00025651062356167625, 2.5685502938371043E-07, 1.251E-12
DataValue, 0.95000000000000007, 0.1, 0, 7.94419E-08, -7.88099E-08, 2.072E-12, 7.94419E-08, 0.00028185439503403169, 2.5701158429346936E-07, 2.072E-12
DataValue, 1, 0.1, 0, 9.437609999999999E-08, -9.36209E-08, -6.83E-13, 9.437609999999999E-08, 0.00030720693351550516, 2.4178151434797111E-07, 6.83E-13
DataValue, 1.05, 0.1, 0, 1.09578E-07, -1.0887479999999999E-07, -2.4200000000000003E-13, 1.09578E-07, 0.00033102567876223742, 2.4977897477347818E-07, 2.4200000000000003E-13
DataValue, 1.1, 0.1, 0, 1.27581E-07, -1.25919E-07, -4.775E-12, 1.27581E-07, 0.00035718482610547724, 2.7819066752114688E-07, 4.775E-12
DataValue, 1.1500000000000001, 0.1, 0, 1.47279E-07, -1.46401E-07, 3.8100000000000004E-13, 1.47279E-07, 0.00038376946204720356, 2.914166754097037E-07, 3.8100000000000004E-13
DataValue, 1.2, 0.1, 0, 1.69059E-07, -1.68019E-07, 1.1520000000000001E-12, 1.69059E-07, 0.0004111678489376328, 2.9929047862549615E-07, 1.1520000000000001E-12
DataValue, 1.25, 0.1, 0, 1.92262E-07, -1.9119299999999998E-07, -1.0330000000000001E-12, 1.92262E-07, 0.00043847690931222364, 2.9877643141481004E-07, 1.0330000000000001E-12
DataValue, 1.3, 0.1, 0, 2.16996E-07, -2.15973E-07, 3.0970000000000002E-12, 2.16996E-07, 0.00046582829454639183, 3.1321036720349547E-07, 3.0970000000000002E-12
DataValue, 1.35, 0.1, 0, 2.44473E-07, -2.42866E-07, 1.103E-12, 2.44473E-07, 0.00049444210985716015, 3.1693712715368316E-07, 1.103E-12
DataValue, 1.4000000000000001, 0.1, 0, 2.72615E-07, -2.71358E-07, -8.8300000000000007E-13, 2.72615E-07, 0.00052212546384944683, 3.1597941805568665E-07, 8.8300000000000007E-13
DataValue, 1.4500000000000002, 0.1, 0, 3.0322E-07, -3.02213E-07, 1.8020000000000002E-12, 3.0322E-07, 0.00055065415643577951, 3.2394293990758457E-07, 1.8020000000000002E-12
DataValue, 1.5, 0.1, 0, 3.35289E-07, -3.33978E-07, 6.6530000000000008E-12, 3.35289E-07, 0.00057904144929357172, 3.2768596596326685E-07, 6.6530000000000008E-12
DataValue, 1.55, 0.1, 0, 3.6954E-07, -3.67817E-07, 1.289E-12, 3.6954E-07, 0.0006078980177628481, 3.316644082595482E-07, 1.289E-12
DataValue, 1.6, 0.1, 0, 4.053E-07, -4.0379E-07, 5.598E-12, 4.053E-07, 0.00063663176169588022, 3.2710339252927153E-07, 5.598E-12
DataValue, 1.6500000000000001, 0.1, 0, 4.42346E-07, -4.41171E-07, -1.4380000000000001E-12, 4.42346E-07, 0.00066509097122123073, 3.3055954000959984E-07, 1.4380000000000001E-12
DataValue, 1.7000000000000002, 0.1, 0, 4.81811E-07, -4.81107E-07, 3.5690000000000002E-12, 4.81811E-07, 0.00069412606924102772, 3.3527347904574225E-07, 3.5690000000000002E-12
DataValue, 1.75, 0.1, 0, 5.2272E-07, -5.21945E-07, 3.1E-12, 5.2272E-07, 0.00072299377590681927, 3.3683487138496479E-07, 3.1E-12
DataValue, 1.8, 0.1, 0, 5.6574999999999994E-07, -5.64812E-07, 5.729E-12, 5.6574999999999994E-07, 0.00075216354604567214, 3.3781032370609549E-07, 5.729E-12
DataValue, 1.85, 0.1, 0, 6.10141E-07, -6.09205E-07, 4.869E-12, 6.10141E-07, 0.00078111522837542987, 3.3405584195750083E-07, 4.869E-12
DataValue, 1.9000000000000001, 0.1, 0, 6.56037E-07, -6.54823E-07, 3.7010000000000005E-12, 6.56037E-07, 0.00080996111017751955, 3.4284026427046585E-07, 3.7010000000000005E-12
DataValue, 1.9500000000000002, 0.1, 0, 7.05042E-07, -7.04186E-07, 7.2270000000000006E-12, 7.05042E-07, 0.00083966779145088085, 3.4335280755165306E-07, 7.2270000000000006E-12
DataValue, 2, 0.1, 0, 7.54392E-07, -7.53066E-07, 7.834E-12, 7.54392E-07, 0.00086855742469913876, 3.3598360784208069E-07, 7.834E-12
DataValue, 2.05, 0.1, 0, 8.05743E-07, -8.04421E-07, 1.6556E-11, 8.05743E-07, 0.00089763188446043965, 3.309271144551949E-07, 1.6556E-11
DataValue, 2.1, 0.1, 0, 8.57631E-07, -8.57056E-07, 1.2253000000000001E-11, 8.57631E-07, 0.00092608368952271265, 3.3156526608937731E-07, 1.2253000000000001E-11
DataValue, 2.15, 0.1, 0, 9.12433E-07, -9.11064E-07, 1.1069000000000001E-11, 9.12433E-07, 0.00095521358868056307, 3.3512390583558146E-07, 1.1069000000000001E-11
DataValue, 2.2, 0.1, 0, 9.68204E-07, -9.6766999999999988E-07, 1.1866000000000001E-11, 9.68204E-07, 0.00098397357688100539, 3.2540502917768837E-07, 1.1866000000000001E-11
DataValue, 2.25, 0.1, 0, 1.024666E-06, -1.023517E-06, 1.5711000000000002E-11, 1.024666E-06, 0.0010122578722835402, 3.21295644268945E-07, 1.5711000000000002E-11
