
SetupTitle, Transfer lin
PrimitiveTest, I/V Sweep
TestParameter, Context.MainFrame, 4155C
TestParameter, Channel.UnitType, SMU, SMU, SMU
TestParameter, Channel.Unit, SMU3:MP, SMU1:MP, SMU4:MP
TestParameter, Channel.IName, ID, IS, IG
TestParameter, Channel.VName, VD, VS, VG
TestParameter, Channel.Mode, V, COMMON, V
TestParameter, Channel.Func, CONST, CONST, VAR1
TestParameter, Channel.Index, 
TestParameter, Channel.Time, 
TestParameter, Measurement.Port.Unit, SMU3:MP, SMU1:MP, SMU4:MP
TestParameter, Measurement.Port.SeriesResistor, NONE, NONE, NONE
TestParameter, Measurement.Port.Filter, ON, ON, ON
TestParameter, Measurement.Primary.Locus, Double
TestParameter, Measurement.Primary.Scale, LINEAR
TestParameter, Measurement.Primary.Start, -2
TestParameter, Measurement.Primary.Stop, 3
TestParameter, Measurement.Primary.Step, 0.05
TestParameter, Measurement.Primary.Compliance, 0.001
TestParameter, Measurement.Primary.PowerCompliance, 0
TestParameter, Measurement.Aborting.Condition, CONTINUE AT ANY
TestParameter, Measurement.PostOutput.Value, START
TestParameter, Measurement.PostOutput.Retention, OFF
TestParameter, Measurement.Bias.Source, 0.1, 0, -2
TestParameter, Measurement.Bias.Compliance, 0.001, 0.1, 0.001
TestParameter, Measurement.Monitor.Unit, SMU3:MP, SMU1:MP, SMU4:MP
TestParameter, Measurement.Monitor.Adc, HR ADC, HR ADC, HR ADC
TestParameter, Measurement.Monitor.RangingMode, AUTO, AUTO, AUTO
TestParameter, Measurement.Monitor.RangeBoundary, , , 
TestParameter, Measurement.Monitor.RangeRating, BY FULL RANGE, BY FULL RANGE, BY FULL RANGE
TestParameter, Measurement.Monitor.RangeRatingCoeff, 50, 50, 50
TestParameter, Measurement.Timing.Hold, 0.5
TestParameter, Measurement.Timing.Delay, 0.05
TestParameter, Measurement.Adc.HighResolution.AutoZero, OFF
TestParameter, Measurement.Adc.HighResolution.Mode, AUTO
TestParameter, Measurement.Adc.HighResolution.Coeff, 1
TestParameter, Measurement.Ag16440ASelector.SemiconductorRelay.Channel1, DEFAULT
TestParameter, Measurement.Ag16440ASelector.SemiconductorRelay.Channel3, DEFAULT
TestParameter, Function.User.Name, absID, sqrtID, gm2, absIG
TestParameter, Function.User.Unit, A, A, A/V, A
TestParameter, Function.User.Definition, abs(ID), sqrt(abs(ID)), (delta(sqrtID)/delta(VG))^2, abs(IG)
TestParameter, Output.Graph.Enabled, true
TestParameter, Output.Graph.XAxis.Data, VG
TestParameter, Output.Graph.XAxis.Scale, Linear
TestParameter, Output.Graph.XAxis.Left, -5
TestParameter, Output.Graph.XAxis.Right, 7
TestParameter, Output.Graph.YAxis.Data, ID, absIG, gm2
TestParameter, Output.Graph.YAxis.Scale, Log, Log, Linear
TestParameter, Output.Graph.YAxis.Bottom, 1E-14, 1E-14, 0
TestParameter, Output.Graph.YAxis.Top, 0.01, 0.01, 1E-05
TestParameter, Output.Graph.YAxis.Group, , , 
TestParameter, Output.List.Data, VG, IG, VD, ID, VS, IS, sqrtID, gm2, absIG
TestParameter, AutoAnalysis.Interpolation, false
TestParameter, AutoAnalysis.Line1.Enabled, false
TestParameter, AutoAnalysis.Line1.Type, 1
TestParameter, AutoAnalysis.Line1.Fix, True
TestParameter, AutoAnalysis.Line1.YAxis, 0
TestParameter, AutoAnalysis.Line1.Point1.Type, 0
TestParameter, AutoAnalysis.Line1.Point1.XY.X, 
TestParameter, AutoAnalysis.Line1.Point1.XY.Y, 
TestParameter, AutoAnalysis.Line1.Point1.Data.Var, 
TestParameter, AutoAnalysis.Line1.Point1.Data.Condition, 
TestParameter, AutoAnalysis.Line1.Point1.Data.Start, false
TestParameter, AutoAnalysis.Line1.Point1.Data.StartVar, 
TestParameter, AutoAnalysis.Line1.Point1.Data.StartCondition, 
TestParameter, AutoAnalysis.Line1.Point2.Type, 0
TestParameter, AutoAnalysis.Line1.Point2.XY.X, 
TestParameter, AutoAnalysis.Line1.Point2.XY.Y, 
TestParameter, AutoAnalysis.Line1.Point2.Data.Var, 
TestParameter, AutoAnalysis.Line1.Point2.Data.Condition, 
TestParameter, AutoAnalysis.Line1.Point2.Data.Start, false
TestParameter, AutoAnalysis.Line1.Point2.Data.StartVar, 
TestParameter, AutoAnalysis.Line1.Point2.Data.StartCondition, 
TestParameter, AutoAnalysis.Line1.GradientExpr, 0
TestParameter, AutoAnalysis.Line2.Enabled, false
TestParameter, AutoAnalysis.Line2.Type, 1
TestParameter, AutoAnalysis.Line2.Fix, True
TestParameter, AutoAnalysis.Line2.YAxis, 0
TestParameter, AutoAnalysis.Line2.Point1.Type, 0
TestParameter, AutoAnalysis.Line2.Point1.XY.X, 
TestParameter, AutoAnalysis.Line2.Point1.XY.Y, 
TestParameter, AutoAnalysis.Line2.Point1.Data.Var, 
TestParameter, AutoAnalysis.Line2.Point1.Data.Condition, 
TestParameter, AutoAnalysis.Line2.Point1.Data.Start, false
TestParameter, AutoAnalysis.Line2.Point1.Data.StartVar, 
TestParameter, AutoAnalysis.Line2.Point1.Data.StartCondition, 
TestParameter, AutoAnalysis.Line2.Point2.Type, 0
TestParameter, AutoAnalysis.Line2.Point2.XY.X, 
TestParameter, AutoAnalysis.Line2.Point2.XY.Y, 
TestParameter, AutoAnalysis.Line2.Point2.Data.Var, 
TestParameter, AutoAnalysis.Line2.Point2.Data.Condition, 
TestParameter, AutoAnalysis.Line2.Point2.Data.Start, false
TestParameter, AutoAnalysis.Line2.Point2.Data.StartVar, 
TestParameter, AutoAnalysis.Line2.Point2.Data.StartCondition, 
TestParameter, AutoAnalysis.Line2.GradientExpr, 0
TestParameter, AutoAnalysis.Marker.Enabled, false
TestParameter, AutoAnalysis.Marker.Data.Var, 
TestParameter, AutoAnalysis.Marker.Data.Condition, 
TestParameter, AutoAnalysis.Marker.Data.Start, false
TestParameter, AutoAnalysis.Marker.Data.StartVar, 
TestParameter, AutoAnalysis.Marker.Data.StartCondition, 
MetaData, TestRecord.EntryPoint, true
MetaData, TestRecord.RecordTime, 05/02/2019 15:33:14
MetaData, TestRecord.TestTarget, 350-300-2-2
MetaData, TestRecord.IterationIndex, 1
MetaData, TestRecord.Preservation, true
MetaData, TestRecord.Flag, 
MetaData, TestRecord.Remarks, bad
MetaData, TestRecord.LinkKey, 6e4d73f5-7e40-4439-b575-b347419ddc17
Dimension1, 202, 202, 202, 202, 202, 202, 202, 202, 202, 202
Dimension2, 1, 1, 1, 1, 1, 1, 1, 1, 1, 1
DataName, VG, VD, VS, ID, IS, IG, absID, sqrtID, gm2, absIG
DataValue, -2, 0.1, 0, -2.48E-13, 1.485E-12, -1.997E-12, 2.48E-13, 4.9799598391954932E-07, 6.5358655689137985E-11, 1.997E-12
DataValue, -1.9500000000000002, 0.1, 0, 8.1400000000000007E-13, 1.1270000000000002E-12, -4.3340000000000007E-12, 8.1400000000000007E-13, 9.0221948549119692E-07, 1.415162113706385E-10, 4.3340000000000007E-12
DataValue, -1.9000000000000001, 0.1, 0, -2.8480000000000004E-12, -5.35E-13, -2.587E-12, 2.8480000000000004E-12, 1.687601848778319E-06, 7.6965543335029171E-13, 2.587E-12
DataValue, -1.85, 0.1, 0, 9.8E-13, 5.68E-13, -1.0620000000000001E-12, 9.8E-13, 9.899494936611665E-07, 7.0801120450376971E-11, 1.0620000000000001E-12
DataValue, -1.8, 0.1, 0, 7.1600000000000008E-13, 5.88E-13, 3.4800000000000003E-13, 7.1600000000000008E-13, 8.4616783205224725E-07, 4.9259663395102483E-11, 3.4800000000000003E-13
DataValue, -1.75, 0.1, 0, -8.3000000000000012E-14, 6.35E-13, -2.361E-12, 8.3000000000000012E-14, 2.8809720581775871E-07, 1.6515231958779195E-12, 2.361E-12
DataValue, -1.7000000000000002, 0.1, 0, 9.5E-13, 6.32E-13, -2.156E-12, 9.5E-13, 9.7467943448089629E-07, 1.9693964908743712E-10, 2.156E-12
DataValue, -1.6500000000000001, 0.1, 0, 2.861E-12, 5.295E-12, -1.2920000000000002E-12, 2.861E-12, 1.6914490828872149E-06, 1.9881239349877173E-11, 1.2920000000000002E-12
DataValue, -1.6, 0.1, 0, 2.018E-12, -4.2840000000000007E-12, 4.3480000000000005E-12, 2.018E-12, 1.420563268566381E-06, 1.6518602691137966E-10, 4.3480000000000005E-12
DataValue, -1.55, 0.1, 0, 1.65E-13, 3.7140000000000005E-12, -7.5120000000000011E-12, 1.65E-13, 4.0620192023179803E-07, 4.527947368486246E-11, 7.5120000000000011E-12
DataValue, -1.5, 0.1, 0, 5.59E-13, -2.8130000000000002E-12, 2.3250000000000003E-12, 5.59E-13, 7.476630257007498E-07, 9.6123724491194185E-12, 2.3250000000000003E-12
DataValue, -1.4500000000000002, 0.1, 0, 5.13E-13, 2.903E-12, -1.2458E-11, 5.13E-13, 7.1624018317879933E-07, 8.171428986723063E-13, 1.2458E-11
DataValue, -1.4000000000000001, 0.1, 0, -4.3200000000000003E-13, 4.0790000000000007E-12, 2.3000000000000003E-14, 4.3200000000000003E-13, 6.5726706900619935E-07, 1.3347597865064993E-13, 2.3000000000000003E-14
DataValue, -1.35, 0.1, 0, 4.6200000000000005E-13, -7.79E-13, -6.35E-13, 4.6200000000000005E-13, 6.7970581871865712E-07, 1.8567711962996452E-10, 6.35E-13
DataValue, -1.3, 0.1, 0, 4.08E-12, 1.6530000000000001E-12, 3.0220000000000002E-12, 4.08E-12, 2.0199009876724156E-06, 1.3064421434043635E-11, 3.0220000000000002E-12
DataValue, -1.25, 0.1, 0, 1.084E-12, -1.3300000000000001E-13, 1.527E-12, 1.084E-12, 1.0411532067856296E-06, 4.8426557024935021E-11, 1.527E-12
DataValue, -1.2, 0.1, 0, 1.7530000000000001E-12, 2.1040000000000003E-12, -3.779E-12, 1.7530000000000001E-12, 1.3240090634130871E-06, 1.1892937125244773E-13, 3.779E-12
DataValue, -1.1500000000000001, 0.1, 0, 1.157E-12, -1.74E-12, 1.345E-12, 1.157E-12, 1.0756393447619886E-06, 9.9686775956353718E-11, 1.345E-12
DataValue, -1.1, 0.1, 0, -1.06E-13, 9.3300000000000016E-13, -2.54E-12, 1.06E-13, 3.2557641192199413E-07, 1.5045817902973748E-11, 2.54E-12
DataValue, -1.05, 0.1, 0, 4.73E-13, 5.6E-14, 1.437E-12, 4.73E-13, 6.8774995456197591E-07, 1.1666863439659263E-12, 1.437E-12
DataValue, -1, 0.1, 0, -1.88E-13, 1.7E-13, -7.6500000000000007E-13, 1.88E-13, 4.33589667773576E-07, 4.3294300465923006E-11, 7.6500000000000007E-13
DataValue, -0.95000000000000007, 0.1, 0, -1.811E-12, 2.294E-12, -5.5500000000000006E-13, 1.811E-12, 1.3457340004622013E-06, 3.1629634711899029E-11, 5.5500000000000006E-13
DataValue, -0.9, 0.1, 0, 9.92E-13, 5.83E-13, -3.397E-12, 9.92E-13, 9.9599196783909863E-07, 4.2254279087611731E-11, 3.397E-12
DataValue, -0.85000000000000009, 0.1, 0, 4.8400000000000006E-13, -1.1080000000000001E-12, -1.533E-12, 4.8400000000000006E-13, 6.9570108523704353E-07, 4.5552874809312176E-13, 1.533E-12
DataValue, -0.8, 0.1, 0, 1.1310000000000001E-12, -1.6200000000000002E-13, -4.5300000000000004E-13, 1.1310000000000001E-12, 1.0634848376916335E-06, 1.6614092251765058E-11, 4.5300000000000004E-13
DataValue, -0.75, 0.1, 0, 8.3000000000000012E-14, -3.5700000000000004E-13, 7.79E-13, 8.3000000000000012E-14, 2.8809720581775871E-07, 8.03089898991333E-11, 7.79E-13
DataValue, -0.70000000000000007, 0.1, 0, 2.8E-14, 7.3700000000000009E-13, -1.58E-13, 2.8E-14, 1.673320053068151E-07, 1.1421442134809197E-12, 1.58E-13
DataValue, -0.65, 0.1, 0, 1.5600000000000002E-13, 6.640000000000001E-13, -5.0200000000000008E-13, 1.5600000000000002E-13, 3.9496835316263E-07, 6.9167082089652886E-11, 5.0200000000000008E-13
DataValue, -0.6, 0.1, 0, 9.98E-13, -3.4E-14, -2.1030000000000002E-12, 9.98E-13, 9.98999499499374E-07, 5.9691701749036432E-13, 2.1030000000000002E-12
DataValue, -0.55, 0.1, 0, 2.23E-13, -2.85E-13, 1.88E-13, 2.23E-13, 4.7222875812470383E-07, 1.2643086533629008E-11, 1.88E-13
DataValue, -0.5, 0.1, 0, -4.1400000000000005E-13, -2.6E-13, 1.9800000000000002E-13, 4.1400000000000005E-13, 6.434283176858165E-07, 3.028113243327764E-13, 1.9800000000000002E-13
DataValue, -0.45, 0.1, 0, -2.7800000000000003E-13, 4.1800000000000004E-13, -5.35E-13, 2.7800000000000003E-13, 5.2725705305856277E-07, 1.2040202496782402E-14, 5.35E-13
DataValue, -0.4, 0.1, 0, 4E-13, 2.7E-13, -6.7E-14, 4E-13, 6.3245553203367584E-07, 9.3715758555269744E-11, 6.7E-14
DataValue, -0.35000000000000003, 0.1, 0, -2.236E-12, 2.8E-14, -1.017E-12, 2.236E-12, 1.4953260514014996E-06, 8.48638866443476E-14, 1.017E-12
DataValue, -0.3, 0.1, 0, -3.64E-13, -1.7900000000000002E-13, -8.2E-14, 3.64E-13, 6.0332412515993429E-07, 7.9383174677594855E-12, 8.2E-14
DataValue, -0.25, 0.1, 0, -3.158E-12, -1.54E-13, -4.3700000000000006E-13, 3.158E-12, 1.7770762504743572E-06, 7.5002004811870179E-13, 4.3700000000000006E-13
DataValue, -0.2, 0.1, 0, 2.67E-13, -6.7E-14, 6.410000000000001E-13, 2.67E-13, 5.167204273105525E-07, 2.1340782945418305E-10, 6.410000000000001E-13
DataValue, -0.15, 0.1, 0, 1E-13, 2.05E-13, -7.74E-13, 1E-13, 3.1622776601683792E-07, 7.5002812149370883E-13, 7.74E-13
DataValue, -0.1, 0.1, 0, 1.8500000000000002E-13, 1.0200000000000001E-13, 2.1300000000000003E-13, 1.8500000000000002E-13, 4.3011626335213138E-07, 6.3930884942490623E-11, 2.1300000000000003E-13
DataValue, -0.05, 0.1, 0, -1.245E-12, 3.5E-14, 4.5300000000000004E-13, 1.245E-12, 1.1157956802210699E-06, 1.0610590106876983E-12, 4.5300000000000004E-13
DataValue, 0, 0.1, 0, 1.0700000000000001E-13, -2.36E-13, -6.6900000000000008E-13, 1.0700000000000001E-13, 3.2710854467592253E-07, 5.6415726334874732E-11, 6.6900000000000008E-13
DataValue, 0.05, 0.1, 0, 1.3300000000000001E-13, -1.64E-13, 2.7600000000000004E-13, 1.3300000000000001E-13, 3.6469165057620938E-07, 2.2599333337566085E-11, 2.7600000000000004E-13
DataValue, 0.1, 0.1, 0, -6.4400000000000008E-13, -5.5100000000000008E-13, 5.86E-13, 6.4400000000000008E-13, 8.024961059095552E-07, 9.1666810692583669E-11, 5.86E-13
DataValue, 0.15, 0.1, 0, 1.7480000000000002E-12, -1.8190000000000002E-12, 8.9000000000000012E-14, 1.7480000000000002E-12, 1.3221195104830729E-06, 1.8418113150031786E-10, 8.9000000000000012E-14
DataValue, 0.2, 0.1, 0, 4.664E-12, -4.735E-12, -3.9200000000000005E-13, 4.664E-12, 2.1596295978708944E-06, 4.2510733127723923E-10, 3.9200000000000005E-13
DataValue, 0.25, 0.1, 0, 1.1451E-11, -1.1476000000000002E-11, -9.7E-14, 1.1451E-11, 3.3839326234427303E-06, 9.8583712568333731E-10, 9.7E-14
DataValue, 0.3, 0.1, 0, 2.8084000000000004E-11, -2.7409000000000003E-11, -3.39E-13, 2.8084000000000004E-11, 5.2994339320346287E-06, 1.953789277137567E-09, 3.39E-13
DataValue, 0.35000000000000003, 0.1, 0, 6.0904E-11, -5.8773000000000007E-11, -4.69E-13, 6.0904E-11, 7.8041014857573454E-06, 3.3518594402129267E-09, 4.69E-13
DataValue, 0.4, 0.1, 0, 1.22965E-10, -1.1709400000000002E-10, -2.5200000000000004E-13, 1.22965E-10, 1.1088958472282238E-05, 4.46961173189726E-09, 2.5200000000000004E-13
DataValue, 0.45, 0.1, 0, 2.0994900000000003E-10, -2.04436E-10, -4.6000000000000006E-14, 2.0994900000000003E-10, 1.4489616972163205E-05, 5.344338161375679E-09, 4.6000000000000006E-14
DataValue, 0.5, 0.1, 0, 3.3854E-10, -3.21823E-10, 3.08E-13, 3.3854E-10, 1.8399456513712572E-05, 5.0097394219755273E-09, 3.08E-13
DataValue, 0.55, 0.1, 0, 4.6516E-10, -4.55101E-10, 3.05E-13, 4.6516E-10, 2.1567568244936655E-05, 3.8419773219622913E-09, 3.05E-13
DataValue, 0.6, 0.1, 0, 6.05053E-10, -6.01499E-10, 6.55E-13, 6.05053E-10, 2.4597825107110588E-05, 3.4482972238110777E-09, 6.55E-13
DataValue, 0.65, 0.1, 0, 7.5294200000000011E-10, -7.30525E-10, 8.1000000000000008E-13, 7.5294200000000011E-10, 2.7439788628923513E-05, 2.8811899676567571E-09, 8.1000000000000008E-13
DataValue, 0.70000000000000007, 0.1, 0, 8.97931E-10, -8.8960700000000007E-10, 7.6700000000000006E-13, 8.97931E-10, 2.9965496825515843E-05, 1.9380852471330735E-09, 7.6700000000000006E-13
DataValue, 0.75, 0.1, 0, 1.013923E-09, -9.99185E-10, 8.5800000000000008E-13, 1.013923E-09, 3.1842157590213642E-05, 2.2288785300390848E-09, 8.5800000000000008E-13
DataValue, 0.8, 0.1, 0, 1.20316E-09, -1.12894E-09, 3.8100000000000004E-13, 1.20316E-09, 3.4686596835088912E-05, 1.4809546269100547E-09, 3.8100000000000004E-13
DataValue, 0.85000000000000009, 0.1, 0, 1.27381E-09, -1.27792E-09, 1.1420000000000002E-12, 1.27381E-09, 3.5690474919787774E-05, 5.7784140412492356E-10, 1.1420000000000002E-12
DataValue, 0.9, 0.1, 0, 1.3757E-09, -1.39964E-09, 2.6000000000000003E-14, 1.3757E-09, 3.7090430032556913E-05, 1.1033708602585113E-09, 2.6000000000000003E-14
DataValue, 0.95000000000000007, 0.1, 0, 1.52195E-09, -1.57545E-09, 9.34E-13, 1.52195E-09, 3.9012177585979483E-05, 2.1444193713825805E-09, 9.34E-13
DataValue, 1, 0.1, 0, 1.74066E-09, -1.72732E-09, 1.329E-12, 1.74066E-09, 4.172121762365044E-05, 1.7212542768679508E-09, 1.329E-12
DataValue, 1.05, 0.1, 0, 1.8628699999999998E-09, -1.85144E-09, 1.6600000000000003E-13, 1.8628699999999998E-09, 4.316097774610765E-05, 3.5207795866020765E-10, 1.6600000000000003E-13
DataValue, 1.1, 0.1, 0, 1.90075E-09, -2.00377E-09, 1.026E-12, 1.90075E-09, 4.3597591676605256E-05, 1.196450849213738E-09, 1.026E-12
DataValue, 1.1500000000000001, 0.1, 0, 2.17342E-09, -2.19262E-09, 1.128E-12, 2.17342E-09, 4.6619952809928926E-05, 3.0543734184753349E-09, 1.128E-12
DataValue, 1.2, 0.1, 0, 2.41319E-09, -2.34305E-09, 4.74E-13, 2.41319E-09, 4.9124230273867905E-05, 3.5378742173363966E-09, 4.74E-13
DataValue, 1.25, 0.1, 0, 2.76339E-09, -2.64658E-09, 6.3940000000000004E-12, 2.76339E-09, 5.2567956018852394E-05, 3.2883420257155432E-10, 6.3940000000000004E-12
DataValue, 1.3, 0.1, 0, 2.59464E-09, -2.53871E-09, 3.6585E-11, 2.59464E-09, 5.0937608895589125E-05, 1.084836857555368E-10, 3.6585E-11
DataValue, 1.35, 0.1, 0, 2.65497E-09, -2.62992E-09, -2.226E-12, 2.65497E-09, 5.1526400999875782E-05, 1.0180341084058788E-09, 2.226E-12
DataValue, 1.4000000000000001, 0.1, 0, 2.92987E-09, -3.05767E-09, -1.1621000000000002E-11, 2.92987E-09, 5.4128273573059762E-05, 2.6694998410323814E-09, 1.1621000000000002E-11
DataValue, 1.4500000000000002, 0.1, 0, 3.21411E-09, -3.20922E-09, -2.9930000000000003E-12, 3.21411E-09, 5.6693121275865558E-05, 1.0936787335476786E-09, 2.9930000000000003E-12
DataValue, 1.5, 0.1, 0, 3.29882E-09, -3.28917E-09, 1.4842E-11, 3.29882E-09, 5.7435354965386953E-05, 2.1485665154823937E-10, 1.4842E-11
DataValue, 1.55, 0.1, 0, 3.38246E-09, -3.40022E-09, -3.0970000000000002E-12, 3.38246E-09, 5.8158920210058917E-05, 1.6734794584197971E-09, 3.0970000000000002E-12
DataValue, 1.6, 0.1, 0, 3.78547E-09, -3.82846E-09, -6.9710000000000009E-12, 3.78547E-09, 6.1526173292347709E-05, 3.5893737490549817E-09, 6.9710000000000009E-12
DataValue, 1.6500000000000001, 0.1, 0, 4.11523E-09, -4.19074E-09, 1.2700000000000001E-13, 4.11523E-09, 6.4150058456715381E-05, 5.1460656998701629E-09, 1.2700000000000001E-13
DataValue, 1.7000000000000002, 0.1, 0, 4.71966E-09, -4.50037E-09, 1.1729E-11, 4.71966E-09, 6.869978165904168E-05, 1.5061880627672233E-09, 1.1729E-11
DataValue, 1.75, 0.1, 0, 4.62822E-09, -4.46349E-09, 7.753E-12, 4.62822E-09, 6.8031022335402245E-05, 3.0592284837347045E-10, 7.753E-12
DataValue, 1.8, 0.1, 0, 4.96304E-09, -5.02245E-09, 3.38E-12, 4.96304E-09, 7.044884669034689E-05, 5.8805877134325625E-10, 3.38E-12
DataValue, 1.85, 0.1, 0, 4.96405E-09, -5.03714E-09, 6.526E-12, 4.96405E-09, 7.0456014647438011E-05, 2.2969951100613641E-09, 6.526E-12
DataValue, 1.9000000000000001, 0.1, 0, 5.66129E-09, -5.5254E-09, 1.4282E-11, 5.66129E-09, 7.5241544375431323E-05, 9.02672527405423E-10, 1.4282E-11
DataValue, 1.9500000000000002, 0.1, 0, 5.39644E-09, -5.16878E-09, 1.7554000000000002E-11, 5.39644E-09, 7.34604655580129E-05, 2.7196986963845395E-11, 1.7554000000000002E-11
DataValue, 2, 0.1, 0, 5.74004E-09, -5.4636E-09, 1.6869E-11, 5.74004E-09, 7.5763051680882026E-05, 5.41015336454994E-09, 1.6869E-11
DataValue, 2.05, 0.1, 0, 6.5312E-09, -6.37427E-09, 1.9154000000000002E-11, 6.5312E-09, 8.081584003151858E-05, 2.7399771926567411E-09, 1.9154000000000002E-11
DataValue, 2.1, 0.1, 0, 6.5606E-09, -6.40979E-09, 2.5584000000000002E-11, 6.5606E-09, 8.0997530826562851E-05, 2.8783948107757679E-10, 2.5584000000000002E-11
DataValue, 2.15, 0.1, 0, 6.8083E-09, -6.91758E-09, 3.3195E-11, 6.8083E-09, 8.2512423307039051E-05, 2.3404082374438694E-09, 3.3195E-11
DataValue, 2.2, 0.1, 0, 7.3677E-09, -7.32387E-09, 3.9193E-11, 7.3677E-09, 8.58353074206646E-05, 8.6433712403252681E-10, 3.9193E-11
DataValue, 2.25, 0.1, 0, 7.30211E-09, -7.67639E-09, 4.4403E-11, 7.30211E-09, 8.5452384402075052E-05, 4.1676758438722706E-09, 4.4403E-11
DataValue, 2.3000000000000003, 0.1, 0, 8.51764E-09, -8.18668E-09, 5.0518000000000006E-11, 8.51764E-09, 9.2291061322318752E-05, 2.3250910602030642E-09, 5.0518000000000006E-11
DataValue, 2.35, 0.1, 0, 8.14945E-09, -8.10325E-09, 5.8512E-11, 8.14945E-09, 9.0274304206678887E-05, 3.1674649196883643E-11, 5.8512E-11
DataValue, 2.4, 0.1, 0, 8.62184E-09, -8.9154E-09, 6.8553000000000011E-11, 8.62184E-09, 9.2853863678362891E-05, 4.4859212927018336E-09, 6.8553000000000011E-11
DataValue, 2.45, 0.1, 0, 9.40357E-09, -9.45273E-09, 8.1155E-11, 9.40357E-09, 9.6972006269850883E-05, 4.112720053258005E-09, 8.1155E-11
DataValue, 2.5, 0.1, 0, 9.85392E-09, -1.018627E-08, 1.02486E-10, 9.85392E-09, 9.9266912916641054E-05, 5.0830077635324218E-10, 1.02486E-10
