
SetupTitle, Transfer lin
PrimitiveTest, I/V Sweep
TestParameter, Context.MainFrame, 4155C
TestParameter, Channel.UnitType, SMU, SMU, SMU
TestParameter, Channel.Unit, SMU3:MP, SMU1:MP, SMU4:MP
TestParameter, Channel.IName, ID, IS, IG
TestParameter, Channel.VName, VD, VS, VG
TestParameter, Channel.Mode, V, COMMON, V
TestParameter, Channel.Func, CONST, CONST, VAR1
TestParameter, Channel.Index, 
TestParameter, Channel.Time, 
TestParameter, Measurement.Port.Unit, SMU3:MP, SMU1:MP, SMU4:MP
TestParameter, Measurement.Port.SeriesResistor, NONE, NONE, NONE
TestParameter, Measurement.Port.Filter, ON, ON, ON
TestParameter, Measurement.Primary.Locus, Double
TestParameter, Measurement.Primary.Scale, LINEAR
TestParameter, Measurement.Primary.Start, -2
TestParameter, Measurement.Primary.Stop, 3
TestParameter, Measurement.Primary.Step, 0.05
TestParameter, Measurement.Primary.Compliance, 0.001
TestParameter, Measurement.Primary.PowerCompliance, 0
TestParameter, Measurement.Aborting.Condition, CONTINUE AT ANY
TestParameter, Measurement.PostOutput.Value, START
TestParameter, Measurement.PostOutput.Retention, OFF
TestParameter, Measurement.Bias.Source, 0.1, 0, -2
TestParameter, Measurement.Bias.Compliance, 0.001, 0.1, 0.001
TestParameter, Measurement.Monitor.Unit, SMU3:MP, SMU1:MP, SMU4:MP
TestParameter, Measurement.Monitor.Adc, HR ADC, HR ADC, HR ADC
TestParameter, Measurement.Monitor.RangingMode, AUTO, AUTO, AUTO
TestParameter, Measurement.Monitor.RangeBoundary, , , 
TestParameter, Measurement.Monitor.RangeRating, BY FULL RANGE, BY FULL RANGE, BY FULL RANGE
TestParameter, Measurement.Monitor.RangeRatingCoeff, 50, 50, 50
TestParameter, Measurement.Timing.Hold, 0.5
TestParameter, Measurement.Timing.Delay, 0.05
TestParameter, Measurement.Adc.HighResolution.AutoZero, OFF
TestParameter, Measurement.Adc.HighResolution.Mode, AUTO
TestParameter, Measurement.Adc.HighResolution.Coeff, 1
TestParameter, Measurement.Ag16440ASelector.SemiconductorRelay.Channel1, DEFAULT
TestParameter, Measurement.Ag16440ASelector.SemiconductorRelay.Channel3, DEFAULT
TestParameter, Function.User.Name, absID, sqrtID, gm2, absIG
TestParameter, Function.User.Unit, A, A, A/V, A
TestParameter, Function.User.Definition, abs(ID), sqrt(abs(ID)), (delta(sqrtID)/delta(VG))^2, abs(IG)
TestParameter, Output.Graph.Enabled, true
TestParameter, Output.Graph.XAxis.Data, VG
TestParameter, Output.Graph.XAxis.Scale, Linear
TestParameter, Output.Graph.XAxis.Left, -5
TestParameter, Output.Graph.XAxis.Right, 7
TestParameter, Output.Graph.YAxis.Data, ID, absIG, gm2
TestParameter, Output.Graph.YAxis.Scale, Log, Log, Linear
TestParameter, Output.Graph.YAxis.Bottom, 1E-14, 1E-14, 0
TestParameter, Output.Graph.YAxis.Top, 0.01, 0.01, 1E-05
TestParameter, Output.Graph.YAxis.Group, , , 
TestParameter, Output.List.Data, VG, IG, VD, ID, VS, IS, sqrtID, gm2, absIG
TestParameter, AutoAnalysis.Interpolation, false
TestParameter, AutoAnalysis.Line1.Enabled, false
TestParameter, AutoAnalysis.Line1.Type, 1
TestParameter, AutoAnalysis.Line1.Fix, True
TestParameter, AutoAnalysis.Line1.YAxis, 0
TestParameter, AutoAnalysis.Line1.Point1.Type, 0
TestParameter, AutoAnalysis.Line1.Point1.XY.X, 
TestParameter, AutoAnalysis.Line1.Point1.XY.Y, 
TestParameter, AutoAnalysis.Line1.Point1.Data.Var, 
TestParameter, AutoAnalysis.Line1.Point1.Data.Condition, 
TestParameter, AutoAnalysis.Line1.Point1.Data.Start, false
TestParameter, AutoAnalysis.Line1.Point1.Data.StartVar, 
TestParameter, AutoAnalysis.Line1.Point1.Data.StartCondition, 
TestParameter, AutoAnalysis.Line1.Point2.Type, 0
TestParameter, AutoAnalysis.Line1.Point2.XY.X, 
TestParameter, AutoAnalysis.Line1.Point2.XY.Y, 
TestParameter, AutoAnalysis.Line1.Point2.Data.Var, 
TestParameter, AutoAnalysis.Line1.Point2.Data.Condition, 
TestParameter, AutoAnalysis.Line1.Point2.Data.Start, false
TestParameter, AutoAnalysis.Line1.Point2.Data.StartVar, 
TestParameter, AutoAnalysis.Line1.Point2.Data.StartCondition, 
TestParameter, AutoAnalysis.Line1.GradientExpr, 0
TestParameter, AutoAnalysis.Line2.Enabled, false
TestParameter, AutoAnalysis.Line2.Type, 1
TestParameter, AutoAnalysis.Line2.Fix, True
TestParameter, AutoAnalysis.Line2.YAxis, 0
TestParameter, AutoAnalysis.Line2.Point1.Type, 0
TestParameter, AutoAnalysis.Line2.Point1.XY.X, 
TestParameter, AutoAnalysis.Line2.Point1.XY.Y, 
TestParameter, AutoAnalysis.Line2.Point1.Data.Var, 
TestParameter, AutoAnalysis.Line2.Point1.Data.Condition, 
TestParameter, AutoAnalysis.Line2.Point1.Data.Start, false
TestParameter, AutoAnalysis.Line2.Point1.Data.StartVar, 
TestParameter, AutoAnalysis.Line2.Point1.Data.StartCondition, 
TestParameter, AutoAnalysis.Line2.Point2.Type, 0
TestParameter, AutoAnalysis.Line2.Point2.XY.X, 
TestParameter, AutoAnalysis.Line2.Point2.XY.Y, 
TestParameter, AutoAnalysis.Line2.Point2.Data.Var, 
TestParameter, AutoAnalysis.Line2.Point2.Data.Condition, 
TestParameter, AutoAnalysis.Line2.Point2.Data.Start, false
TestParameter, AutoAnalysis.Line2.Point2.Data.StartVar, 
TestParameter, AutoAnalysis.Line2.Point2.Data.StartCondition, 
TestParameter, AutoAnalysis.Line2.GradientExpr, 0
TestParameter, AutoAnalysis.Marker.Enabled, false
TestParameter, AutoAnalysis.Marker.Data.Var, 
TestParameter, AutoAnalysis.Marker.Data.Condition, 
TestParameter, AutoAnalysis.Marker.Data.Start, false
TestParameter, AutoAnalysis.Marker.Data.StartVar, 
TestParameter, AutoAnalysis.Marker.Data.StartCondition, 
MetaData, TestRecord.EntryPoint, true
MetaData, TestRecord.RecordTime, 05/02/2019 15:27:24
MetaData, TestRecord.TestTarget, 350-300-2-5
MetaData, TestRecord.IterationIndex, 1
MetaData, TestRecord.Preservation, true
MetaData, TestRecord.Flag, 
MetaData, TestRecord.Remarks, bad
MetaData, TestRecord.LinkKey, fafc54c3-458c-420f-9bb9-957dbd1cb0b9
Dimension1, 202, 202, 202, 202, 202, 202, 202, 202, 202, 202
Dimension2, 1, 1, 1, 1, 1, 1, 1, 1, 1, 1
DataName, VG, VD, VS, ID, IS, IG, absID, sqrtID, gm2, absIG
DataValue, -2, 0.1, 0, 5.8000000000000005E-13, -2.114E-12, 1.4380000000000001E-12, 5.8000000000000005E-13, 7.6157731058639085E-07, 2.1313344867393387E-10, 1.4380000000000001E-12
DataValue, -1.9500000000000002, 0.1, 0, 1E-15, 1.904E-12, 2.933E-12, 1E-15, 3.1622776601683792E-08, 2.8329454255589047E-11, 2.933E-12
DataValue, -1.9000000000000001, 0.1, 0, -1.6740000000000001E-12, 3.3230000000000003E-12, -5.3520000000000006E-12, 1.6740000000000001E-12, 1.2938315191708695E-06, 3.5340202025355274E-11, 5.3520000000000006E-12
DataValue, -1.85, 0.1, 0, 3.9200000000000005E-13, 1.5780000000000001E-12, -1.017E-12, 3.9200000000000005E-13, 6.2609903369994114E-07, 2.4697187216080838E-11, 1.017E-12
DataValue, -1.8, 0.1, 0, 6.35E-13, -2.5E-13, -5.1940000000000007E-12, 6.35E-13, 7.9686887252546133E-07, 1.7416667081875912E-13, 5.1940000000000007E-12
DataValue, -1.75, 0.1, 0, 4.46E-13, -7.26E-13, -3.999E-12, 4.46E-13, 6.6783231428256E-07, 1.2662220184680388E-12, 3.999E-12
DataValue, -1.7000000000000002, 0.1, 0, 8.2700000000000011E-13, -1.4950000000000002E-12, -4.9840000000000006E-12, 8.2700000000000011E-13, 9.0939540355117258E-07, 9.9061664722182916E-11, 4.9840000000000006E-12
DataValue, -1.6500000000000001, 0.1, 0, 2.766E-12, 1.7900000000000002E-13, 6.4400000000000008E-13, 2.766E-12, 1.6631295800387894E-06, 3.9036306159625659E-11, 6.4400000000000008E-13
DataValue, -1.6, 0.1, 0, -8.1000000000000008E-14, -1.5660000000000002E-12, 1.5890000000000002E-12, 8.1000000000000008E-14, 2.8460498941515418E-07, 1.3321987712669841E-10, 1.5890000000000002E-12
DataValue, -1.55, 0.1, 0, -2.59E-13, 9.21E-13, 4.77E-13, 2.59E-13, 5.0892042599997892E-07, 2.1814488433582996E-11, 4.77E-13
DataValue, -1.5, 0.1, 0, 5.65E-13, 2.6470000000000003E-12, -1.024E-12, 5.65E-13, 7.5166481891864546E-07, 2.7868014327408853E-11, 1.024E-12
DataValue, -1.4500000000000002, 0.1, 0, 1.0750000000000002E-12, 1.3800000000000002E-13, -3.1680000000000002E-12, 1.0750000000000002E-12, 1.0368220676663861E-06, 2.2806601849524996E-11, 3.1680000000000002E-12
DataValue, -1.4000000000000001, 0.1, 0, 1.5110000000000001E-12, 2.85E-13, -2.3500000000000003E-12, 1.5110000000000001E-12, 1.2292273996295397E-06, 2.8388992591681358E-12, 2.3500000000000003E-12
DataValue, -1.35, 0.1, 0, 7.54E-13, 5.0400000000000007E-13, 1.5500000000000002E-13, 7.54E-13, 8.6833173384369641E-07, 2.2054504739739398E-11, 1.5500000000000002E-13
DataValue, -1.3, 0.1, 0, 5.7700000000000007E-13, 1.833E-12, -3.808E-12, 5.7700000000000007E-13, 7.5960516059331776E-07, 3.9434147192003606E-13, 3.808E-12
DataValue, -1.25, 0.1, 0, 8.67E-13, -4.73E-13, 1.0390000000000001E-12, 8.67E-13, 9.3112834775878237E-07, 5.1932487975667372E-15, 1.0390000000000001E-12
DataValue, -1.2, 0.1, 0, 5.88E-13, 2.098E-12, -7.31E-13, 5.88E-13, 7.6681158050723253E-07, 1.6855273480193922E-11, 7.31E-13
DataValue, -1.1500000000000001, 0.1, 0, 2.71E-13, -7.580000000000001E-13, -2.2740000000000002E-12, 2.71E-13, 5.2057660339281479E-07, 3.0303068478633552E-14, 2.2740000000000002E-12
DataValue, -1.1, 0.1, 0, 6.15E-13, 1.54E-13, 1.2150000000000002E-12, 6.15E-13, 7.8421935706790606E-07, 9.2421520718451412E-17, 1.2150000000000002E-12
DataValue, -1.05, 0.1, 0, 2.7E-13, 4.93E-13, -1.9650000000000002E-12, 2.7E-13, 5.1961524227066323E-07, 6.8250019057783194E-12, 1.9650000000000002E-12
DataValue, -1, 0.1, 0, 1.093E-12, -1.3280000000000002E-12, -1.711E-12, 1.093E-12, 1.04546640309481E-06, 1.5854549090424334E-12, 1.711E-12
DataValue, -0.95000000000000007, 0.1, 0, -1.5500000000000002E-13, -1.4450000000000002E-12, -4.1660000000000006E-12, 1.5500000000000002E-13, 3.9370039370059057E-07, 4.9335090603762668E-11, 4.1660000000000006E-12
DataValue, -0.9, 0.1, 0, 3.0550000000000002E-12, -6.9800000000000006E-13, 1.4530000000000002E-12, 3.0550000000000002E-12, 1.7478558292948536E-06, 6.7573305708386679E-11, 1.4530000000000002E-12
DataValue, -0.85000000000000009, 0.1, 0, -1.4780000000000002E-12, -4.2900000000000004E-13, 5.132E-12, 1.4780000000000002E-12, 1.2157302332343308E-06, 3.433500889416875E-11, 5.132E-12
DataValue, -0.8, 0.1, 0, 1.3500000000000001E-12, 2.2200000000000002E-12, -3.67E-12, 1.3500000000000001E-12, 1.1618950038622252E-06, 7.6845163877429112E-11, 3.67E-12
DataValue, -0.75, 0.1, 0, -1.1500000000000002E-13, -1.8060000000000002E-12, 4.2000000000000003E-13, 1.1500000000000002E-13, 3.3911649915626343E-07, 6.0200501673643736E-11, 4.2000000000000003E-13
DataValue, -0.70000000000000007, 0.1, 0, -1.4900000000000002E-13, 1.3340000000000002E-12, -1.648E-12, 1.4900000000000002E-13, 3.8600518131237568E-07, 3.3276944489053691E-12, 1.648E-12
DataValue, -0.65, 0.1, 0, 2.72E-13, 2.7E-13, -5.13E-13, 2.72E-13, 5.2153619241621187E-07, 3.4895490851010721E-11, 5.13E-13
DataValue, -0.6, 0.1, 0, 9.54E-13, 5.2000000000000006E-14, -1.9870000000000003E-12, 9.54E-13, 9.7672923576598245E-07, 3.0651526983199647E-11, 1.9870000000000003E-12
DataValue, -0.55, 0.1, 0, 1.1560000000000001E-12, 1.3730000000000001E-12, 5.5400000000000006E-13, 1.1560000000000001E-12, 1.0751744044572489E-06, 1.7434363400960596E-11, 5.5400000000000006E-13
DataValue, -0.5, 0.1, 0, -1.944E-12, -8.5500000000000009E-13, -1.57E-13, 1.944E-12, 1.3942740046346702E-06, 5.3533092659838488E-11, 1.57E-13
DataValue, -0.45, 0.1, 0, 1.18E-13, 9.1400000000000014E-13, 5.4000000000000003E-14, 1.18E-13, 3.4351128074635336E-07, 5.93786384597913E-11, 5.4000000000000003E-14
DataValue, -0.4, 0.1, 0, 3.89E-13, 1.59E-13, -4.76E-13, 3.89E-13, 6.2369864518050708E-07, 7.0652350986645E-11, 4.76E-13
DataValue, -0.35000000000000003, 0.1, 0, -1.402E-12, 1.7660000000000002E-12, -1.159E-12, 1.402E-12, 1.1840608092492547E-06, 1.6007348638037289E-11, 1.159E-12
DataValue, -0.3, 0.1, 0, -5E-14, -8.44E-13, 1.3360000000000002E-12, 5E-14, 2.2360679774997896E-07, 5.94618799580367E-12, 1.3360000000000002E-12
DataValue, -0.25, 0.1, 0, 8.8400000000000007E-13, -4.96E-13, -3.2E-12, 8.8400000000000007E-13, 9.4021274188345268E-07, 1.9159728795100992E-10, 3.2E-12
DataValue, -0.2, 0.1, 0, 2.5850000000000004E-12, -9.6400000000000013E-13, 1.0980000000000002E-12, 2.5850000000000004E-12, 1.6077935190813528E-06, 4.6958368822076973E-11, 1.0980000000000002E-12
DataValue, -0.15, 0.1, 0, 6.5E-14, -3.8E-14, 3.97E-13, 6.5E-14, 2.5495097567963926E-07, 1.1334891927044942E-10, 3.97E-13
DataValue, -0.1, 0.1, 0, -2.95E-13, -4.91E-13, 6.4500000000000008E-13, 2.95E-13, 5.4313902456001079E-07, 4.9879522444229349E-13, 6.4500000000000008E-13
DataValue, -0.05, 0.1, 0, -1.06E-13, 1.4E-14, -7.8000000000000011E-13, 1.06E-13, 3.2557641192199413E-07, 2.1581598906366452E-12, 7.8000000000000011E-13
DataValue, 0, 0.1, 0, 1.57E-13, -9.7E-14, 7.110000000000001E-13, 1.57E-13, 3.96232255123179E-07, 2.633350821970537E-12, 7.110000000000001E-13
DataValue, 0.05, 0.1, 0, -2.38E-13, -3.6700000000000005E-13, -4.65E-13, 2.38E-13, 4.8785243670601876E-07, 1.3822921690861857E-10, 4.65E-13
DataValue, 0.1, 0.1, 0, -2.4710000000000003E-12, 1.0400000000000001E-13, 1.08E-12, 2.4710000000000003E-12, 1.5719414747375298E-06, 2.1139174247144887E-12, 1.08E-12
DataValue, 0.15, 0.1, 0, 4.01E-13, -6.2200000000000008E-13, 6.36E-13, 4.01E-13, 6.332456079595026E-07, 1.5308728550899247E-11, 6.36E-13
DataValue, 0.2, 0.1, 0, 1.3940000000000001E-12, -1.2440000000000002E-12, -5.66E-13, 1.3940000000000001E-12, 1.1806777714516353E-06, 1.6547986508723721E-10, 5.66E-13
DataValue, 0.25, 0.1, 0, 3.6850000000000006E-12, -3.7270000000000006E-12, -3.8300000000000003E-13, 3.6850000000000006E-12, 1.9196353820452468E-06, 4.1098685819980685E-10, 3.8300000000000003E-13
DataValue, 0.3, 0.1, 0, 1.0291000000000001E-11, -1.0052000000000001E-11, 5.4E-13, 1.0291000000000001E-11, 3.2079588526039424E-06, 8.6992598712831071E-10, 5.4E-13
DataValue, 0.35000000000000003, 0.1, 0, 2.3708E-11, -2.3438E-11, -6.4400000000000008E-13, 2.3708E-11, 4.8690861565595651E-06, 1.4933445435895764E-09, 6.4400000000000008E-13
DataValue, 0.4, 0.1, 0, 5.0018E-11, -4.8094E-11, 6.2700000000000005E-13, 5.0018E-11, 7.0723404895409269E-06, 2.3671507026968858E-09, 6.2700000000000005E-13
DataValue, 0.45, 0.1, 0, 9.4759000000000009E-11, -9.0344E-11, 5.89E-13, 9.4759000000000009E-11, 9.7344234549355827E-06, 3.014735540834642E-09, 5.89E-13
DataValue, 0.5, 0.1, 0, 1.57829E-10, -1.5234400000000002E-10, -3.05E-13, 1.57829E-10, 1.2563001233781679E-05, 3.0504263662984035E-09, 3.05E-13
DataValue, 0.55, 0.1, 0, 2.3279100000000001E-10, -2.2590100000000003E-10, 9.6000000000000007E-14, 2.3279100000000001E-10, 1.5257489963948855E-05, 2.766247297980137E-09, 9.6000000000000007E-14
DataValue, 0.6, 0.1, 0, 3.17642E-10, -3.1255E-10, 2.9900000000000004E-13, 3.17642E-10, 1.7822513851867252E-05, 2.3895755139951417E-09, 2.9900000000000004E-13
DataValue, 0.65, 0.1, 0, 4.0585400000000003E-10, -4.0349E-10, 1.2770000000000001E-12, 4.0585400000000003E-10, 2.014581842467563E-05, 2.1374993628153114E-09, 1.2770000000000001E-12
DataValue, 0.70000000000000007, 0.1, 0, 5.0381500000000008E-10, -4.82639E-10, 4.3000000000000006E-14, 5.0381500000000008E-10, 2.24458236649939E-05, 1.450254642826727E-09, 4.3000000000000006E-14
DataValue, 0.75, 0.1, 0, 5.7379600000000009E-10, -5.6330500000000005E-10, -4.01E-13, 5.7379600000000009E-10, 2.3954039325341355E-05, 5.6292161128972563E-10, 4.01E-13
DataValue, 0.8, 0.1, 0, 6.1595400000000006E-10, -6.27063E-10, 1.1540000000000001E-12, 6.1595400000000006E-10, 2.48184205782721E-05, 1.0194455777489047E-09, 1.1540000000000001E-12
DataValue, 0.85000000000000009, 0.1, 0, 7.3695500000000007E-10, -7.41846E-10, 1E-15, 7.3695500000000007E-10, 2.7146915110192539E-05, 1.1602294166551225E-09, 1E-15
DataValue, 0.9, 0.1, 0, 7.9663000000000007E-10, -7.8782400000000011E-10, 3.86E-13, 7.9663000000000007E-10, 2.822463463005323E-05, 5.2151222921520536E-10, 3.86E-13
DataValue, 0.95000000000000007, 0.1, 0, 8.66159E-10, -8.913700000000001E-10, 6.16E-13, 8.66159E-10, 2.9430579335106537E-05, 5.564440797162885E-10, 6.16E-13
DataValue, 1, 0.1, 0, 9.35353E-10, -9.30332E-10, 3.7100000000000003E-13, 9.35353E-10, 3.0583541325359953E-05, 3.0039187021472558E-10, 3.7100000000000003E-13
DataValue, 1.05, 0.1, 0, 9.7118E-10, -1.0092640000000001E-09, 8.2800000000000011E-13, 9.7118E-10, 3.1163761005372887E-05, 4.5795897411145553E-10, 8.2800000000000011E-13
DataValue, 1.1, 0.1, 0, 1.07083E-09, -1.08137E-09, 1.224E-12, 1.07083E-09, 3.2723538928422761E-05, 4.4696708258663739E-10, 1.224E-12
DataValue, 1.1500000000000001, 0.1, 0, 1.10742E-09, -1.11049E-09, 6.15E-13, 1.10742E-09, 3.3277920608114928E-05, 5.8799496600538E-10, 6.15E-13
DataValue, 1.2, 0.1, 0, 1.23541E-09, -1.21822E-09, 8.2E-14, 1.23541E-09, 3.5148399679075009E-05, 1.2819672338331154E-09, 8.2E-14
DataValue, 1.25, 0.1, 0, 1.35854E-09, -1.33789E-09, 1.038E-12, 1.35854E-09, 3.6858377609439077E-05, 8.9199204892635469E-10, 1.038E-12
DataValue, 1.3, 0.1, 0, 1.45428E-09, -1.50433E-09, 1.837E-12, 1.45428E-09, 3.8135023272577137E-05, 7.3080813074656972E-10, 1.837E-12
DataValue, 1.35, 0.1, 0, 1.56513E-09, -1.60903E-09, 1.456E-12, 1.56513E-09, 3.95617239260374E-05, 3.078531216047529E-10, 1.456E-12
DataValue, 1.4000000000000001, 0.1, 0, 1.59118E-09, -1.6268E-09, 1.669E-12, 1.59118E-09, 3.9889597641490445E-05, 5.4915564835000159E-10, 1.669E-12
DataValue, 1.4500000000000002, 0.1, 0, 1.75604E-09, -1.82255E-09, 2.3340000000000004E-12, 1.75604E-09, 4.19051309507559E-05, 2.444407582428605E-09, 2.3340000000000004E-12
DataValue, 1.5, 0.1, 0, 2.01006E-09, -1.98068E-09, 2.9220000000000003E-12, 2.01006E-09, 4.4833692687531326E-05, 4.92904494151294E-10, 2.9220000000000003E-12
DataValue, 1.55, 0.1, 0, 1.94704E-09, -2.00452E-09, 4.234E-12, 1.94704E-09, 4.412527620310155E-05, 6.2294986710695777E-10, 4.234E-12
DataValue, 1.6, 0.1, 0, 2.24009E-09, -2.17742E-09, 5.204E-12, 2.24009E-09, 4.7329589053783256E-05, 2.0190119003781934E-09, 5.204E-12
DataValue, 1.6500000000000001, 0.1, 0, 2.36377E-09, -2.21071E-09, 9.6750000000000015E-12, 2.36377E-09, 4.8618617833089412E-05, 8.6301371341848426E-11, 9.6750000000000015E-12
DataValue, 1.7000000000000002, 0.1, 0, 2.32889E-09, -2.43246E-09, 9.347E-12, 2.32889E-09, 4.8258574367670664E-05, 9.56118174274713E-10, 9.347E-12
DataValue, 1.75, 0.1, 0, 2.674E-09, -2.63509E-09, 1.0796E-11, 2.674E-09, 5.1710733895391586E-05, 1.8204367623326229E-09, 1.0796E-11
DataValue, 1.8, 0.1, 0, 2.7589E-09, -2.68781E-09, 9.432000000000001E-12, 2.7589E-09, 5.2525232031853037E-05, 2.8223853403078564E-10, 9.432000000000001E-12
DataValue, 1.85, 0.1, 0, 2.85057E-09, -3.0405E-09, 1.3203000000000002E-11, 2.85057E-09, 5.3390729532382308E-05, 1.2166009329708201E-09, 1.3203000000000002E-11
DataValue, 1.9000000000000001, 0.1, 0, 3.13748E-09, -3.1849E-09, 1.4242000000000002E-11, 3.13748E-09, 5.6013212726998615E-05, 1.8252919608965174E-09, 1.4242000000000002E-11
DataValue, 1.9500000000000002, 0.1, 0, 3.32503E-09, -3.27109E-09, 1.8949E-11, 3.32503E-09, 5.7663073105758074E-05, 4.6506598660668438E-10, 1.8949E-11
DataValue, 2, 0.1, 0, 3.38372E-09, -3.41154E-09, 2.3089000000000002E-11, 3.38372E-09, 5.8169751589636344E-05, 8.72662516496038E-10, 2.3089000000000002E-11
DataValue, 2.05, 0.1, 0, 3.67444E-09, -3.65515E-09, 2.806E-11, 3.67444E-09, 6.0617159286789412E-05, 2.1658920745879466E-11, 2.806E-11
DataValue, 2.1, 0.1, 0, 3.43808E-09, -3.52002E-09, 3.2982E-11, 3.43808E-09, 5.8635143045787824E-05, 1.3758571539192769E-10, 3.2982E-11
DataValue, 2.15, 0.1, 0, 3.81802E-09, -4.04993E-09, 3.911E-11, 3.81802E-09, 6.1790128661461777E-05, 3.3565537445878581E-09, 3.911E-11
DataValue, 2.2, 0.1, 0, 4.15106E-09, -4.34683E-09, 4.5352E-11, 4.15106E-09, 6.4428720303914158E-05, 3.9137018777693676E-09, 4.5352E-11
DataValue, 2.25, 0.1, 0, 4.63027E-09, -4.46105E-09, 5.3985E-11, 4.63027E-09, 6.8046087323225276E-05, 2.0557366931281908E-09, 5.3985E-11
DataValue, 2.3000000000000003, 0.1, 0, 4.75586E-09, -4.88387E-09, 6.302E-11, 4.75586E-09, 6.8962743564913371E-05, 1.2295407354329254E-09, 6.302E-11
DataValue, 2.35, 0.1, 0, 5.11977E-09, -5.16425E-09, 7.382300000000001E-11, 5.11977E-09, 7.155256808808472E-05, 9.4216549842950628E-10, 7.382300000000001E-11
DataValue, 2.4, 0.1, 0, 5.18864E-09, -5.29861E-09, 8.380900000000001E-11, 5.18864E-09, 7.203221501522774E-05, 8.6924987762578449E-10, 8.380900000000001E-11
